! TOUCHSTONE file generated by CST MICROWAVE STUDIO
! Date and time: Tue Jun  7 20:03:41 2022
! Project name: AppElm_antenne_patch_FR4.cst
! Parameters = {L=36; W=58.5; e=0.035; h=1.6; lambda=0.190476; ls=120; w0=1.6; w1=0.533333; ws=120; y0=20; y1=23.8095}
! Header version: 2018
! Port assignment regex: !\s*Touchstone port\s*([0-9]+)\s*=\s*(CST MWS port|CST DS port)\s*([0-9]+|Zmin|Zmax)\s*\(\"(.*)\"\)(\s*mode\s*([0-9]+))?.*
! Touchstone port assignment:
! Touchstone port 1 = CST MWS port 1 ("")
# GHz S MA R 50
0                      0.9971688              -0
0.004                  0.9973448       -8.199985
0.008                  0.9978483        -16.3503
0.012                  0.9986096       -24.40286
0.016                  0.9995239       -32.31262
0.02                    1.000466       -40.03879
0.024                    1.00131       -47.54576
0.028                   1.001943       -54.80374
0.032                   1.002286        -61.7891
0.036                   1.002299       -68.48455
0.04                    1.001991       -74.87917
0.044                   1.001413       -80.96817
0.048                   1.000654       -86.75276
0.052                  0.9998245       -92.23956
0.056                  0.9990434       -97.44012
0.06                   0.9984188         -102.37
0.064                  0.9980331       -107.0477
0.068                  0.9979317       -111.4935
0.072                  0.9981178       -115.7279
0.076                  0.9985523       -119.7709
0.08                   0.9991616       -123.6404
0.084                  0.9998495       -127.3515
0.088                   1.000512       -130.9167
0.092                   1.001052       -134.3452
0.096                   1.001398       -137.6436
0.1                     1.001505       -140.8166
0.104                   1.001371       -143.8677
0.108                   1.001027       -146.8004
0.112                   1.000536       -149.6182
0.116                  0.9999804       -152.3262
0.12                   0.9994501       -154.9307
0.124                  0.9990276       -157.4394
0.128                  0.9987759       -159.8614
0.132                  0.9987285       -162.2062
0.136                  0.9988861       -164.4833
0.14                   0.9992167       -166.7014
0.144                   0.999662       -168.8677
0.148                   1.000147       -170.9875
0.152                   1.000595        -173.064
0.156                   1.000934       -175.0984
0.16                    1.001114       -177.0903
0.164                   1.001112       -179.0384
0.168                   1.000934        179.0592
0.172                   1.000613        177.2038
0.176                   1.000206        175.3959
0.18                    0.999782        173.6347
0.184                  0.9994095        171.9178
0.188                  0.9991481        170.2414
0.192                  0.9990375        168.6008
0.196                  0.9990916        166.9907
0.2                    0.9992972        165.4061
0.204                   0.999616        163.8424
0.208                  0.9999927        162.2967
0.212                   1.000363        160.7672
0.216                   1.000666        159.2539
0.22                    1.000852        157.7581
0.224                   1.000894        156.2822
0.228                   1.000786        154.8287
0.232                    1.00055        153.4001
0.236                   1.000227        151.9983
0.24                   0.9998732        150.6238
0.244                  0.9995474         149.276
0.248                  0.9993037        147.9527
0.252                  0.9991815         146.651
0.256                  0.9991993        145.3671
0.26                   0.9993514        144.0971
0.264                    0.99961        142.8377
0.268                  0.9999298        141.5864
0.272                   1.000255        140.3421
0.276                   1.000532        139.1048
0.28                    1.000714        137.8759
0.284                    1.00077        136.6579
0.288                   1.000694        135.4533
0.292                   1.000501        134.2648
0.296                   1.000223        133.0946
0.3                    0.9999099        131.9437
0.304                  0.9996146         130.812
0.308                  0.9993873        129.6981
0.312                  0.9992661        128.5996
0.316                  0.9992703        127.5134
0.32                    0.999398        126.4362
0.324                  0.9996255         125.365
0.328                   0.999913        124.2979
0.332                   1.000211        123.2336
0.336                   1.000466        122.1723
0.34                    1.000638        121.1156
0.344                   1.000695        120.0655
0.348                   1.000629        119.0247
0.352                   1.000452         117.996
0.356                   1.000195        116.9814
0.36                   0.9999032        115.9821
0.364                  0.9996262        114.9983
0.368                  0.9994118        114.0287
0.372                  0.9992965        113.0713
0.376                  0.9992994        112.1232
0.38                   0.9994193        111.1815
0.384                  0.9996347        110.2433
0.388                  0.9999073        109.3067
0.392                    1.00019        108.3708
0.396                   1.000433        107.4358
0.4                     1.000594         106.503
0.404                   1.000646        105.5748
0.408                    1.00058        104.6538
0.412                   1.000408        103.7425
0.416                    1.00016        102.8431
0.42                   0.9998799        101.9568
0.424                  0.9996158        101.0837
0.428                  0.9994143        100.2226
0.432                  0.9993102        99.37167
0.436                  0.9993216          98.528
0.44                   0.9994464        97.68879
0.444                  0.9996623         96.8514
0.448                  0.9999318        96.01396
0.452                   1.000207        95.17566
0.456                   1.000441        94.33689
0.46                    1.000592        93.49906
0.464                   1.000633        92.66445
0.468                   1.000559        91.83573
0.472                   1.000381        91.01552
0.476                   1.000131        90.20587
0.48                   0.9998534        89.40792
0.484                  0.9995962        88.62171
0.488                  0.9994049        87.84609
0.492                  0.9993131        87.07897
0.496                  0.9993371        86.31759
0.5                    0.9994723        85.55911
0.504                  0.9996949        84.80102
0.508                  0.9999657        84.04154
0.512                   1.000237        83.28003
0.516                    1.00046          82.517
0.52                    1.000596        81.75407
0.524                    1.00062        80.99355
0.528                   1.000528        80.23823
0.532                   1.000336        79.49071
0.536                   1.000076        78.75295
0.54                   0.9997947        78.02604
0.544                  0.9995415        77.30983
0.548                  0.9993609        76.60301
0.552                  0.9992845        75.90341
0.556                  0.9993265        75.20815
0.56                   0.9994788        74.51441
0.564                  0.9997148        73.81968
0.568                  0.9999925         73.1224
0.572                   1.000262        72.42206
0.576                   1.000477        71.71941
0.58                    1.000596        71.01622
0.584                     1.0006        70.31503
0.588                   1.000486        69.61865
0.592                   1.000275        68.92972
0.596                   1.000003        68.25013
0.6                    0.9997172        67.58077
0.604                  0.9994694         66.9213
0.608                  0.9993033        66.27022
0.612                  0.9992485        65.62512
0.616                  0.9993153        64.98306
0.62                   0.9994918         64.3411
0.624                  0.9997471        63.69688
0.628                   1.000036        63.04897
0.632                   1.000306        62.39712
0.636                    1.00051         61.7423
0.64                     1.00061        61.08657
0.644                   1.000589        60.43265
0.648                   1.000448        59.78348
0.652                   1.000213        59.14166
0.656                  0.9999241        58.50899
0.66                   0.9996331        57.88616
0.664                  0.9993915        57.27254
0.668                  0.9992423        56.66637
0.672                  0.9992128        56.06497
0.676                  0.9993086         55.4653
0.68                   0.9995127        54.86437
0.684                  0.9997894        54.25992
0.688                   1.000089        53.65069
0.692                   1.000357        53.03675
0.696                   1.000546        52.41939
0.7                     1.000621        51.80095
0.704                   1.000568         51.1844
0.708                   1.000395        50.57275
0.712                   1.000131        49.96859
0.716                  0.9998242        49.37356
0.72                   0.9995274        48.78806
0.724                  0.9992942        48.21118
0.728                  0.9991665         47.6408
0.732                  0.9991674        47.07399
0.736                  0.9992972         46.5075
0.74                   0.9995333        45.93839
0.744                  0.9998335        45.36448
0.748                   1.000144        44.78479
0.752                   1.000409        44.19972
0.756                    1.00058        43.61093
0.76                    1.000625         43.0211
0.764                   1.000536         42.4334
0.768                   1.000326        41.85098
0.772                   1.000033        41.27632
0.776                  0.9997075        40.71088
0.78                   0.9994082        40.15473
0.784                  0.9991883        39.60657
0.788                   0.999088        39.06389
0.792                  0.9991257        38.52351
0.796                  0.9992954        37.98199
0.8                     0.999567        37.43641
0.804                  0.9998922        36.88477
0.808                   1.000213        36.32641
0.812                    1.00047        35.76212
0.816                   1.000618        35.19398
0.82                    1.000628        34.62503
0.824                   1.000496        34.05868
0.828                   1.000247        33.49811
0.832                  0.9999218        32.94574
0.836                  0.9995791        32.40273
0.84                     0.99928        31.86877
0.844                  0.9990782         31.3421
0.848                  0.9990109        30.81984
0.852                  0.9990907        30.29847
0.856                   0.999304        29.77444
0.86                    0.999613        29.24487
0.864                  0.9999625          28.708
0.868                   1.000289        28.16355
0.872                   1.000534        27.61277
0.876                   1.000652         27.0582
0.88                     1.00062        26.50323
0.884                   1.000442        25.95149
0.888                   1.000148        25.40623
0.892                  0.9997911        24.86965
0.896                  0.9994334        24.34259
0.9                    0.9991394        23.82428
0.904                  0.9989623        23.31248
0.908                  0.9989348        22.80386
0.912                  0.9990628         22.2946
0.916                  0.9993242        21.78106
0.92                   0.9996724        21.26045
0.924                   1.000045        20.73132
0.928                   1.000375        20.19384
0.932                   1.000602        19.64978
0.936                   1.000683        19.10215
0.94                    1.000603        18.55473
0.944                   1.000373        18.01134
0.948                   1.000034         17.4752
0.952                  0.9996459        16.94829
0.956                  0.9992769        16.43101
0.96                   0.9989939        15.92209
0.964                  0.9988483        15.41875
0.968                  0.9988677         14.9172
0.972                  0.9990495        14.41334
0.976                  0.9993621        13.90348
0.98                   0.9997497        13.38498
0.984                   1.000143        12.85679
0.988                    1.00047        12.31959
0.992                   1.000671        11.77571
0.996                   1.000708        11.22868
1                       1.000573        10.68264
1.004                   1.000287        10.14158
1.008                  0.9999011        9.608628
1.012                  0.9994824        9.085458
1.016                  0.9991061        8.571981
1.02                   0.9988402        8.066327
1.024                  0.9987336        7.565143
1.028                  0.9988066        7.064194
1.032                  0.9990474        6.559111
1.036                  0.9994138        6.046185
1.04                     0.99984        5.523043
1.044                    1.00025        4.989075
1.048                   1.000568        4.445555
1.052                   1.000736        3.895415
1.056                   1.000722        3.342722
1.06                    1.000526        2.791965
1.064                    1.00018        2.247246
1.068                  0.9997463        1.711539
1.072                  0.9993002         1.18613
1.076                  0.9989224       0.6703611
1.08                   0.9986813        0.161711
1.084                  0.9986216      -0.3437791
1.088                  0.9987556      -0.8508059
1.092                  0.9990605       -1.363961
1.096                  0.9994827       -1.886896
1.1                    0.9999464       -2.421663
1.104                   1.000368       -2.968332
1.108                    1.00067       -3.524968
1.112                   1.000797       -4.088023
1.116                   1.000724       -4.652825
1.12                     1.00046       -5.214622
1.124                   1.000051       -5.769232
1.128                  0.9995682       -6.313893
1.132                  0.9990975       -6.847793
1.136                  0.9987234       -7.372241
1.14                   0.9985141       -7.890464
1.144                  0.9985087       -8.407054
1.148                  0.9987097       -8.927161
1.152                  0.9990825       -9.455556
1.156                  0.9995612       -9.995767
1.16                     1.00006       -10.54944
1.164                   1.000488       -11.11603
1.168                   1.000766       -11.69291
1.172                   1.000844       -12.27579
1.176                   1.000703       -12.85953
1.18                    1.000365       -13.43901
1.184                  0.9998896       -14.01007
1.188                  0.9993588       -14.57026
1.192                  0.9988674       -15.11932
1.196                  0.9985038       -15.65928
1.2                    0.9983347       -16.19413
1.204                  0.9983923       -16.72913
1.208                  0.9986681       -17.26985
1.212                  0.9991144        -17.8212
1.216                  0.9996518       -18.38653
1.22                    1.000184         -18.967
1.224                   1.000614       -19.56137
1.228                   1.000863       -20.16623
1.232                   1.000884       -20.77659
1.236                   1.000669       -21.38674
1.24                    1.000253       -21.99131
1.244                  0.9997085       -22.58619
1.248                  0.9991306       -23.16929
1.252                  0.9986226       -23.74101
1.256                  0.9982761       -24.30416
1.26                   0.9981552       -24.86354
1.264                  0.9982838       -25.42509
1.268                  0.9986411       -25.99481
1.272                  0.9991646       -26.57771
1.276                  0.9997612       -27.17688
1.28                    1.000324       -27.79289
1.284                   1.000751       -28.42377
1.288                   1.000962       -29.06525
1.292                   1.000916       -29.71161
1.296                   1.000618       -30.35657
1.3                     1.000116        -30.9945
1.304                  0.9994973        -31.6214
1.308                  0.9988702       -32.23562
1.312                  0.9983464       -32.83829
1.316                  0.9980207       -33.43307
1.32                   0.9979534       -34.02563
1.324                  0.9981591       -34.62262
1.328                  0.9986031       -35.23047
1.332                  0.9992076       -35.85424
1.336                   0.999865        -36.4967
1.34                    1.000457       -37.15782
1.344                   1.000875       -37.83475
1.348                   1.001042       -38.52238
1.352                   1.000922       -39.21413
1.356                   1.000533        -39.9032
1.36                   0.9999382       -40.58371
1.364                  0.9992412       -41.25178
1.368                  0.9985639       -41.90628
1.372                   0.998027       -42.54911
1.376                  0.9977279       -43.18489
1.38                   0.9977226       -43.82022
1.384                  0.9980154       -44.46249
1.388                  0.9985561       -45.11859
1.392                  0.9992506       -45.79363
1.396                  0.9999752          -46.49
1.4                       1.0006         -47.207
1.404                    1.00101       -47.94089
1.408                   1.001128       -48.68553
1.412                   1.000929       -49.43354
1.416                   1.000441       -50.17747
1.42                   0.9997465       -50.91118
1.424                  0.9989645       -51.63095
1.428                  0.9982326       -52.33618
1.432                  0.9976814       -53.02962
1.436                  0.9974109       -53.71693
1.44                   0.9974727       -54.40571
1.444                  0.9978597       -55.10418
1.448                  0.9985057       -55.81971
1.452                  0.9992977       -56.55747
1.456                   1.000095       -57.31949
1.46                    1.000754       -58.10429
1.464                   1.001154       -58.90716
1.468                   1.001218       -59.72091
1.472                   1.000927       -60.53717
1.476                   1.000327       -61.34778
1.48                   0.9995153       -62.14627
1.484                  0.9986325       -62.92905
1.488                  0.9978323       -63.69607
1.492                   0.997257       -64.45101
1.496                  0.9970111       -65.20061
1.5                    0.9971419       -65.95367
1.504                    0.99763       -66.71934
1.508                  0.9983924       -67.50558
1.512                  0.9992952       -68.31769
1.516                   1.000178       -69.15734
1.52                    1.000881       -70.02228
1.524                   1.001275       -70.90666
1.528                   1.001283       -71.80214
1.532                   1.000893       -72.69918
1.536                   1.000166       -73.58879
1.54                   0.9992209       -74.46402
1.544                  0.9982195       -75.32129
1.548                  0.9973362       -76.16113
1.552                  0.9967275       -76.98821
