! TOUCHSTONE file generated by CST MICROWAVE STUDIO
! Date and time: Tue Jun 14 12:33:43 2022
! Project name: AppElm_antenne_patch_FR4.cst
! Parameters = {L=45; W=58.5; e=0.035; h=1.6; lambda=0.190476; ls=120; w0=2.54; w1=0.6352; ws=120; y0=18; y1=23.8}
! Header version: 2018
! Port assignment regex: !\s*Touchstone port\s*([0-9]+)\s*=\s*(CST MWS port|CST DS port)\s*([0-9]+|Zmin|Zmax)\s*\(\"(.*)\"\)(\s*mode\s*([0-9]+))?.*
! Touchstone port assignment:
! Touchstone port 1 = CST MWS port 1 ("")
# GHz S MA R 50
0                      0.9873381              -0
0.004                  0.9880884       -9.977398
0.008                  0.9902363       -19.86092
0.012                  0.9934878       -29.56159
0.016                  0.9974039       -38.99941
0.02                    1.001466       -48.10599
0.024                    1.00515       -56.82565
0.028                   1.007998       -65.11536
0.032                   1.009677       -72.94386
0.036                    1.01002       -80.29086
0.04                    1.009039       -87.14619
0.044                   1.006922       -93.50957
0.048                   1.004005       -99.39074
0.052                   1.000721       -104.8095
0.056                  0.9975384       -109.7959
0.06                   0.9948987       -114.3889
0.064                  0.9931479       -118.6348
0.068                  0.9924895       -122.5843
0.072                  0.9929592       -126.2879
0.076                  0.9944238       -129.7927
0.08                   0.9966098       -133.1379
0.084                  0.9991508       -136.3531
0.088                   1.001648       -139.4567
0.092                   1.003731       -142.4567
0.096                    1.00511       -145.3528
0.1                     1.005617       -148.1385
0.104                   1.005222       -150.8043
0.108                   1.004031       -153.3412
0.112                   1.002268        -155.743
0.116                   1.000234       -158.0087
0.12                   0.9982621       -160.1441
0.124                  0.9966614       -162.1615
0.128                  0.9956714       -164.0789
0.132                  0.9954256       -165.9183
0.136                  0.9959321       -167.7023
0.14                   0.9970784       -169.4516
0.144                  0.9986534       -171.1823
0.148                   1.000386       -172.9041
0.152                   1.001989       -174.6195
0.156                   1.003211       -176.3247
0.16                    1.003869       -178.0108
0.164                   1.003876       -179.6656
0.168                   1.003255        178.7234
0.172                   1.002127        177.1673
0.176                   1.000692        175.6734
0.18                   0.9991956        174.2437
0.184                  0.9978852        172.8749
0.188                  0.9969722        171.5579
0.192                  0.9965965        170.2799
0.196                   0.996805        169.0258
0.2                    0.9975462        167.7811
0.204                   0.998681        166.5336
0.208                   1.000009        165.2757
0.212                   1.001303        164.0051
0.216                   1.002349        162.7247
0.22                    1.002978        161.4419
0.224                   1.003095        160.1674
0.228                   1.002692        158.9125
0.232                   1.001848        157.6881
0.236                   1.000712        156.5021
0.24                   0.9994805        155.3583
0.244                  0.9983619        154.2557
0.248                  0.9975425        153.1886
0.252                  0.9971553        152.1475
0.256                  0.9972572        151.1207
0.26                   0.9978214        150.0961
0.264                  0.9987436        149.0635
0.268                  0.9998598        148.0161
0.272                   1.000978        146.9514
0.276                   1.001907        145.8716
0.28                    1.002493        144.7831
0.284                   1.002643         143.695
0.288                   1.002337        142.6177
0.292                   1.001633        141.5613
0.296                   1.000656        140.5334
0.3                    0.9995757        139.5383
0.304                   0.998577        138.5759
0.308                  0.9978298        137.6417
0.312                  0.9974592         136.728
0.316                  0.9975243        135.8244
0.32                   0.9980089        134.9203
0.324                  0.9988248        134.0066
0.328                  0.9998278        133.0767
0.332                   1.000844        132.1284
0.336                   1.001699        131.1634
0.34                    1.002248        130.1873
0.344                   1.002401        129.2087
0.348                   1.002134        128.2372
0.352                   1.001497        127.2822
0.356                   1.000602        126.3512
0.36                   0.9996054        125.4483
0.364                  0.9986789        124.5738
0.368                  0.9979825        123.7239
0.372                  0.9976354        122.8913
0.376                  0.9976952        122.0667
0.38                   0.9981494        121.2402
0.384                  0.9989166         120.403
0.388                  0.9998618        119.5491
0.392                   1.000821        118.6762
0.396                   1.001627         117.786
0.4                     1.002143        116.8839
0.404                   1.002281         115.978
0.408                    1.00202        115.0776
0.412                   1.001404        114.1918
0.416                   1.000544        113.3277
0.42                   0.9995875        112.4895
0.424                  0.9987016        111.6775
0.428                  0.9980405        110.8879
0.432                  0.9977185        110.1138
0.436                  0.9977912        109.3461
0.44                   0.9982445        108.5751
0.444                  0.9989985        107.7926
0.448                  0.9999205        106.9927
0.452                   1.000849        106.1733
0.456                   1.001623        105.3362
0.46                    1.002108        104.4868
0.464                    1.00222        103.6332
0.468                   1.001939        102.7847
0.472                   1.001315          101.95
0.476                   1.000455        101.1363
0.48                   0.9995099        100.3474
0.484                  0.9986437         99.5835
0.488                   0.998008        98.84071
0.492                  0.9977139        98.11203
0.496                  0.9978133        97.38834
0.5                    0.9982883        96.66014
0.504                  0.9990553        95.91916
0.508                  0.9999793        95.15984
0.512                   1.000898        94.38036
0.516                   1.001651        93.58281
0.52                    1.002105        92.77283
0.524                   1.002181        91.95864
0.528                   1.001864        91.14962
0.532                   1.001209        90.35461
0.536                   1.000327        89.58056
0.54                   0.9993737        88.83114
0.544                  0.9985146        88.10612
0.548                   0.997901        87.40138
0.552                  0.9976414        86.70953
0.556                  0.9977821        86.02124
0.56                   0.9982991         85.3269
0.564                  0.9991016        84.61829
0.568                   1.000049        83.89009
0.572                   1.000974         83.1408
0.576                   1.001714        82.37294
0.58                    1.002138         81.5926
0.584                   1.002169        80.80839
0.588                   1.001802        80.02991
0.592                   1.001097        79.26619
0.596                   1.000177        78.52402
0.6                    0.9992009        77.80676
0.604                  0.9983412        77.11381
0.608                  0.9977497        76.44051
0.612                  0.9975322        75.77891
0.616                  0.9977285         75.1193
0.62                   0.9983057        74.45179
0.624                  0.9991631        73.76818
0.628                    1.00015        73.06339
0.632                   1.001092        72.33636
0.636                   1.001823        71.59015
0.64                    1.002213        70.83152
0.644                    1.00219        70.06959
0.648                   1.001757        69.31444
0.652                   1.000985        68.57519
0.656                   1.000009        67.85857
0.66                   0.9989983        67.16765
0.664                  0.9981315        66.50119
0.668                  0.9975628        65.85383
0.672                  0.9973949        65.21698
0.676                  0.9976598        64.58029
0.68                    0.998313        63.93356
0.684                  0.9992407        63.26852
0.688                   1.000279        62.58037
0.692                   1.001245         61.8686
0.696                   1.001967        61.13703
0.7                     1.002316        60.39317
0.704                   1.002225         59.6469
0.708                   1.001708        58.90878
0.712                   1.000851        58.18819
0.716                  0.9998026        57.49179
0.72                   0.9987451        56.82218
0.724                  0.9978659        56.17741
0.728                  0.9973219        55.55129
0.732                  0.9972125        54.93429
0.736                  0.9975597        54.31537
0.74                   0.9983047        53.68387
0.744                  0.9993176        53.03148
0.748                   1.000419        52.35375
0.752                   1.001415        51.65079
0.756                   1.002126        50.92736
0.76                    1.002423        50.19191
0.764                    1.00225        49.45521
0.768                   1.001632        48.72843
0.772                   1.000671        48.02128
0.776                  0.9995349        47.34027
0.78                   0.9984209        46.68746
0.784                  0.9975267        46.06007
0.788                  0.9970128        45.45082
0.792                  0.9969737        44.84913
0.796                  0.9974202        44.24308
0.8                    0.9982758        43.62149
0.804                  0.9993909        42.97599
0.808                   1.000569        42.30252
0.812                   1.001599        41.60206
0.816                   1.002297        40.88038
0.82                    1.002535        40.14712
0.824                   1.002264        39.41405
0.828                   1.001526        38.69313
0.832                   1.000444        37.99437
0.836                  0.9992052        37.32413
0.84                   0.9980262        36.68384
0.844                  0.9971168        36.06968
0.848                  0.9966412        35.47307
0.852                  0.9966882         34.8822
0.856                  0.9972541         34.2841
0.86                   0.9982422        33.66701
0.864                  0.9994795        33.02248
0.868                   1.000747        32.34699
0.872                   1.001819        31.64247
0.876                   1.002502        30.91597
0.88                    1.002669        30.17847
0.884                   1.002283        29.44297
0.888                   1.001404         28.7223
0.892                    1.00018        28.02685
0.896                  0.9988219        27.36278
0.9                    0.9975687        26.73074
0.904                  0.9966439        26.12566
0.908                  0.9962158        25.53749
0.912                  0.9963664         24.9529
0.916                  0.9970746        24.35772
0.92                   0.9982195         23.7395
0.924                  0.9996005        23.08976
0.928                   1.000973        22.40559
0.932                   1.002092        21.69006
0.936                   1.002755        20.95174
0.94                    1.002837        20.20321
0.944                   1.002313        19.45888
0.948                   1.001267        18.73261
0.952                   0.999875        18.03522
0.956                  0.9983764        17.37264
0.96                   0.9970355        16.74458
0.964                  0.9960926        16.14452
0.968                  0.9957209        15.56061
0.972                  0.9959939        14.97776
0.976                  0.9968701        14.38038
0.98                   0.9981995        13.75518
0.984                  0.9997492         13.0937
0.988                   1.001245        12.39371
0.992                   1.002418         11.6597
0.996                   1.003054        10.90201
1                       1.003032        10.13508
1.004                   1.002343         9.37503
1.008                   1.001096        8.636914
1.012                  0.9995001        7.932119
1.016                  0.9978316        7.266259
1.02                   0.9963838        6.637986
1.024                  0.9954174        6.038996
1.028                  0.9951114        5.455314
1.032                  0.9955291        4.869737
1.036                  0.9966049        4.264944
1.04                    0.998154        3.626703
1.044                  0.9999049        2.946467
1.048                   1.001546        2.222911
1.052                   1.002784        1.462136
1.056                   1.003388          0.6766
1.06                    1.003241      -0.1169933
1.064                   1.002351      -0.9004883
1.068                   1.000859       -1.657334
1.072                  0.9990163       -2.375467
1.076                  0.9971389        -3.04957
1.08                   0.9955585       -3.682277
1.084                  0.9945601       -4.284006
1.088                  0.9943307       -4.871322
1.092                  0.9949223       -5.464035
1.096                  0.9962403       -6.081564
1.1                    0.9980581        -6.73942
1.104                   1.000057       -7.446207
1.108                   1.001881       -8.202256
1.112                   1.003201       -8.999448
1.116                   1.003771       -9.822867
1.12                    1.003473       -10.65298
1.124                   1.002338       -11.46916
1.128                   1.000546       -12.25289
1.132                  0.9983943       -12.99122
1.136                   0.996254       -13.67909
1.14                   0.9945025       -14.32065
1.144                  0.9934577        -14.9289
1.148                  0.9933175       -15.52362
1.152                  0.9941219       -16.12792
1.156                   0.995741       -16.76394
1.16                   0.9978969       -17.44878
1.164                   1.000211       -18.19132
1.168                   1.002272       -18.99071
1.172                   1.003706       -19.83651
1.176                   1.004242       -20.71055
1.18                    1.003761        -21.5899
1.184                   1.002321        -22.4506
1.188                   1.000145       -23.27167
1.192                  0.9975949       -24.03878
1.196                  0.9951074       -24.74704
1.2                    0.9931221       -25.40236
1.204                  0.9920008       -26.02095
1.208                  0.9919602       -26.62675
1.212                   0.993027       -27.24718
1.216                  0.9950291       -27.90805
1.22                   0.9976232       -28.62876
1.224                   1.000354        -29.4187
1.228                   1.002735       -30.27567
1.232                   1.004332       -31.18634
1.236                   1.004837        -32.1285
1.24                    1.004128       -33.07466
1.244                   1.002287       -33.99651
1.248                  0.9995983       -34.86949
1.252                  0.9965019       -35.67716
1.256                  0.9935257       -36.41448
1.26                   0.9911944       -37.08944
1.264                  0.9899351       -37.72238
1.268                  0.9899947        -38.3428
1.272                  0.9913892       -38.98413
1.276                  0.9938938       -39.67742
1.28                   0.9970791       -40.44554
1.284                   1.000386       -41.29899
1.288                   1.003221       -42.23412
1.292                   1.005062       -43.23386
1.296                   1.005547        -44.2707
1.3                     1.004534        -45.3109
1.304                   1.002139       -46.31989
1.308                  0.9987175       -47.26779
1.312                  0.9948197       -48.13459
1.316                  0.9911016       -48.91443
1.32                   0.9882151       -49.61765
1.324                   0.986689       -50.27012
1.328                  0.9868269       -50.90931
1.332                    0.98864       -51.57759
1.336                  0.9918367        -52.3142
1.34                   0.9958681       -53.14777
1.344                   1.000023        -54.0911
1.348                    1.00355       -55.13912
1.352                   1.005788       -56.26998
1.356                   1.006274       -57.44866
1.36                    1.004831       -58.63237
1.364                     1.0016       -59.77698
1.368                  0.9970351        -60.8438
1.372                  0.9918435       -61.80642
1.376                  0.9868779       -62.65635
1.38                   0.9829967       -63.40635
1.384                  0.9809069       -64.09019
1.388                  0.9810236       -64.75777
1.392                  0.9833762       -65.46629
1.396                  0.9875864       -66.26929
1.4                    0.9929267       -67.20623
1.404                  0.9984434       -68.29531
1.408                    1.00312       -69.53082
1.412                   1.006048       -70.88454
1.416                   1.006575       -72.31051
1.42                    1.004421       -73.75163
1.424                  0.9997348       -75.14766
1.428                   0.993096       -76.44399
1.432                  0.9854533        -77.6009
1.436                  0.9779942       -78.60215
1.44                   0.9719575       -79.46165
1.444                  0.9684101       -80.22503
1.448                  0.9680292       -80.96459
1.452                   0.970941       -81.76694
1.456                  0.9766635         -82.716
1.46                   0.9841706       -83.87667
1.464                  0.9920622       -85.28299
1.468                  0.9987965       -86.93386
1.472                   1.002937       -88.79487
1.476                   1.003374       -90.80461
1.48                   0.9995001       -92.88304
1.484                  0.9913238       -94.94106
1.488                  0.9795167       -96.89128
1.492                  0.9653795       -98.66116
1.496                  0.9507125       -100.2083
1.5                    0.9375762        -101.537
1.504                  0.9279425       -102.7107
1.508                  0.9232827       -103.8541
1.512                  0.9241826       -105.1384
1.516                   0.930108       -106.7505
1.52                    0.939399       -108.8585
1.524                  0.9494927       -111.5852
1.528                  0.9572822       -114.9992
1.532                  0.9595071       -119.1209
1.536                   0.953089       -123.9381
1.54                   0.9353837        -129.422
1.544                   0.904351       -135.5437
1.548                  0.8586593       -142.2885
1.552                  0.7977472       -149.6722
