! TOUCHSTONE file generated by CST MICROWAVE STUDIO
! Date and time: Tue Jun  7 20:51:50 2022
! Project name: AppElm_antenne_patch_FR4.cst
! Parameters = {L=45; W=58.5; e=0.035; h=1.6; lambda=0.190476; ls=120; w0=1.6; w1=0.533333; ws=120; y0=20; y1=17.86}
! Header version: 2018
! Port assignment regex: !\s*Touchstone port\s*([0-9]+)\s*=\s*(CST MWS port|CST DS port)\s*([0-9]+|Zmin|Zmax)\s*\(\"(.*)\"\)(\s*mode\s*([0-9]+))?.*
! Touchstone port assignment:
! Touchstone port 1 = CST MWS port 1 ("")
# GHz S MA R 50
0                         0.9877              -0
0.004                  0.9884067       -9.831865
0.008                  0.9904325       -19.57585
0.012                  0.9935097       -29.14848
0.016                  0.9972363        -38.4743
0.02                    1.001134       -47.48832
0.024                   1.004716       -56.13715
0.028                   1.007548       -64.37899
0.032                   1.009305       -72.18298
0.036                   1.009811       -79.52841
0.04                    1.009052       -86.40403
0.044                   1.007179        -92.8078
0.048                   1.004482       -98.74684
0.052                    1.00135       -104.2377
0.056                  0.9982201       -109.3063
0.06                   0.9955158       -113.9873
0.064                  0.9935868       -118.3227
0.068                  0.9926632       -122.3592
0.072                  0.9928225       -126.1445
0.076                  0.9939851       -129.7244
0.08                   0.9959308       -133.1383
0.084                  0.9983371       -136.4173
0.088                   1.000831       -139.5823
0.092                   1.003047       -142.6443
0.096                   1.004676       -145.6057
0.1                     1.005511       -148.4621
0.104                   1.005468       -151.2054
0.108                   1.004597       -153.8263
0.112                   1.003066       -156.3174
0.116                   1.001135       -158.6751
0.12                   0.9991153       -160.9019
0.124                  0.9973216       -163.0065
0.128                  0.9960231       -165.0037
0.132                  0.9954034        -166.913
0.136                  0.9955343       -168.7562
0.14                   0.9963675       -170.5547
0.144                  0.9977457       -172.3268
0.148                   0.999432       -174.0853
0.152                   1.001149       -175.8367
0.156                   1.002626       -177.5807
0.16                    1.003636       -179.3111
0.164                   1.004037        178.9823
0.168                   1.003784        177.3121
0.172                   1.002935        175.6907
0.176                   1.001643        174.1278
0.18                    1.000127        172.6291
0.184                   0.998637        171.1951
0.188                  0.9974127        169.8204
0.192                   0.996647        168.4946
0.196                  0.9964539        167.2041
0.2                    0.9968508        165.9336
0.204                   0.997759        164.6689
0.208                   0.999017         163.399
0.212                    1.00041        162.1175
0.216                   1.001707        160.8235
0.22                    1.002696        159.5214
0.224                   1.003222        158.2198
0.228                   1.003208        156.9299
0.232                   1.002664        155.6637
0.236                    1.00169        154.4317
0.24                    1.000452        153.2415
0.244                  0.9991607        152.0962
0.248                  0.9980296        150.9938
0.252                  0.9972456        149.9276
0.256                  0.9969347        148.8871
0.26                   0.9971423        147.8599
0.264                  0.9978255        146.8335
0.268                  0.9988627        145.7977
0.272                   1.000075        144.7459
0.276                   1.001255        143.6763
0.28                    1.002207        142.5921
0.284                   1.002772        141.5003
0.288                   1.002862        140.4112
0.292                   1.002465        139.3359
0.296                   1.001653        138.2849
0.3                     1.000567        137.2662
0.304                  0.9993925        136.2838
0.308                  0.9983289        135.3372
0.312                  0.9975559        134.4213
0.316                  0.9972031        133.5272
0.32                   0.9973272        132.6437
0.324                  0.9979036        131.7594
0.328                  0.9988296        130.8643
0.332                  0.9999443         129.952
0.336                   1.001056          129.02
0.34                    1.001975        128.0709
0.344                   1.002547        127.1111
0.348                   1.002675          126.15
0.352                   1.002342        125.1984
0.356                   1.001605        124.2666
0.36                    1.000593        123.3625
0.364                  0.9994808        122.4907
0.368                   0.998459        121.6512
0.372                  0.9977036        120.8395
0.376                  0.9973443        120.0474
0.38                    0.997442        119.2644
0.384                  0.9979779        118.4793
0.388                  0.9988575        117.6826
0.392                  0.9999272        116.8677
0.396                   1.001001        116.0322
0.4                     1.001894        115.1783
0.404                   1.002453        114.3123
0.408                   1.002582        113.4434
0.412                   1.002259         112.582
0.416                   1.001541        111.7385
0.42                    1.000553        110.9208
0.424                  0.9994656        110.1334
0.428                   0.998468        109.3765
0.432                  0.9977338        108.6456
0.436                  0.9973912        107.9327
0.44                   0.9974996        107.2273
0.444                  0.9980399        106.5186
0.448                  0.9989172         105.797
0.452                  0.9999774        105.0561
0.456                   1.001035        104.2937
0.46                    1.001906        103.5121
0.464                   1.002438        102.7177
0.468                   1.002538        101.9199
0.472                    1.00219        101.1293
0.476                   1.001451        100.3561
0.48                    1.000452        99.60813
0.484                  0.9993653        98.88976
0.488                  0.9983819        98.20081
0.492                  0.9976744        97.53664
0.496                  0.9973682        96.88895
0.5                    0.9975176        96.24705
0.504                  0.9980972        95.59998
0.508                  0.9990051        94.93831
0.512                   1.000081        94.25592
0.516                   1.001136        93.55098
0.52                    1.001985         92.8263
0.524                   1.002477         92.0887
0.528                   1.002526        91.34794
0.532                   1.002121        90.61487
0.536                   1.001332        89.89977
0.54                    1.000296        89.21034
0.544                   0.999194        88.55052
0.548                  0.9982208        87.91962
0.552                  0.9975487        87.31239
0.556                  0.9972983        86.71994
0.56                   0.9975155        86.13117
0.564                   0.998163        85.53492
0.568                  0.9991271        84.92191
0.572                   1.000237        84.28635
0.576                   1.001297         83.6271
0.58                    1.002119        82.94766
0.584                   1.002556        82.25561
0.588                    1.00253        81.56132
0.592                   1.002043        80.87603
0.596                   1.001177        80.21006
0.6                     1.000085        79.57087
0.604                  0.9989574        78.96183
0.608                  0.9979952        78.38143
0.612                  0.9973705        77.82354
0.616                  0.9971964        77.27844
0.62                   0.9975062        76.73444
0.624                  0.9982468        76.18014
0.628                  0.9992875        75.60642
0.632                   1.000444        75.00808
0.636                    1.00151        74.38481
0.64                    1.002295        73.74111
0.644                   1.002659        73.08558
0.648                   1.002534        72.42932
0.652                   1.001938        71.78407
0.656                   1.000974         71.1602
0.66                   0.9998108        70.56477
0.664                  0.9986533        70.00032
0.668                  0.9977085        69.46432
0.672                  0.9971468        68.94948
0.676                  0.9970717        68.44501
0.68                   0.9974995        67.93851
0.684                  0.9983559        67.41837
0.688                  0.9994898         66.8757
0.692                   1.000699        66.30613
0.696                   1.001767         65.7104
0.7                     1.002503        65.09431
0.704                   1.002771        64.46762
0.708                   1.002522        63.84242
0.712                   1.001793        63.23091
0.716                   1.000712        62.64342
0.72                   0.9994666        62.08646
0.724                  0.9982794        61.56157
0.728                  0.9973635        61.06482
0.732                  0.9968856         60.5875
0.736                   0.996935        60.11763
0.74                   0.9975067        59.64201
0.744                   0.998501        59.14882
0.748                  0.9997413        58.62964
0.752                   1.001006        58.08108
0.756                   1.002068        57.50528
0.76                    1.002734        56.90956
0.764                   1.002882        56.30509
0.768                   1.002481        55.70497
0.772                   1.001595        55.12193
0.776                   1.000379        54.56614
0.78                   0.9990462        54.04333
0.784                  0.9978351         53.5537
0.788                  0.9969651         53.0917
0.792                  0.9965961        52.64694
0.796                  0.9967992        52.20602
0.8                    0.9975424        51.75499
0.804                  0.9986953        51.28186
0.808                   1.000053        50.77893
0.812                   1.001371        50.24405
0.816                   1.002412        49.68109
0.82                    1.002985        49.09916
0.824                   1.002984        48.51101
0.828                     1.0024        47.93083
0.832                   1.001333        47.37185
0.836                  0.9999666        46.84388
0.84                   0.9985437        46.35162
0.844                  0.9973199        45.89362
0.848                  0.9965184        45.46235
0.852                  0.9962888        45.04549
0.856                  0.9966785        44.62812
0.86                   0.9976226        44.19546
0.864                  0.9989546        43.73563
0.868                   1.000437        43.24181
0.872                   1.001802        42.71353
0.876                   1.002802        42.15666
0.88                    1.003253        41.58236
0.884                   1.003066        41.00518
0.888                   1.002268        40.44047
0.892                   1.000993         39.9018
0.896                  0.9994626        39.39847
0.9                    0.9979507        38.93379
0.904                  0.9967303        38.50427
0.908                  0.9960262        38.10006
0.912                  0.9959727        37.70663
0.916                  0.9965867        37.30743
0.92                   0.9977633         36.8869
0.924                  0.9992946        36.43346
0.928                   1.000906        35.94158
0.932                   1.002306        35.41278
0.936                   1.003239        34.85534
0.94                     1.00353         34.2828
0.944                   1.003118        33.71164
0.948                   1.002067        33.15842
0.952                   1.000555        32.63693
0.956                  0.9988479        32.15567
0.96                   0.9972513        31.71614
0.964                  0.9960562        31.31239
0.968                  0.9954855        30.93183
0.972                  0.9956514        30.55744
0.976                  0.9965329        30.17091
0.98                   0.9979775        29.75603
0.984                  0.9997286        29.30178
0.988                   1.001471        28.80432
0.992                   1.002889        28.26766
0.996                    1.00372         27.7029
1                       1.003806        27.12628
1.004                   1.003119        26.55644
1.008                    1.00177        26.01114
1.012                  0.9999889        25.50423
1.016                  0.9980909        25.04303
1.02                   0.9964172         24.6268
1.024                   0.995276        24.24654
1.028                  0.9948833        23.88644
1.032                  0.9953219        23.52666
1.036                   0.996523        23.14703
1.04                    0.998277        22.73083
1.044                   1.000271        22.26796
1.048                   1.002146        21.75678
1.052                   1.003557        21.20433
1.056                   1.004244        20.62505
1.06                    1.004068        20.03831
1.064                   1.003045        19.46509
1.068                   1.001342        18.92441
1.072                  0.9992533        18.42995
1.076                  0.9971483        17.98741
1.08                   0.9954089        17.59315
1.084                  0.9943585        17.23453
1.088                   0.994201        16.89187
1.092                  0.9949796         16.5421
1.096                  0.9965661        16.16305
1.1                    0.9986818        15.73769
1.104                   1.000948        15.25732
1.108                   1.002954        14.72308
1.112                   1.004331        14.14575
1.116                   1.004817        13.54378
1.12                    1.004306        12.94016
1.124                   1.002869        12.35854
1.128                   1.000742        11.81922
1.132                  0.9982937        11.33545
1.136                  0.9959609        10.91078
1.14                   0.9941697        10.53788
1.144                  0.9932585        10.19948
1.148                   0.993411        9.871361
1.152                  0.9946186          9.5266
1.156                  0.9966778        9.140832
1.16                   0.9992255        8.697007
1.164                   1.001804        8.188295
1.168                   1.003944         7.61953
1.172                   1.005246        7.006118
1.176                   1.005458        6.371352
1.18                    1.004513         5.74258
1.184                   1.002552        5.146609
1.188                  0.9999012        4.605116
1.192                  0.9970206        4.130624
1.196                  0.9944264        3.723766
1.2                    0.9925987        3.372505
1.204                  0.9918895        3.053758
1.208                  0.9924538        2.737401
1.212                  0.9942139        2.391922
1.216                  0.9968694         1.99052
1.22                   0.9999499        1.516236
1.224                     1.0029       0.9650486
1.228                   1.005179       0.3464783
1.232                   1.006355      -0.3181809
1.236                   1.006187      -0.9994756
1.24                    1.004663       -1.664617
1.244                   1.002017       -2.282874
1.248                  0.9986882       -2.830887
1.252                  0.9952563       -3.297183
1.256                  0.9923409       -3.685032
1.26                   0.9904888       -4.012808
1.264                  0.9900682        -4.31134
1.268                  0.9911922       -4.618421
1.272                  0.9936897       -4.971557
1.276                  0.9971306       -5.400615
1.28                    1.000903       -5.922114
1.284                   1.004324       -6.536308
1.288                   1.006757       -7.227339
1.292                   1.007731       -7.966087
1.296                   1.007019       -8.714954
1.3                     1.004686       -9.433847
1.304                   1.001088       -10.08668
1.308                  0.9968203       -10.64768
1.312                  0.9926277       -11.10673
1.316                  0.9892728       -11.47246
1.32                   0.9873972       -11.77214
1.324                   0.987392        -12.0476
1.328                  0.9893121       -12.34758
1.332                  0.9928538        -12.7181
1.336                   0.997404       -13.19335
1.34                    1.002149       -13.78923
1.344                   1.006221       -14.50067
1.348                    1.00885       -15.30292
1.352                   1.009499       -16.15582
1.356                   1.007959       -17.01009
1.36                    1.004399       -17.81484
1.364                   0.999351       -18.52566
1.368                  0.9936418       -19.11255
1.372                  0.9882638       -19.56669
1.376                  0.9842061       -19.90441
1.38                   0.9822652       -20.16657
1.384                  0.9828787       -20.41239
1.388                  0.9860205       -20.70821
1.392                  0.9911855       -21.11408
1.396                  0.9974745       -21.67158
1.4                     1.003753       -22.39621
1.404                   1.008854        -23.2752
1.408                   1.011776       -24.27043
1.412                   1.011858       -25.32464
1.416                   1.008893       -26.36979
1.42                    1.003194        -27.3366
1.424                   0.995567       -28.16513
1.428                  0.9872208       -28.81568
1.432                  0.9795888       -29.27904
1.436                  0.9740852       -29.58308
1.44                   0.9718278       -29.79255
1.444                  0.9733863       -29.99954
1.448                  0.9786271       -30.30546
1.452                  0.9867015        -30.7996
1.456                  0.9961848        -31.5408
1.46                    1.005328        -32.5473
1.464                   1.012356       -33.79566
1.468                   1.015756        -35.2263
1.472                   1.014524        -36.7526
1.476                   1.008336       -38.27147
1.48                   0.9976517       -39.67518
1.484                  0.9837251       -40.86538
1.488                  0.9685112        -41.7707
1.492                  0.9544339       -42.36739
1.496                  0.9440051       -42.69869
1.5                    0.9393193       -42.88378
1.504                  0.9415272       -43.10597
1.508                   0.950453       -43.57757
1.512                  0.9644977       -44.49328
1.516                    0.98086       -45.99173
1.52                    0.995972       -48.13897
1.524                   1.005991       -50.93339
1.528                   1.007228       -54.32173
1.532                  0.9964683       -58.21606
1.536                  0.9711836       -62.50531
1.54                   0.9296607        -67.0587
1.544                  0.8710792       -71.71974
1.548                  0.7955634       -76.28645
1.552                  0.7042435        -80.4666
