! TOUCHSTONE file generated by CST MICROWAVE STUDIO
! Date and time: Tue Jun  7 20:51:52 2022
! Project name: AppElm_antenne_patch_FR4.cst
! Parameters = {L=45; W=58.5; e=0.035; h=1.6; lambda=0.190476; ls=120; w0=1.6; w1=0.533333; ws=120; y0=20; y1=20.24}
! Header version: 2018
! Port assignment regex: !\s*Touchstone port\s*([0-9]+)\s*=\s*(CST MWS port|CST DS port)\s*([0-9]+|Zmin|Zmax)\s*\(\"(.*)\"\)(\s*mode\s*([0-9]+))?.*
! Touchstone port assignment:
! Touchstone port 1 = CST MWS port 1 ("")
# GHz S MA R 50
0                      0.9883765              -0
0.004                  0.9890546       -9.872063
0.008                  0.9909973       -19.65649
0.012                  0.9939437       -29.26999
0.016                  0.9975031       -38.63719
0.02                    1.001211       -47.69314
0.024                   1.004598       -56.38439
0.028                   1.007245       -64.66911
0.032                   1.008848        -72.5165
0.036                   1.009243       -79.90601
0.04                     1.00843       -86.82675
0.044                   1.006566       -93.27727
0.048                   1.003943       -99.26544
0.052                   1.000945       -104.8086
0.056                  0.9979939       -109.9336
0.06                   0.9954941       -114.6755
0.064                  0.9937705       -119.0764
0.068                   0.993027       -123.1828
0.072                  0.9933174       -127.0416
0.076                  0.9945441        -130.697
0.08                   0.9964777       -134.1868
0.084                  0.9987976       -137.5403
0.088                   1.001143        -140.777
0.092                   1.003169       -143.9067
0.096                   1.004594       -146.9311
0.1                     1.005239       -149.8459
0.104                    1.00505       -152.6434
0.108                   1.004096       -155.3156
0.112                   1.002558       -157.8565
0.116                   1.000699       -160.2643
0.12                   0.9988199       -162.5432
0.124                  0.9972131        -164.703
0.128                  0.9961196       -166.7597
0.132                  0.9956905       -168.7326
0.136                  0.9959668       -170.6429
0.14                   0.9968769       -172.5107
0.144                  0.9982508       -174.3523
0.148                  0.9998522       -176.1789
0.152                   1.001418       -177.9951
0.156                     1.0027       -179.7993
0.16                    1.003505        178.4152
0.164                   1.003721        176.6586
0.168                   1.003334        174.9427
0.172                   1.002425        173.2782
0.176                   1.001156        171.6732
0.18                   0.9997432        170.1316
0.184                  0.9984193         168.652
0.188                  0.9973979        167.2277
0.192                  0.9968382        165.8481
0.196                  0.9968192        164.4996
0.2                    0.9973295        163.1682
0.204                  0.9982709        161.8413
0.208                  0.9994764          160.51
0.212                    1.00074        159.1698
0.216                   1.001853        157.8214
0.22                    1.002633          156.47
0.224                   1.002961        155.1245
0.228                   1.002792        153.7954
0.232                   1.002163        152.4934
0.236                   1.001187        151.2272
0.24                    1.000033        150.0024
0.244                  0.9988952        148.8201
0.248                  0.9979635         147.677
0.252                    0.99739        146.5656
0.256                  0.9972651        145.4756
0.26                   0.9976012        144.3955
0.264                  0.9983342        143.3146
0.268                  0.9993336        142.2246
0.272                   1.000426        141.1211
0.276                   1.001426        140.0039
0.28                    1.002168        138.8773
0.284                   1.002529        137.7486
0.288                   1.002454        136.6275
0.292                   1.001962        135.5239
0.296                    1.00114        134.4463
0.3                     1.000131        133.4007
0.304                  0.9991091        132.3892
0.308                  0.9982467        131.4097
0.312                  0.9976899        130.4563
0.316                  0.9975306        129.5202
0.32                   0.9977921        128.5911
0.324                  0.9984254        127.6592
0.328                  0.9993184        126.7168
0.332                   1.000316        125.7593
0.336                   1.001246        124.7864
0.34                    1.001951        123.8016
0.344                   1.002313        122.8116
0.348                   1.002272        121.8254
0.352                   1.001838        120.8524
0.356                   1.001089         119.901
0.36                    1.000154        118.9771
0.364                  0.9991953        118.0831
0.368                  0.9983777        117.2174
0.372                   0.997842        116.3747
0.376                  0.9976792        115.5469
0.38                   0.9979152        114.7244
0.384                  0.9985069        113.8979
0.388                  0.9993499        113.0599
0.392                   1.000297         112.206
0.396                   1.001183        111.3358
0.4                     1.001856        110.4524
0.404                   1.002199        109.5626
0.408                   1.002156        108.6749
0.412                   1.001734        107.7985
0.416                   1.001007        106.9417
0.42                    1.000102        106.1101
0.424                  0.9991765        105.3063
0.428                  0.9983912        104.5287
0.432                   0.997883        103.7721
0.436                  0.9977405        103.0286
0.44                   0.9979878        102.2887
0.444                  0.9985812        101.5434
0.448                  0.9994161        100.7854
0.452                   1.000346        100.0106
0.456                   1.001209        99.21864
0.46                    1.001854        98.41293
0.464                   1.002169        97.60016
0.468                   1.002099        96.78895
0.472                   1.001657        95.98848
0.476                    1.00092        95.20686
0.48                    1.000015         94.4497
0.484                  0.9991016        93.71914
0.488                  0.9983401        93.01347
0.492                  0.9978645        92.32726
0.496                  0.9977591        91.65239
0.5                    0.9980427        90.97943
0.504                  0.9986656        90.29932
0.508                  0.9995181        89.60499
0.512                    1.00045        88.89263
0.516                   1.001297        88.16226
0.52                     1.00191        87.41777
0.524                    1.00218         86.6662
0.528                   1.002059        85.91643
0.532                   1.001567        85.17774
0.536                   1.000788        84.45815
0.54                    0.999859        83.76306
0.544                  0.9989421        83.09419
0.548                  0.9981994        82.44933
0.552                  0.9977629        81.82252
0.556                  0.9977109        81.20522
0.56                   0.9980532        80.58774
0.564                  0.9987302        79.96101
0.568                  0.9996224        79.31816
0.572                   1.000572        78.65581
0.576                   1.001409         77.9746
0.58                    1.001987        77.27904
0.584                   1.002201        76.57676
0.588                   1.002011         75.8771
0.592                   1.001449        75.18955
0.596                   1.000612        74.52205
0.6                    0.9996462        73.87965
0.604                  0.9987227         73.2635
0.608                  0.9980058        72.67061
0.612                  0.9976243        72.09431
0.616                  0.9976486        71.52539
0.62                    0.998076        70.95378
0.624                  0.9988324         70.3703
0.628                  0.9997842        69.76845
0.632                   1.000763        69.14537
0.636                   1.001594        68.50256
0.64                    1.002129         67.8454
0.644                    1.00227        67.18229
0.648                   1.001991         66.5232
0.652                   1.001338        65.87787
0.656                   1.000423        65.25416
0.66                   0.9994083         64.6566
0.664                  0.9984735        64.08561
0.668                  0.9977864         63.5372
0.672                  0.9974719        63.00372
0.676                  0.9975887        62.47518
0.68                   0.9981188        61.94099
0.684                  0.9989691        61.39196
0.688                  0.9999891        60.82195
0.692                   1.000997        60.22894
0.696                   1.001811        59.61542
0.7                     1.002285        58.98787
0.704                    1.00233        58.35572
0.708                   1.001935        57.72956
0.712                   1.001166        57.11948
0.716                   1.000155        56.53313
0.72                   0.9990809        55.97442
0.724                  0.9981353         55.4427
0.728                  0.9974885         54.9328
0.732                  0.9972592        54.43586
0.736                  0.9974917        53.94093
0.74                   0.9981475         53.4369
0.744                  0.9991114        52.91458
0.748                   1.000212        52.36838
0.752                   1.001251        51.79729
0.756                   1.002043        51.20505
0.76                    1.002442        50.59948
0.764                   1.002373        49.99112
0.768                   1.001842        49.39137
0.772                   1.000941        48.81055
0.776                  0.9998257        48.25601
0.78                   0.9986941        47.73081
0.784                  0.9977495        47.23303
0.788                   0.997164        46.75601
0.792                  0.9970472        46.28951
0.796                  0.9974247        45.82146
0.8                    0.9982326        45.34025
0.804                  0.9993289        44.83681
0.808                   1.000518        44.30632
0.812                   1.001587        43.74901
0.816                   1.002341        43.17018
0.82                    1.002641         42.5792
0.824                   1.002429        41.98791
0.828                   1.001735        41.40854
0.832                   1.000678        40.85159
0.836                  0.9994427        40.32396
0.84                   0.9982488        39.82759
0.844                   0.997312        39.35901
0.848                  0.9968042        38.90983
0.852                   0.996822        38.46816
0.856                  0.9973673        38.02077
0.86                   0.9983463        37.55556
0.864                  0.9995853        37.06375
0.868                   1.000862        36.54151
0.872                   1.001946        35.99066
0.876                   1.002639        35.41833
0.88                    1.002809        34.83565
0.884                   1.002419         34.2559
0.888                    1.00153        33.69217
0.892                   1.000295        33.15506
0.896                  0.9989293        32.65076
0.9                    0.9976778        32.17979
0.904                  0.9967676        31.73675
0.908                   0.996368         31.3112
0.912                  0.9965579        30.88938
0.916                  0.9973093        30.45683
0.92                   0.9984923        30.00099
0.924                  0.9998967         29.5136
0.928                    1.00127        28.99215
0.932                   1.002364        28.44037
0.936                   1.002977        27.86751
0.94                     1.00299         27.2868
0.944                   1.002394        26.71306
0.948                   1.001285        26.16025
0.952                  0.9998546        25.63889
0.956                  0.9983562        25.15422
0.96                   0.9970597        24.70494
0.964                  0.9962036        24.28338
0.968                  0.9959504        23.87665
0.972                  0.9963551        23.46892
0.976                  0.9973528        23.04442
0.98                   0.9987701         22.5903
0.984                   1.000355        22.09907
0.988                   1.001821        21.56995
0.992                   1.002902        21.00899
0.996                   1.003397        20.42803
1                       1.003205        19.84259
1.004                   1.002349        19.26927
1.008                   1.000971        18.72285
1.012                  0.9993094        18.21366
1.016                  0.9976583        17.74557
1.02                   0.9963165        17.31509
1.024                  0.9955327        16.91173
1.028                   0.995458        16.51974
1.032                  0.9961162        16.12098
1.036                  0.9973977        15.69825
1.04                   0.9990765        15.23859
1.044                   1.000852        14.73562
1.048                   1.002403        14.19074
1.052                   1.003442        13.61283
1.056                   1.003772        13.01673
1.06                     1.00332        12.42066
1.064                   1.002148        11.84313
1.068                   1.000454        11.29976
1.072                  0.9985306        10.80037
1.076                  0.9967204        10.34709
1.08                   0.9953538        9.933577
1.084                  0.9946874        9.545917
1.088                  0.9948553        9.164965
1.092                  0.9958407         8.76986
1.096                   0.997477         8.34194
1.1                    0.9994758         7.86828
1.104                   1.001479        7.344067
1.108                   1.003122        6.773463
1.112                   1.004101        6.168833
1.116                   1.004225        5.548613
1.12                    1.003453        4.934181
1.124                   1.001903        4.346249
1.128                  0.9998361        3.801236
1.132                  0.9976132        3.308288
1.136                  0.9956335         2.86714
1.14                   0.9942622        2.467901
1.144                  0.9937628        2.092436
1.148                   0.994244        1.717466
1.152                  0.9956367        1.318968
1.156                  0.9977027       0.8767075
1.16                    1.000077       0.3780738
1.164                   1.002331      -0.1796043
1.168                   1.004053      -0.7886209
1.172                   1.004918        -1.43227
1.176                   1.004749       -2.087689
1.18                    1.003547       -2.729663
1.184                   1.001499       -3.334865
1.188                  0.9989509       -3.885948
1.192                  0.9963461       -4.374892
1.196                  0.9941535       -4.804952
1.2                    0.9927815       -5.190655
1.204                  0.9924988       -5.555587
1.208                    0.99338       -5.928203
1.212                  0.9952871       -6.336447
1.216                  0.9978902       -6.802397
1.22                    1.000726       -7.338083
1.224                   1.003281       -7.943322
1.228                   1.005081       -8.605825
1.232                    1.00578       -9.303357
1.236                   1.005218       -10.00743
1.24                    1.003454       -10.68799
1.244                   1.000766       -11.31839
1.248                  0.9976062       -11.88017
1.252                   0.994528       -12.36681
1.256                  0.9920915       -12.78566
1.26                   0.9907589       -13.15748
1.264                  0.9908043       -13.51313
1.268                  0.9922548         -13.888
1.272                  0.9948785        -14.3152
1.276                  0.9982218       -14.81913
1.28                     1.00169       -15.41091
1.284                   1.004654       -16.08646
1.288                   1.006559       -16.82733
1.292                   1.007027       -17.60388
1.296                   1.005921       -18.38005
1.3                      1.00338       -19.11914
1.304                  0.9998006       -19.78985
1.308                  0.9957842       -20.37199
1.312                  0.9920364        -20.8609
1.316                   0.989246       -21.26955
1.32                   0.9879539       -21.62742
1.324                  0.9884441       -21.97574
1.328                   0.990678       -22.35985
1.332                  0.9942915       -22.82029
1.336                  0.9986551       -23.38485
1.34                    1.002986       -24.06345
1.344                   1.006487       -24.84656
1.348                   1.008484       -25.70704
1.352                   1.008547       -26.60468
1.356                   1.006568       -27.49238
1.36                    1.002792       -28.32339
1.364                  0.9977928       -29.05892
1.368                  0.9923934        -29.6754
1.372                  0.9875358       -30.17023
1.376                  0.9841161       -30.56449
1.38                    0.982811       -30.90116
1.384                  0.9839338       -31.23815
1.388                  0.9873549       -31.63718
1.392                  0.9925089        -32.1514
1.396                  0.9984903       -32.81484
1.4                     1.004213       -33.63638
1.404                   1.008599       -34.59863
1.408                   1.010766       -35.66141
1.412                   1.010176       -36.76798
1.416                   1.006739        -37.8532
1.42                     1.00085       -38.85291
1.424                  0.9933605       -39.71391
1.428                  0.9854677       -40.40442
1.432                  0.9785379       -40.92291
1.436                   0.973865       -41.30327
1.44                   0.9724141       -41.61274
1.444                  0.9745988       -41.94127
1.448                  0.9801601       -42.38385
1.452                  0.9881821       -43.02058
1.456                  0.9972439       -43.90084
1.46                    1.005666       -45.03516
1.464                   1.011793       -46.39529
1.468                    1.01426          -47.92
1.472                   1.012213       -49.52393
1.476                   1.005465       -51.10796
1.48                   0.9945815       -52.57074
1.484                  0.9808678       -53.82277
1.488                  0.9662633       -54.80362
1.492                  0.9530959       -55.50128
1.496                  0.9437009        -55.9691
1.5                    0.9399368       -56.33123
1.504                  0.9427059       -56.76813
1.508                  0.9516295       -57.48178
1.512                   0.964998        -58.6527
1.516                  0.9800079       -60.40653
1.52                   0.9931789       -62.80111
1.524                   1.000813       -65.83224
1.528                  0.9993884       -69.44902
1.532                  0.9858542       -73.56937
1.536                  0.9578227        -78.0906
1.54                   0.9136887        -82.8928
1.544                  0.8526953        -87.8334
1.548                  0.7749713        -92.7292
1.552                   0.681571       -97.31425
