! TOUCHSTONE file generated by CST MICROWAVE STUDIO
! Date and time: Tue Jun  7 20:51:54 2022
! Project name: AppElm_antenne_patch_FR4.cst
! Parameters = {L=45; W=58.5; e=0.035; h=1.6; lambda=0.190476; ls=120; w0=1.6; w1=0.533333; ws=120; y0=20; y1=21.43}
! Header version: 2018
! Port assignment regex: !\s*Touchstone port\s*([0-9]+)\s*=\s*(CST MWS port|CST DS port)\s*([0-9]+|Zmin|Zmax)\s*\(\"(.*)\"\)(\s*mode\s*([0-9]+))?.*
! Touchstone port assignment:
! Touchstone port 1 = CST MWS port 1 ("")
# GHz S MA R 50
0                      0.9886809              -0
0.004                  0.9893462       -9.891803
0.008                  0.9912517       -19.69613
0.012                  0.9941397       -29.32982
0.016                  0.9976245       -38.71759
0.02                    1.001249       -47.79453
0.024                   1.004549        -56.5072
0.028                   1.007116       -64.81375
0.032                   1.008651        -72.6834
0.036                   1.008999       -80.09567
0.04                    1.008163       -87.03984
0.044                   1.006304       -93.51467
0.048                   1.003714       -99.52832
0.052                   1.000773       -105.0985
0.056                  0.9978988       -110.2522
0.06                   0.9954856       -115.0249
0.064                  0.9938485       -119.4587
0.068                  0.9931797       -123.5997
0.072                  0.9935239       -127.4946
0.076                  0.9947755       -131.1869
0.08                   0.9967021       -134.7137
0.084                  0.9989837       -138.1037
0.088                   1.001265       -141.3755
0.092                    1.00321       -144.5386
0.096                   1.004548       -147.5944
0.1                     1.005114       -150.5386
0.104                   1.004862       -153.3638
0.108                   1.003873       -156.0624
0.112                   1.002334       -158.6289
0.116                   1.000506       -161.0625
0.12                   0.9986862       -163.3679
0.124                  0.9971596       -165.5556
0.128                  0.9961538       -167.6418
0.132                  0.9958068        -169.646
0.136                  0.9961467        -171.589
0.14                   0.9970917       -173.4904
0.144                  0.9984664       -175.3658
0.148                   1.000035       -177.2254
0.152                   1.001538       -179.0732
0.156                   1.002739        179.0929
0.16                    1.003458        177.2798
0.164                   1.003596        175.4979
0.168                   1.003151        173.7585
0.172                   1.002214        172.0718
0.176                   1.000952        170.4453
0.18                   0.9995792        168.8817
0.184                  0.9983237        167.3792
0.188                   0.997387        165.9305
0.192                  0.9969146        164.5247
0.196                   0.996971        163.1483
0.2                    0.9975324        161.7877
0.204                  0.9984917        160.4312
0.208                  0.9996793        159.0704
0.212                   1.000892        157.7019
0.216                   1.001929         156.327
0.22                    1.002622        154.9513
0.224                   1.002865        153.5838
0.228                   1.002627        152.2348
0.232                   1.001958        150.9144
0.236                   1.000977        149.6307
0.24                   0.9998525        148.3883
0.244                  0.9987759        147.1877
0.248                  0.9979263        146.0247
0.252                  0.9974419        144.8917
0.256                  0.9973972        143.7783
0.26                    0.997792        142.6733
0.264                  0.9985513        141.5668
0.268                  0.9995401        140.4512
0.272                   1.000587        139.3231
0.276                   1.001515         138.183
0.28                    1.002168        137.0356
0.284                    1.00244        135.8885
0.288                   1.002292        134.7512
0.292                   1.001753        133.6331
0.296                    1.00092         132.542
0.3                     0.999937        131.4829
0.304                  0.9989732        130.4572
0.308                  0.9981926        129.4621
0.312                  0.9977265        128.4911
0.316                  0.9976515        127.5355
0.32                   0.9979761        126.5854
0.324                  0.9986402        125.6316
0.328                  0.9995264        124.6672
0.332                   1.000481        123.6886
0.336                   1.001339        122.6962
0.34                    1.001954         121.694
0.344                   1.002225        120.6891
0.348                   1.002108        119.6902
0.352                   1.001625        118.7063
0.356                   1.000862        117.7449
0.36                   0.9999523        116.8111
0.364                  0.9990529        115.9064
0.368                  0.9983192        115.0285
0.372                  0.9978769        114.1717
0.376                  0.9978012        113.3278
0.38                   0.9981029        112.4874
0.384                  0.9987274        111.6421
0.388                  0.9995645        110.7851
0.392                   1.000468        109.9131
0.396                    1.00128        109.0262
0.4                     1.001861        108.1286
0.404                   1.002113        107.2269
0.408                   1.001991        106.3295
0.412                   1.001519        105.4452
0.416                   1.000779        104.5814
0.42                   0.9999013        103.7429
0.424                  0.9990377        102.9313
0.428                  0.9983392        102.1442
0.432                  0.9979276        101.3761
0.436                  0.9978744        100.6189
0.44                   0.9981884        99.86366
0.444                   0.998814         99.1019
0.448                  0.9996409         98.3273
0.452                   1.000524        97.53671
0.456                    1.00131        96.73058
0.46                     1.00186          95.913
0.464                    1.00208        95.09079
0.468                   1.001931        94.27244
0.472                   1.001439        93.46653
0.476                    1.00069        92.68035
0.48                   0.9998158        91.91856
0.484                  0.9989685        91.18235
0.488                  0.9982975        90.46923
0.492                  0.9979211        89.77334
0.496                  0.9979062        89.08658
0.5                    0.9982557        88.39987
0.504                  0.9989078        87.70497
0.508                  0.9997477        86.99575
0.512                   1.000627        86.26937
0.516                   1.001391        85.52676
0.52                    1.001904        84.77237
0.524                   1.002076        84.01339
0.528                   1.001875        83.25846
0.532                   1.001335        82.51629
0.536                   1.000549        81.79398
0.54                   0.9996549        81.09597
0.544                  0.9988095        80.42295
0.548                  0.9981622        79.77195
0.552                  0.9978281        79.13666
0.556                  0.9978673        78.50854
0.56                   0.9982737        77.87837
0.564                  0.9989757        77.23792
0.568                   0.999849        76.58132
0.572                   1.000739        75.90624
0.576                   1.001487        75.21417
0.58                    1.001961        74.51019
0.584                   1.002074        73.80205
0.588                   1.001805         73.0988
0.592                   1.001199        72.40919
0.596                   1.000361        71.74033
0.6                    0.9994382         71.0961
0.604                   0.998594        70.47669
0.608                  0.9979791        69.87835
0.612                  0.9977044        69.29407
0.616                  0.9978209        68.71474
0.62                     0.99831        68.13083
0.624                   0.999086         67.5341
0.628                   1.000012        66.91907
0.632                   1.000924        66.28404
0.636                   1.001658        65.63129
0.64                    1.002085        64.96674
0.644                   1.002125        64.29886
0.648                   1.001768        63.63722
0.652                   1.001076        62.99083
0.656                   1.000169        62.36647
0.66                   0.9992068        61.76762
0.664                  0.9983606        61.19364
0.668                  0.9977829        60.63982
0.672                   0.997579        60.09823
0.676                  0.9977884        59.55904
0.68                   0.9983758        59.01237
0.684                  0.9992385        58.45001
0.688                   1.000223        57.86695
0.692                   1.001154        57.26229
0.696                   1.001864        56.63932
0.7                     1.002224        56.00506
0.704                   1.002166        55.36883
0.708                   1.001697        54.74081
0.712                   1.000895        54.13018
0.716                  0.9999013        53.54351
0.72                   0.9988903        52.98353
0.724                  0.9980429        52.44856
0.728                  0.9975124        51.93276
0.732                  0.9973968        51.42706
0.736                    0.99772        50.92079
0.74                   0.9984272        50.40361
0.744                  0.9993936        49.86747
0.748                   1.000447        49.30797
0.752                   1.001399        48.72521
0.756                   1.002076        48.12377
0.76                    1.002355        47.51184
0.764                   1.002182        46.89983
0.768                   1.001581        46.29858
0.772                   1.000657        45.71742
0.776                  0.9995693        45.16249
0.78                   0.9985125        44.63563
0.784                  0.9976766        44.13392
0.788                  0.9972148        43.65004
0.792                  0.9972143        43.17364
0.796                  0.9976794        42.69311
0.8                    0.9985308        42.19771
0.804                  0.9996182        41.67961
0.808                   1.000747        41.13525
0.812                   1.001715        40.56601
0.816                   1.002345        39.97795
0.82                    1.002521        39.38074
0.824                   1.002205        38.78597
0.828                   1.001447        38.20516
0.832                   1.000376        37.64774
0.836                  0.9991821        37.11928
0.84                   0.9980766        36.62046
0.844                  0.9972603        36.14681
0.848                  0.9968837        35.68934
0.852                  0.9970196        35.23621
0.856                  0.9976488        34.77476
0.86                   0.9986618        34.29393
0.864                  0.9998788        33.78629
0.868                   1.001081        33.24934
0.872                   1.002051        32.68604
0.876                    1.00261        32.10421
0.88                    1.002651        31.51519
0.884                   1.002159        30.93188
0.888                   1.001213        30.36651
0.892                  0.9999774        29.82844
0.896                  0.9986682        29.32247
0.9                    0.9975207        28.84781
0.904                  0.9967437        28.39809
0.908                  0.9964831        27.96236
0.912                  0.9967924        27.52706
0.916                  0.9976222        27.07844
0.92                    0.998828        26.60519
0.924                   1.000195        26.10045
0.928                   1.001478        25.56315
0.932                   1.002444        24.99812
0.936                   1.002913        24.41526
0.94                    1.002794        23.82784
0.944                   1.002099        23.25017
0.948                   1.000943        22.69517
0.952                  0.9995272          22.172
0.956                  0.9981025         21.6844
0.96                   0.9969268        21.22973
0.964                  0.9962174        20.79937
0.968                  0.9961105        20.38006
0.972                  0.9966346        19.95632
0.976                  0.9977034         19.5133
0.98                   0.9991299        19.03954
0.984                    1.00066        18.52911
0.988                   1.002018        17.98269
0.992                   1.002956        17.40741
0.996                   1.003296        16.81565
1                       1.002968        16.22286
1.004                   1.002019        15.64493
1.008                   1.000605        15.09544
1.012                  0.9989746        14.58318
1.016                  0.9974161        14.11045
1.02                   0.9962129        13.67237
1.024                   0.995589        13.25757
1.028                  0.9956669        12.85008
1.032                  0.9964426        12.43227
1.036                  0.9977849        11.98811
1.04                   0.9994565        11.50619
1.044                   1.001158        10.98182
1.048                   1.002579        10.41789
1.052                   1.003458        9.824321
1.056                   1.003624         9.21638
1.06                    1.003033        8.612033
1.064                   1.001773        8.028912
1.068                   1.000057        7.481219
1.072                  0.9981834        6.977114
1.076                  0.9964867        6.517009
1.08                   0.9952778        6.093176
1.084                  0.9947852        5.690882
1.088                  0.9951115        5.290934
1.092                  0.9962111        4.873205
1.096                  0.9978961        4.420428
1.1                    0.9998688        3.921439
1.104                   1.001775        3.373229
1.108                   1.003268        2.781473
1.112                   1.004069        2.159516
1.116                   1.004018         1.52608
1.12                    1.003106       0.9021115
1.124                   1.001475       0.3072206
1.128                  0.9994029      -0.2437652
1.132                  0.9972516      -0.7436137
1.136                  0.9954091       -1.194339
1.14                   0.9942168       -1.607255
1.144                  0.9939061       -2.001239
1.148                  0.9945518       -2.399404
1.152                  0.9960541       -2.824783
1.156                  0.9981548       -3.295964
1.16                    1.000481       -3.823585
1.164                   1.002615       -4.408399
1.168                   1.004163       -5.041167
1.172                   1.004831       -5.704288
1.176                   1.004476       -6.374759
1.18                    1.003134       -7.028008
1.184                   1.001016        -7.64204
1.188                  0.9984813       -8.201344
1.192                  0.9959727       -8.699961
1.196                   0.993944        -9.14307
1.2                    0.9927747       -9.546619
1.204                   0.992697       -9.934797
1.208                  0.9937486       -10.33569
1.212                  0.9957596       -10.77594
1.216                  0.9983811       -11.27571
1.22                    1.001146       -11.84482
1.224                   1.003552       -12.48105
1.228                   1.005152       -13.17058
1.232                   1.005634       -13.89037
1.236                   1.004875       -14.61196
1.24                    1.002971       -15.30616
1.244                   1.000224       -15.94792
1.248                   0.997099       -16.52087
1.252                  0.9941454       -17.02077
1.256                  0.9919027       -17.45704
1.26                   0.9907992       -17.85188
1.264                  0.9910679       -18.23662
1.268                  0.9926947         -18.646
1.272                  0.9954152        -19.1115
1.276                  0.9987575       -19.65527
1.28                    1.002127       -20.28599
1.284                    1.00491       -20.99741
1.288                   1.006585       -21.76955
1.292                   1.006811       -22.57207
1.296                   1.005495       -23.36912
1.3                     1.002812       -24.12511
1.304                  0.9991847        -24.8106
1.308                   0.995226       -25.40779
1.312                  0.9916336       -25.91459
1.316                  0.9890701       -26.34619
1.32                   0.9880366       -26.73358
1.324                  0.9887696       -27.11829
1.328                  0.9911857       -27.54471
1.332                  0.9948863       -28.05136
1.336                  0.9992253        -28.6634
1.34                    1.003423       -29.38799
1.344                   1.006705       -30.21334
1.348                   1.008433       -31.11077
1.352                   1.008223       -32.03947
1.356                   1.006013       -32.95275
1.36                    1.002088       -33.80518
1.364                  0.9970501       -34.56016
1.368                  0.9917311       -35.19684
1.372                  0.9870621       -35.71554
1.376                  0.9839071        -36.1399
1.38                   0.9828952       -36.51449
1.384                  0.9842851       -36.89737
1.388                  0.9878964       -37.34897
1.392                  0.9931269       -37.91992
1.396                  0.9990553       -38.64115
1.4                     1.004603       -39.51847
1.404                   1.008721       -40.53207
1.408                   1.010569       -41.64021
1.412                   1.009662       -42.78565
1.416                    1.00596       -43.90383
1.42                   0.9999056       -44.93211
1.424                  0.9923779       -45.81983
1.428                  0.9845854       -46.53835
1.432                  0.9778797       -47.08965
1.436                  0.9735164       -47.51069
1.44                   0.9724023       -47.87065
1.444                  0.9748856       -48.25965
1.448                  0.9806471       -48.77092
1.452                  0.9887292       -49.48139
1.456                  0.9976957       -50.43672
1.46                    1.005879       -51.64402
1.464                   1.011657       -53.07249
1.468                   1.013716        -54.6594
1.472                   1.011262       -56.31906
1.476                   1.004167       -57.95296
1.48                   0.9930439       -59.46152
1.484                  0.9792372       -60.75801
1.488                   0.964699       -61.78584
1.492                  0.9517418       -62.53761
1.496                  0.9426524       -63.07125
1.5                    0.9392138       -63.51424
1.504                  0.9422381       -64.04794
1.508                  0.9512619       -64.87249
1.512                  0.9645169       -66.16464
1.516                  0.9791754       -68.04603
1.52                   0.9917667       -70.57163
1.524                  0.9986266       -73.73627
1.528                  0.9962813       -77.48999
1.532                  0.9817305       -81.75336
1.536                   0.952633       -86.42808
1.54                   0.9074191       -91.40052
1.544                  0.8453498       -96.53726
1.548                   0.766547       -101.6687
1.552                  0.6720162       -106.5503
