! TOUCHSTONE file generated by CST MICROWAVE STUDIO
! Date and time: Tue Jun  7 20:51:52 2022
! Project name: AppElm_antenne_patch_FR4.cst
! Parameters = {L=45; W=58.5; e=0.035; h=1.6; lambda=0.190476; ls=120; w0=1.6; w1=0.533333; ws=120; y0=20; y1=19.05}
! Header version: 2018
! Port assignment regex: !\s*Touchstone port\s*([0-9]+)\s*=\s*(CST MWS port|CST DS port)\s*([0-9]+|Zmin|Zmax)\s*\(\"(.*)\"\)(\s*mode\s*([0-9]+))?.*
! Touchstone port assignment:
! Touchstone port 1 = CST MWS port 1 ("")
# GHz S MA R 50
0                      0.9880418              -0
0.004                  0.9887344       -9.852181
0.008                  0.9907194        -19.6166
0.012                  0.9937323       -29.20986
0.016                  0.9973767       -38.55654
0.02                    1.001181       -47.59168
0.024                   1.004667       -56.26185
0.028                   1.007408       -64.52523
0.032                   1.009089         -72.351
0.036                    1.00954       -79.71851
0.04                    1.008754        -86.6167
0.044                   1.006884       -93.04382
0.048                   1.004223       -99.00737
0.052                   1.001156       -104.5243
0.056                  0.9981137        -109.621
0.06                   0.9955093       -114.3322
0.064                  0.9936809       -118.7002
0.068                   0.992845       -122.7713
0.072                  0.9930679       -126.5931
0.076                  0.9942611       -130.2105
0.08                   0.9961996       -133.6621
0.084                   0.998562        -136.978
0.088                   1.000982       -140.1785
0.092                   1.003102        -143.274
0.096                    1.00463       -146.2666
0.1                     1.005371        -149.152
0.104                   1.005256       -151.9222
0.108                   1.004344       -154.5686
0.112                   1.002811       -157.0843
0.116                   1.000917        -159.467
0.12                   0.9989679       -161.7196
0.124                  0.9972682       -163.8517
0.128                  0.9960726       -165.8785
0.132                  0.9955486       -167.8194
0.136                  0.9957526       -169.6961
0.14                   0.9966245       -171.5292
0.144                  0.9980008        -173.336
0.148                   0.999645       -175.1284
0.152                   1.001287       -176.9121
0.156                   1.002666       -178.6862
0.16                    1.003574        179.5559
0.164                   1.003883        177.8243
0.168                   1.003562        176.1313
0.172                   1.002683        174.4883
0.176                   1.001402        172.9044
0.18                   0.9999373        171.3843
0.184                  0.9985295        169.9274
0.188                   0.997406         168.528
0.192                  0.9967426        167.1753
0.196                  0.9966361        165.8558
0.2                    0.9970895        164.5548
0.204                  0.9980141        163.2591
0.208                  0.9992461        161.9584
0.212                   1.000575        160.6476
0.216                    1.00178        159.3263
0.22                    1.002665        157.9996
0.224                   1.003093        156.6759
0.228                   1.003001        155.3663
0.232                   1.002414        154.0821
0.236                   1.001439        152.8329
0.24                    1.000243        151.6253
0.244                  0.9990277        150.4614
0.248                   0.997996        149.3385
0.252                   0.997317        148.2496
0.256                  0.9970988        147.1843
0.26                   0.9973708        146.1305
0.264                  0.9980792        145.0768
0.268                  0.9990981        144.0137
0.272                   1.000251        142.9359
0.276                   1.001342        141.8424
0.28                    1.002189        140.7367
0.284                   1.002652        139.6263
0.288                   1.002659        138.5209
0.292                   1.002214        137.4313
0.296                   1.001397        136.3668
0.3                     1.000348        135.3344
0.304                  0.9992482        134.3373
0.308                  0.9982838        133.3741
0.312                  0.9976181        132.4393
0.316                  0.9973614         131.524
0.32                    0.997554        130.6176
0.324                  0.9981591        129.7093
0.328                  0.9990694        128.7904
0.332                   1.000126        127.8553
0.336                   1.001148        126.9027
0.34                    1.001961        125.9355
0.344                   1.002429        124.9603
0.348                   1.002472        123.9864
0.352                   1.002088        123.0238
0.356                   1.001345        122.0819
0.36                     1.00037        121.1677
0.364                  0.9993334        120.2846
0.368                   0.998413        119.4318
0.372                  0.9977672        118.6044
0.376                  0.9975063        117.7944
0.38                   0.9976742        116.9914
0.384                  0.9982396        116.1855
0.388                  0.9991032        115.3679
0.392                   1.000114        114.5333
0.396                   1.001096        113.6801
0.4                     1.001881        112.8111
0.404                   1.002333        111.9328
0.408                   1.002376        111.0541
0.412                   1.002003        110.1849
0.416                    1.00128        109.3343
0.42                    1.000331        108.5094
0.424                   0.999323        107.7136
0.428                  0.9984301         106.946
0.432                  0.9978079        106.2021
0.436                   0.997565        105.4737
0.44                   0.9977437         104.751
0.444                   0.998312        104.0237
0.448                    0.99917        103.2837
0.452                   1.000167        102.5255
0.456                   1.001129         101.748
0.46                    1.001888         100.954
0.464                   1.002312          100.15
0.468                   1.002326        99.34508
0.472                   1.001929        98.54918
0.476                   1.001188        97.77141
0.48                    1.000233        97.01858
0.484                  0.9992297        96.29393
0.488                  0.9983546        95.59648
0.492                  0.9977615        94.92125
0.496                  0.9975554         94.2599
0.5                    0.9977731        93.60242
0.504                  0.9983767        92.93872
0.508                  0.9992598        92.26057
0.512                   1.000267        91.56294
0.516                   1.001221        90.84498
0.52                    1.001954        90.11004
0.524                   1.002336        89.36504
0.528                   1.002299        88.61938
0.532                   1.001848        87.88315
0.536                   1.001061         87.1655
0.54                    1.000075        86.47305
0.544                  0.9990626        85.80858
0.548                  0.9982023        85.17065
0.552                  0.9976472        84.55365
0.556                  0.9974969        83.94879
0.56                   0.9977791        83.34565
0.564                  0.9984451        82.73408
0.568                  0.9993776        82.10597
0.572                   1.000412        81.45676
0.576                   1.001364        80.78615
0.58                    1.002066        80.09824
0.584                   1.002391        79.40062
0.588                   1.002282        78.70319
0.592                   1.001753         78.0164
0.596                   1.000897        77.34939
0.6                    0.9998631        76.70843
0.604                  0.9988329         76.0958
0.608                  0.9979899        75.50921
0.612                  0.9974854        74.94224
0.616                  0.9974109        74.38537
0.62                   0.9977821        73.82766
0.624                  0.9985344        73.25879
0.628                  0.9995355        72.67089
0.632                   1.000607        72.05997
0.636                   1.001559         71.4266
0.64                    1.002221        70.77578
0.644                   1.002473        70.11605
0.648                   1.002267        69.45801
0.652                   1.001638        68.81244
0.656                   1.000693        68.18852
0.66                   0.9995973        67.59205
0.664                  0.9985462        67.02448
0.668                  0.9977273        66.48254
0.672                  0.9972888        65.95872
0.676                  0.9973121        65.44251
0.68                    0.997796        64.92242
0.684                   0.998656        64.38796
0.688                  0.9997402        63.83157
0.692                   1.000855        63.25007
0.696                   1.001802        62.64511
0.7                     1.002409        62.02288
0.704                   1.002566        61.39303
0.708                   1.002241        60.76697
0.712                   1.001486        60.15591
0.716                   1.000434        59.56889
0.72                   0.9992683        59.01114
0.724                  0.9981971        58.48307
0.728                  0.9974135        57.98009
0.732                  0.9970607        57.49337
0.736                  0.9972056        57.01132
0.74                    0.997826        56.52173
0.744                  0.9988132        56.01406
0.748                   0.999992        55.48125
0.752                   1.001151        54.92111
0.756                   1.002082        54.33665
0.76                    1.002616        53.73548
0.764                   1.002653        53.12856
0.768                   1.002181        52.52823
0.772                   1.001279        51.94607
0.776                   1.000103        51.39089
0.78                   0.9988619         50.8671
0.784                  0.9977769        50.37381
0.788                  0.9970453        49.90487
0.792                  0.9968026        49.44983
0.796                  0.9970966        48.99589
0.8                    0.9978794        48.53015
0.804                  0.9990126        48.04206
0.808                   1.000295         47.5253
0.812                   1.001495        46.97897
0.816                   1.002396        46.40769
0.82                    1.002832        45.82079
0.824                   1.002721        45.23067
0.828                   1.002074        44.65065
0.832                   1.001001        44.09266
0.836                  0.9996889        43.56511
0.84                   0.9983709        43.07132
0.844                  0.9972841        42.60876
0.848                  0.9966275        42.16939
0.852                  0.9965248        41.74098
0.856                  0.9970002        41.30934
0.86                   0.9979729        40.86093
0.864                  0.9992713        40.38535
0.868                   1.000663        39.87728
0.872                   1.001897        39.33741
0.876                   1.002748        38.77234
0.88                    1.003059        38.19334
0.884                   1.002766        37.61444
0.888                   1.001913        37.04997
0.892                   1.000645        36.51212
0.896                  0.9991856        36.00865
0.9                    0.9977939        35.54148
0.904                  0.9967227        35.10608
0.908                  0.9961705        34.69217
0.912                  0.9962438         34.2855
0.916                  0.9969367        33.87039
0.92                   0.9981301        33.43269
0.924                  0.9996122        32.96242
0.928                   1.001117        32.45557
0.932                   1.002372        31.91483
0.936                   1.003148        31.34909
0.94                    1.003296        30.77187
0.944                   1.002782        30.19897
0.948                   1.001687        29.64579
0.952                   1.000199        29.12458
0.956                  0.9985801        28.64223
0.96                   0.9971204        28.19882
0.964                  0.9960876        27.78741
0.968                  0.9956752         27.3951
0.972                  0.9959672        27.00531
0.976                  0.9969192        26.60081
0.98                   0.9983662        26.16697
0.984                    1.00005        25.69449
0.988                   1.001669        25.18108
0.992                   1.002927        24.63186
0.996                   1.003592        24.05846
1                       1.003533        23.47695
1.004                    1.00275        22.90509
1.008                   1.001369        22.35932
1.012                  0.9996296        21.85182
1.016                  0.9978385        21.38818
1.02                   0.9963198        20.96622
1.024                  0.9953537        20.57603
1.028                  0.9951251        20.20166
1.032                  0.9956869        19.82387
1.036                  0.9969478         19.4238
1.04                   0.9986869        18.98649
1.044                   1.000594        18.50367
1.048                   1.002324        17.97529
1.052                    1.00356        17.40945
1.056                    1.00407        16.82098
1.06                    1.003747        16.22888
1.064                   1.002634        15.65313
1.068                   1.000915        15.11119
1.072                  0.9988866         14.6149
1.076                  0.9969098        14.16818
1.08                    0.995344        13.76592
1.084                   0.994482        13.39463
1.088                  0.9944936        13.03466
1.092                  0.9953911         12.6638
1.096                  0.9970243        12.26141
1.1                    0.9991054        11.81242
1.104                   1.001262        11.31006
1.108                   1.003101        10.75711
1.112                   1.004284         10.1653
1.116                   1.004583        9.553346
1.12                    1.003925        8.943683
1.124                   1.002405         8.35874
1.128                   1.000278        7.817059
1.132                  0.9979124        7.329903
1.136                  0.9957312        6.898837
1.14                   0.9941348        6.515171
1.144                  0.9934266        6.160848
1.148                  0.9937537        5.811825
1.152                  0.9950749        5.442313
1.156                   0.997166        5.029824
1.16                   0.9996572        4.559329
1.164                     1.0021        4.026199
1.168                   1.004049        3.436825
1.172                    1.00514        2.807506
1.176                   1.005153        2.161645
1.18                    1.004061        1.525832
1.184                   1.002028       0.9254104
1.188                  0.9993958       0.3800774
1.192                  0.9966229     -0.09984075
1.196                  0.9942079      -0.5157553
1.2                    0.9925993      -0.8812016
1.204                  0.9921105       -1.219877
1.208                  0.9928559       -1.561476
1.212                  0.9947244       -1.936088
1.216                  0.9973952       -2.368397
1.22                    1.000395       -2.872977
1.224                   1.003182       -3.451657
1.228                   1.005243       -4.093297
1.232                   1.006185       -4.775784
1.236                   1.005807       -5.469756
1.24                    1.004135       -6.143392
1.244                   1.001429        -6.76768
1.248                  0.9981408       -7.321504
1.252                  0.9948459       -7.795824
1.256                  0.9921413       -8.196118
1.26                    0.990537       -8.542294
1.264                  0.9903569       -8.865674
1.268                  0.9916702       -9.203354
1.272                  0.9942702       -9.591065
1.276                  0.9977081       -10.05621
1.28                    1.001372       -10.61264
1.284                   1.004595       -11.25829
1.288                   1.006779       -11.97566
1.292                   1.007492       -12.73491
1.296                   1.006554        -13.4987
1.3                     1.004069       -14.22815
1.304                   1.000422       -14.88917
1.308                  0.9962185       -15.45856
1.312                  0.9921958       -15.92892
1.316                  0.9890885       -16.31132
1.32                    0.987495       -16.63466
1.324                  0.9877554       -16.94115
1.328                  0.9898753        -17.2785
1.332                  0.9935135       -17.69055
1.336                  0.9980382       -18.20859
1.34                     1.00264       -18.84551
1.344                   1.006473       -19.59375
1.348                    1.00881       -20.42689
1.352                   1.009162       -21.30411
1.356                    1.00737       -22.17656
1.36                    1.003647       -22.99481
1.364                   0.998556       -23.71675
1.368                  0.9929344       -24.31535
1.372                  0.9877635       -24.78496
1.376                  0.9839984       -25.14472
1.38                   0.9823841       -25.43733
1.384                  0.9832977        -25.7223
1.388                  0.9866565       -26.06462
1.392                  0.9919135       -26.52155
1.396                  0.9981507       -27.13124
1.4                     1.004241       -27.90575
1.404                   1.009046       -28.82955
1.408                   1.011615       -29.86273
1.412                    1.01134       -30.94744
1.416                   1.008075       -32.01616
1.42                    1.002183       -33.00126
1.424                  0.9945054       -33.84543
1.428                  0.9862648       -34.51251
1.432                   0.978882       -34.99716
1.436                  0.9737301       -35.33085
1.44                   0.9718634       -35.58074
1.444                   0.973777       -35.83935
1.448                  0.9792665       -36.20634
1.452                  0.9874318       -36.76748
1.456                  0.9968261       -37.57726
1.46                    1.005709       -38.64988
1.464                   1.012343       -39.95872
1.468                   1.015271       -41.44226
1.472                   1.013557       -43.01319
1.476                   1.006945       -44.56887
1.48                   0.9959594       -46.00319
1.484                  0.9819033       -47.22072
1.488                  0.9667569       -48.15432
1.492                  0.9529372       -48.78569
1.496                  0.9429091        -49.1639
1.5                    0.9386831        -49.4129
1.504                  0.9413014       -49.71797
1.508                  0.9504782       -50.28987
1.512                  0.9645289        -51.3189
1.516                  0.9806068       -52.93833
1.52                    0.995139       -55.20988
1.524                   1.004311       -58.12947
1.528                   1.004482       -61.64361
1.532                  0.9924928       -65.66594
1.536                  0.9658698       -70.08842
1.54                   0.9229458       -74.78476
1.544                  0.8629322       -79.60458
1.548                  0.7859617       -84.35427
1.552                  0.6931386       -88.75283
