! TOUCHSTONE file generated by CST MICROWAVE STUDIO
! Date and time: Tue Jun 14 11:27:55 2022
! Project name: AppElm_antenne_patch_FR4.cst
! Parameters = {L=45; W=70.2; e=0.035; h=1.6; lambda=0.190476; ls=120; w0=2.54; w1=0.847; ws=120; y0=18; y1=23.8}
! Header version: 2018
! Port assignment regex: !\s*Touchstone port\s*([0-9]+)\s*=\s*(CST MWS port|CST DS port)\s*([0-9]+|Zmin|Zmax)\s*\(\"(.*)\"\)(\s*mode\s*([0-9]+))?.*
! Touchstone port assignment:
! Touchstone port 1 = CST MWS port 1 ("")
# GHz S MA R 50
0                      0.9717436              -0
0.004                  0.9733633        -11.5836
0.008                  0.9779934       -23.02308
0.012                  0.9849859       -34.18579
0.016                  0.9933852       -44.95903
0.02                    1.002082       -55.25392
0.024                   1.009974       -65.00497
0.028                   1.016119       -74.16683
0.032                    1.01984       -82.71005
0.036                   1.020799       -90.61755
0.04                    1.019027       -97.88241
0.044                   1.014901       -104.5077
0.048                   1.009096       -110.5078
0.052                   1.002487       -115.9104
0.056                  0.9960306       -120.7591
0.06                   0.9906321       -125.1135
0.064                  0.9870064       -129.0476
0.068                  0.9855757       -132.6447
0.072                    0.98641       -135.9892
0.076                  0.9892303       -139.1578
0.08                   0.9934716       -142.2122
0.084                  0.9983907       -145.1939
0.088                   1.003193       -148.1228
0.092                   1.007156       -150.9996
0.096                   1.009735       -153.8102
0.1                     1.010623       -156.5305
0.104                   1.009788        -159.133
0.108                    1.00746       -161.5918
0.112                   1.004083       -163.8882
0.116                   1.000247       -166.0141
0.12                   0.9965869       -167.9748
0.124                  0.9936846       -169.7891
0.128                  0.9919761       -171.4875
0.132                  0.9916827       -173.1072
0.136                  0.9927829       -174.6872
0.14                    0.995026       -176.2617
0.144                  0.9979853        -177.855
0.148                   1.001139       -179.4794
0.152                    1.00396        178.8663
0.156                   1.006004        177.1944
0.16                    1.006971        175.5254
0.164                    1.00675        173.8843
0.168                   1.005426        172.2957
0.172                    1.00326        170.7801
0.176                   1.000641        169.3503
0.18                   0.9980204        168.0094
0.184                  0.9958363        166.7498
0.188                  0.9944407        165.5547
0.192                  0.9940406        164.4005
0.196                  0.9946679         163.261
0.2                    0.9961786         162.112
0.204                  0.9982841        160.9354
0.208                   1.000607        159.7214
0.212                   1.002746        158.4702
0.216                    1.00435        157.1907
0.22                    1.005165        155.8988
0.224                    1.00508        154.6144
0.228                   1.004137        153.3577
0.232                   1.002519        152.1462
0.236                   1.000518        150.9916
0.24                   0.9984822         149.898
0.244                  0.9967604        148.8611
0.248                  0.9956379        147.8689
0.252                  0.9952911        146.9037
0.256                  0.9957589        145.9455
0.26                   0.9969382        144.9753
0.264                  0.9986072        143.9785
0.268                   1.000466         142.947
0.272                   1.002192        141.8808
0.276                   1.003494         140.787
0.28                    1.004162        139.6786
0.284                   1.004097        138.5719
0.288                   1.003328        137.4841
0.292                   1.002002        136.4298
0.296                   1.000358        135.4193
0.3                    0.9986846        134.4562
0.304                  0.9972706        133.5372
0.308                  0.9963557        132.6527
0.312                  0.9960879        131.7881
0.316                  0.9965006        130.9268
0.32                   0.9975082         130.053
0.324                  0.9989231        129.1545
0.328                   1.000493        128.2248
0.332                   1.001943        127.2639
0.336                   1.003026        126.2779
0.34                    1.003564        125.2782
0.344                   1.003474         124.279
0.348                   1.002784        123.2949
0.352                   1.001622        122.3388
0.356                   1.000197        121.4192
0.36                   0.9987594        120.5393
0.364                  0.9975588        119.6961
0.368                  0.9967999        118.8808
0.372                  0.9966083         118.081
0.376                  0.9970079        117.2821
0.38                   0.9979189        116.4705
0.384                  0.9991735        115.6358
0.388                   1.000548        114.7726
0.392                     1.0018        113.8812
0.396                   1.002715        112.9675
0.4                      1.00314        112.0417
0.404                   1.003008        111.1165
0.408                    1.00235         110.205
0.412                   1.001286        109.3185
0.416                   1.000006        108.4642
0.42                   0.9987364        107.6447
0.424                  0.9976979        106.8566
0.428                  0.9970696        106.0921
0.432                  0.9969567        105.3395
0.436                  0.9973723        104.5859
0.44                   0.9982364        103.8191
0.444                   0.999392        103.0301
0.448                   1.000633        102.2146
0.452                   1.001741        101.3734
0.456                   1.002525        100.5121
0.46                    1.002853        99.64056
0.464                   1.002672        98.77042
0.468                    1.00202        97.91358
0.472                   1.001014           97.08
0.476                  0.9998355        96.27602
0.48                   0.9986909        95.50324
0.484                  0.9977816        94.75826
0.488                  0.9972651        94.03319
0.492                  0.9972288        93.31717
0.496                  0.9976743         92.5982
0.5                    0.9985183         91.8654
0.504                  0.9996078        91.11091
0.508                   1.000749        90.33126
0.512                    1.00174        89.52778
0.516                   1.002409        88.70642
0.52                    1.002641        87.87653
0.524                   1.002399        87.04921
0.528                   1.001728        86.23542
0.532                    1.00075        85.44412
0.536                  0.9996368        84.68067
0.54                   0.9985852        83.94592
0.544                  0.9977799          83.236
0.548                   0.997361        82.54304
0.552                  0.9973994        81.85652
0.556                  0.9978846        81.16516
0.56                   0.9987268        80.45902
0.564                  0.9997739        79.73127
0.568                   1.000839        78.97924
0.572                   1.001733        78.20497
0.576                     1.0023        77.41466
0.58                    1.002442        76.61757
0.584                   1.002135         75.8244
0.588                   1.001436        75.04536
0.592                   1.000469        74.28856
0.596                  0.9994054        73.55842
0.6                    0.9984333        72.85501
0.604                  0.9977243        72.17393
0.608                   0.997403        71.50705
0.612                  0.9975244        70.84404
0.616                  0.9980643        70.17419
0.62                   0.9989248        69.48832
0.624                  0.9999512        68.78048
0.628                    1.00096        68.04894
0.632                   1.001774        67.29639
0.636                   1.002249        66.52948
0.64                    1.002302        65.75755
0.644                   1.001925        64.99099
0.648                   1.001186        64.23951
0.652                   1.000216        63.51037
0.656                  0.9991875        62.80715
0.66                   0.9982821        62.12906
0.664                  0.9976607        61.47105
0.668                  0.9974332        60.82467
0.672                  0.9976386        60.17962
0.676                  0.9982388        59.52557
0.68                   0.9991253        58.85405
0.684                   1.000139           58.16
0.688                   1.001098        57.44258
0.692                   1.001833        56.70528
0.696                   1.002212        55.95524
0.7                     1.002168        55.20206
0.704                    1.00171        54.45595
0.708                   1.000917        53.72614
0.712                  0.9999291        53.01912
0.716                   0.998922        52.33759
0.72                   0.9980741        51.67987
0.724                  0.9975362        51.04013
0.728                  0.9974038        50.40946
0.732                  0.9976998        49.77747
0.736                  0.9983702        49.13415
0.74                   0.9992946        48.47166
0.744                   1.000307        47.78582
0.748                   1.001225        47.07673
0.752                   1.001887        46.34874
0.756                   1.002172        45.60966
0.76                     1.00203        44.86935
0.764                   1.001485          44.138
0.768                   1.000632        43.42436
0.772                  0.9996217        42.73423
0.776                  0.9986343        42.06931
0.78                   0.9978457        41.42694
0.784                  0.9973969        40.80045
0.788                   0.997369        40.18037
0.792                  0.9977674        39.55609
0.796                  0.9985208        38.91785
0.8                    0.9994942         38.2585
0.804                   1.000513        37.57473
0.808                   1.001395        36.86769
0.812                    1.00198        36.14271
0.816                   1.002165        35.40835
0.82                    1.001912        34.67488
0.824                   1.001266        33.95253
0.828                   1.000338        33.24963
0.832                  0.9992918         32.5712
0.836                  0.9983135        31.91795
0.84                   0.9975776        31.28611
0.844                  0.9972163        30.66805
0.848                  0.9972951        30.05358
0.852                  0.9978004        29.43187
0.856                  0.9986414        28.79335
0.86                    0.999667        28.13152
0.864                   1.000692        27.44408
0.868                   1.001532        26.73329
0.872                   1.002033        26.00559
0.876                   1.002103        25.27043
0.88                    1.001724         24.5386
0.884                   1.000961        23.82036
0.888                  0.9999454        23.12367
0.892                  0.9988556        22.45269
0.896                  0.9978853          21.807
0.9                    0.9972087        21.18158
0.904                  0.9969484        20.56765
0.908                   0.997153        19.95421
0.912                  0.9977872        19.33004
0.916                  0.9987384        18.68579
0.92                   0.9998359        18.01563
0.924                   1.000882        17.31835
0.928                   1.001688         16.5975
0.932                   1.002107        15.86078
0.936                   1.002059        15.11867
0.94                    1.001548        14.38259
0.944                   1.000661        13.66293
0.948                   0.999552         12.9672
0.952                  0.9984178        12.29864
0.956                  0.9974616        11.65556
0.96                   0.9968571        11.03149
0.964                  0.9967165        10.41632
0.968                  0.9970688        9.798064
0.972                  0.9978543        9.165088
0.976                  0.9989341         8.50822
0.98                    1.000115         7.82244
0.984                   1.001185        7.107777
0.988                   1.001949         6.36929
0.992                   1.002265        5.616165
0.996                   1.002072        4.860112
1                       1.001395        4.113346
1.004                   1.000349        3.386448
1.008                  0.9991164        2.686478
1.012                  0.9979137        2.015626
1.016                   0.996957        1.370692
1.02                   0.9964207       0.7435291
1.024                  0.9964051       0.1224306
1.028                  0.9969175      -0.5057667
1.032                   0.997869       -1.153262
1.036                  0.9990904       -1.829035
1.04                    1.000362       -2.537203
1.044                   1.001452       -3.276278
1.048                    1.00216       -4.039444
1.052                    1.00235       -4.815741
1.056                   1.001979       -5.591967
1.06                    1.001102       -6.354943
1.064                  0.9998651       -7.093824
1.068                  0.9984834       -7.802076
1.072                  0.9972009       -8.478771
1.076                   0.996249       -9.128947
1.08                   0.9958031       -9.762789
1.084                    0.99595       -10.39398
1.088                  0.9966698       -11.03722
1.092                  0.9978388       -11.70546
1.096                  0.9992496       -12.40741
1.1                     1.000649       -13.14619
1.104                   1.001781       -13.91852
1.108                   1.002437       -14.71541
1.112                   1.002487       -15.52378
1.116                    1.00191       -16.32846
1.12                    1.000795       -17.11508
1.124                  0.9993293       -17.87236
1.128                  0.9977677       -18.59437
1.132                  0.9963884        -19.2817
1.136                  0.9954427       -19.94161
1.14                   0.9951086       -20.58694
1.144                  0.9954562       -21.23385
1.148                  0.9964329       -21.89892
1.152                    0.99787       -22.59601
1.156                  0.9995123       -23.33371
1.16                    1.001063       -24.11375
1.164                   1.002237       -24.93066
1.168                   1.002812       -25.77272
1.172                   1.002665       -26.62394
1.176                   1.001803       -27.46677
1.18                    1.000358       -28.28508
1.184                  0.9985709       -29.06702
1.188                  0.9967502        -29.8073
1.192                  0.9952192       -30.50841
1.196                  0.9942577       -31.18053
1.2                     0.994049       -31.83994
1.204                  0.9946436       -32.50617
1.208                  0.9959463        -33.1984
1.212                  0.9977305       -33.93186
1.216                  0.9996777       -34.71499
1.22                    1.001433       -35.54787
1.224                   1.002668       -36.42216
1.228                   1.003142       -37.32254
1.232                   1.002741       -38.22925
1.236                   1.001506       -39.12132
1.24                   0.9996261       -39.98027
1.244                  0.9974145       -40.79326
1.248                  0.9952533       -41.55578
1.252                  0.9935298       -42.27288
1.256                  0.9925649       -42.95873
1.26                   0.9925514       -43.63447
1.264                   0.993514       -44.32438
1.268                  0.9952994       -45.05146
1.272                  0.9975998       -45.83299
1.276                   1.000006       -46.67734
1.28                    1.002079        -47.5824
1.284                   1.003428        -48.5359
1.288                    1.00378       -49.51745
1.292                   1.003027       -50.50182
1.296                   1.001258       -51.46311
1.3                    0.9987405       -52.37906
1.304                  0.9958906       -53.23513
1.308                  0.9931999       -54.02757
1.312                  0.9911523        -54.7649
1.316                  0.9901349       -55.46709
1.32                   0.9903604       -56.16243
1.324                  0.9918204       -56.88251
1.328                  0.9942782       -57.65624
1.332                  0.9973059       -58.50433
1.336                   1.000357       -59.43533
1.34                    1.002862       -60.44409
1.344                   1.004329       -61.51261
1.348                   1.004429       -62.61284
1.352                   1.003059       -63.71114
1.356                   1.000369        -64.7736
1.36                   0.9967512       -65.77156
1.364                  0.9927804       -66.68708
1.368                  0.9891282       -67.51695
1.372                  0.9864449       -68.27474
1.376                  0.9852377       -68.98973
1.38                   0.9857663       -69.70236
1.384                  0.9879799       -70.45693
1.388                  0.9915122        -71.2931
1.392                  0.9957374       -72.23822
1.396                  0.9998765       -73.30215
1.4                     1.003131       -74.47552
1.404                    1.00482       -75.73134
1.408                     1.0045       -77.02913
1.412                   1.002052       -78.32083
1.416                  0.9977146       -79.55797
1.42                   0.9920749       -80.69951
1.424                  0.9859916       -81.71962
1.428                  0.9804693        -82.6143
1.432                   0.976486       -83.40531
1.436                  0.9748068       -84.13917
1.44                   0.9758146       -84.88068
1.444                  0.9794077       -85.70099
1.448                   0.984986       -86.66366
1.452                  0.9915393       -87.81231
1.456                  0.9978118       -89.16268
1.46                     1.00251       -90.70047
1.464                   1.004514       -92.38411
1.468                   1.003063        -94.1507
1.472                  0.9978949       -95.92418
1.476                  0.9893293       -97.62489
1.48                   0.9782733       -99.18105
1.484                   0.966148       -100.5422
1.488                  0.9547121       -101.6937
1.492                  0.9457824       -102.6696
1.496                  0.9408766       -103.5578
1.5                     0.940843       -104.4927
1.504                  0.9455774        -105.633
1.508                  0.9539203       -107.1314
1.512                  0.9637637        -109.107
1.516                  0.9723249        -111.629
1.52                   0.9764947       -114.7154
1.524                  0.9731764       -118.3403
1.528                   0.959565       -122.4447
1.532                  0.9333517       -126.9459
1.536                  0.8928633       -131.7412
1.54                   0.8371494       -136.7049
1.544                  0.7660391       -141.6755
1.548                  0.6801863       -146.4226
1.552                  0.5811533       -150.5711
