! TOUCHSTONE file generated by CST MICROWAVE STUDIO
! Date and time: Tue Jun 14 11:27:50 2022
! Project name: AppElm_antenne_patch_FR4.cst
! Parameters = {L=45; W=55.575; e=0.035; h=1.6; lambda=0.190476; ls=120; w0=2.54; w1=0.847; ws=120; y0=18; y1=23.8}
! Header version: 2018
! Port assignment regex: !\s*Touchstone port\s*([0-9]+)\s*=\s*(CST MWS port|CST DS port)\s*([0-9]+|Zmin|Zmax)\s*\(\"(.*)\"\)(\s*mode\s*([0-9]+))?.*
! Touchstone port assignment:
! Touchstone port 1 = CST MWS port 1 ("")
# GHz S MA R 50
0                      0.9892402              -0
0.004                  0.9898566       -9.538177
0.008                  0.9916245       -18.99537
0.012                  0.9943129       -28.29435
0.016                  0.9975748       -37.36486
0.02                    1.000995       -46.14581
0.024                   1.004148       -54.58637
0.028                   1.006654        -62.6462
0.032                   1.008224       -70.29503
0.036                   1.008698       -77.51214
0.04                    1.008056       -84.28575
0.044                   1.006425        -90.6128
0.048                   1.004053       -96.49894
0.052                   1.001279       -101.9586
0.056                  0.9984856       -107.0149
0.06                   0.9960488       -111.6989
0.064                  0.9942833       -116.0485
0.068                   0.993401        -120.106
0.072                  0.9934831       -123.9151
0.076                   0.994471       -127.5178
0.08                   0.9961798       -130.9512
0.084                    0.99833       -134.2449
0.088                   1.000592       -137.4197
0.092                   1.002634       -140.4876
0.096                   1.004173       -143.4525
0.1                     1.005009       -146.3119
0.104                   1.005053       -149.0596
0.108                   1.004332        -151.688
0.112                   1.002988       -154.1905
0.116                   1.001246        -156.564
0.12                   0.9993852       -158.8105
0.124                  0.9976951       -160.9375
0.128                  0.9964301       -162.9584
0.132                  0.9957717       -164.8909
0.136                  0.9958027       -166.7551
0.14                   0.9964956       -168.5712
0.144                  0.9977202       -170.3571
0.148                  0.9992677       -172.1257
0.152                   1.000885       -173.8843
0.156                   1.002315        -175.634
0.16                    1.003339       -177.3701
0.164                   1.003808       -179.0836
0.168                   1.003662        179.2367
0.172                    1.00294        177.6025
0.176                    1.00177        176.0235
0.18                     1.00035        174.5057
0.184                  0.9989132        173.0504
0.188                   0.997691        171.6533
0.192                  0.9968773        170.3055
0.196                  0.9965964        168.9941
0.2                    0.9968831        167.7048
0.204                  0.9976794        166.4236
0.208                  0.9988441        165.1392
0.212                   1.000179        163.8443
0.216                   1.001463        162.5371
0.22                    1.002484        161.2207
0.224                   1.003081        159.9027
0.228                   1.003162        158.5936
0.232                    1.00272        157.3048
0.236                   1.001834        156.0472
0.24                    1.000657        154.8286
0.244                  0.9993863         153.653
0.248                  0.9982329        152.5196
0.252                  0.9973882        151.4225
0.256                  0.9969896        150.3521
0.26                   0.9970989        149.2965
0.264                  0.9976918        148.2431
0.268                  0.9986633        147.1813
0.272                  0.9998459        146.1038
0.276                   1.001038        145.0078
0.28                     1.00204        143.8952
0.284                   1.002686        142.7724
0.288                   1.002869        141.6491
0.292                   1.002563        140.5363
0.296                   1.001822        139.4447
0.3                     1.000775        138.3829
0.304                  0.9995983         137.356
0.308                  0.9984928        136.3643
0.312                  0.9976457        135.4036
0.316                  0.9971998        134.4658
0.32                   0.9972294        133.5399
0.324                  0.9977268        132.6143
0.328                  0.9986043        131.6785
0.332                  0.9997099         130.725
0.336                   1.000854        129.7505
0.34                     1.00184        128.7566
0.344                   1.002503        127.7488
0.348                    1.00273        126.7363
0.352                   1.002484        125.7299
0.356                   1.001809        124.7402
0.36                    1.000821        123.7761
0.364                  0.9996897         122.843
0.368                  0.9986093        121.9421
0.372                   0.997766        121.0696
0.376                  0.9973051         120.218
0.38                   0.9973057        119.3768
0.384                  0.9977673        118.5346
0.388                  0.9986093        117.6811
0.392                  0.9996851        116.8087
0.396                   1.000809        115.9139
0.4                     1.001787         114.998
0.404                    1.00245        114.0665
0.408                   1.002686        113.1284
0.412                   1.002454        112.1943
0.416                   1.001793         111.275
0.42                    1.000818        110.3796
0.424                   0.999697        109.5135
0.428                  0.9986237         108.678
0.432                   0.997785        107.8697
0.436                  0.9973274        107.0809
0.44                    0.997331        106.3014
0.444                  0.9977959        105.5196
0.448                  0.9986408        104.7252
0.452                  0.9997186        103.9107
0.456                   1.000842        103.0726
0.46                    1.001814        102.2122
0.464                   1.002467        101.3352
0.468                   1.002687        100.4507
0.472                   1.002434        99.56966
0.476                   1.001751        98.70298
0.48                    1.000755        97.85967
0.484                  0.9996195         97.0453
0.488                  0.9985406        96.26097
0.492                  0.9977078        95.50302
0.496                  0.9972678        94.76361
0.5                    0.9972988         94.0321
0.504                  0.9977963        93.29684
0.508                  0.9986737        92.54738
0.512                  0.9997776        91.77617
0.516                   1.000914        90.98008
0.52                    1.001884        90.16071
0.524                   1.002517        89.32419
0.528                   1.002701        88.48006
0.532                   1.002402        87.63959
0.536                    1.00167        86.81393
0.54                    1.000629        86.01212
0.544                  0.9994618         85.2396
0.548                   0.998371         84.4971
0.552                   0.997549        83.78048
0.556                  0.9971419        83.08132
0.56                   0.9972232        82.38848
0.564                  0.9977802        81.68999
0.568                  0.9987159        80.97524
0.572                  0.9998661        80.23687
0.576                   1.001028         79.4721
0.58                    1.001998         78.6831
0.584                   1.002602         77.8767
0.588                   1.002735        77.06304
0.592                   1.002369        76.25391
0.596                   1.001565        75.46076
0.6                     1.000462        74.69261
0.604                  0.9992509        73.95462
0.608                  0.9981456        73.24696
0.612                  0.9973417        72.56473
0.616                  0.9969835        71.89876
0.62                   0.9971368         71.2372
0.624                  0.9977771        70.56761
0.628                  0.9987929        69.87931
0.632                   1.000006        69.16513
0.636                   1.001201        68.42284
0.64                    1.002169        67.65545
0.644                   1.002735        66.87062
0.648                   1.002799        66.07933
0.652                   1.002344          65.294
0.656                   1.001448        64.52639
0.66                    1.000264        63.78553
0.664                  0.9989999        63.07608
0.668                  0.9978783        62.39748
0.672                  0.9970998        61.74385
0.676                   0.996805        61.10506
0.68                   0.9970498        60.46838
0.684                  0.9977939        59.82087
0.688                  0.9989076        59.15168
0.692                   1.000195        58.45405
0.696                   1.001427        57.72648
0.7                     1.002386        56.97296
0.704                     1.0029        56.20224
0.708                   1.002874        55.42629
0.712                   1.002309        54.65829
0.716                   1.001298        53.91032
0.72                    1.000017        53.19128
0.724                  0.9986892        52.50526
0.728                  0.9975505        51.85076
0.732                  0.9968052         51.2207
0.736                  0.9965891        50.60375
0.74                   0.9969447        49.98617
0.744                  0.9978121        49.35446
0.748                  0.9990396        48.69769
0.752                   1.000411        48.00959
0.756                   1.001681        47.28957
0.76                    1.002624        46.54284
0.764                    1.00307        45.77943
0.768                   1.002934        45.01248
0.772                   1.002234        44.25597
0.776                   1.001088        43.52234
0.78                   0.9996933         42.8203
0.784                  0.9982952         42.1532
0.788                  0.9971419        41.51834
0.792                  0.9964411        40.90727
0.796                  0.9963222        40.30717
0.8                    0.9968105        39.70325
0.804                  0.9978235        39.08133
0.808                  0.9991829         38.4305
0.812                   1.000648         37.7451
0.816                   1.001958        37.02568
0.82                    1.002878        36.27888
0.824                   1.003239        35.51623
0.828                   1.002971        34.75219
0.832                   1.002115        34.00163
0.836                   1.000813        33.27735
0.84                   0.9992921        32.58777
0.844                  0.9978189        31.93531
0.848                  0.9966564        31.31586
0.852                  0.9960153        30.71929
0.856                  0.9960156         30.1312
0.86                   0.9966628        29.53548
0.864                  0.9978463         28.9173
0.868                   0.999358        28.26583
0.872                    1.00093        27.57619
0.876                   1.002281        26.85028
0.88                    1.003168        26.09642
0.884                   1.003428        25.32788
0.888                   1.003006        24.56058
0.892                   1.001968        23.81042
0.896                   1.000489        23.09053
0.9                    0.9988262        22.40892
0.904                  0.9972727        21.76691
0.908                  0.9961069         21.1587
0.912                  0.9955423        20.57222
0.916                  0.9956867        19.99121
0.92                   0.9965213        19.39813
0.924                  0.9979029        18.77746
0.928                  0.9995885         18.1185
0.932                   1.001279        17.41735
0.936                   1.002672        16.67752
0.94                    1.003515        15.90928
0.944                   1.003652        15.12788
0.948                   1.003047        14.35094
0.952                   1.001797        13.59547
0.956                   1.000114        12.87494
0.96                   0.9982898        12.19685
0.964                  0.9966473        11.56118
0.968                  0.9954829        10.96017
0.972                  0.9950114        10.37947
0.976                  0.9953261         9.80066
0.98                   0.9963793        9.204603
0.984                  0.9979895        8.575004
0.988                  0.9998735        7.901411
0.992                   1.001696        7.181088
0.996                   1.003131        6.419438
1                       1.003917        5.629019
1.004                   1.003903        4.827363
1.008                   1.003081        4.034029
1.012                    1.00158        3.267308
1.016                   0.999656        2.541051
1.02                   0.9976429        1.862122
1.024                  0.9958977        1.228914
1.028                  0.9947366       0.6313297
1.032                  0.9943762      0.05235608
1.036                  0.9948918      -0.5289466
1.04                   0.9962013       -1.133587
1.044                  0.9980786        -1.77872
1.048                   1.000193       -2.474488
1.052                   1.002167       -3.222226
1.056                   1.003646       -4.014296
1.06                    1.004359        -4.83547
1.064                   1.004164       -5.665525
1.068                    1.00308        -6.48262
1.072                    1.00128       -7.266955
1.076                  0.9990681       -8.004222
1.08                   0.9968299       -8.688291
1.084                  0.9949622       -9.322652
1.088                  0.9938056       -9.920211
1.092                  0.9935781       -10.50111
1.096                  0.9943344       -11.08938
1.1                    0.9959512       -11.70825
1.104                  0.9981487       -12.37588
1.108                   1.000539       -13.10212
1.112                   1.002696       -13.88656
1.116                    1.00423       -14.71899
1.12                    1.004855       -15.58091
1.124                   1.004443       -16.44892
1.128                   1.003042       -17.29839
1.132                   1.000878       -18.10764
1.136                  0.9983165       -18.86174
1.14                   0.9958015        -19.5554
1.144                  0.9937815       -20.19433
1.148                  0.9926272        -20.7948
1.152                  0.9925606       -21.38095
1.156                  0.9936114       -21.98048
1.16                    0.995607       -22.61947
1.164                  0.9982019       -23.31744
1.168                   1.000938       -24.08379
1.172                   1.003328       -24.91623
1.176                   1.004936       -25.80125
1.18                    1.005461       -26.71653
1.184                   1.004782       -27.63461
1.188                    1.00299       -28.52737
1.192                   1.000369       -29.37066
1.196                  0.9973614       -30.14859
1.2                    0.9944885       -30.85671
1.204                  0.9922641       -31.50346
1.208                  0.9911002       -32.10929
1.212                  0.9912266       -32.70337
1.216                  0.9926444       -33.31825
1.22                   0.9951201       -33.98374
1.224                  0.9982257       -34.72125
1.228                   1.001413       -35.53989
1.232                   1.004112       -36.43498
1.236                    1.00583       -37.38906
1.24                    1.006236       -38.37486
1.244                   1.005221       -39.35973
1.248                   1.002918       -40.31085
1.252                  0.9996925        -41.2006
1.256                  0.9960821       -42.01151
1.26                    0.992712       -42.73989
1.264                  0.9901866       -43.39747
1.268                  0.9889778       -44.01017
1.272                  0.9893324       -44.61386
1.276                  0.9912192       -45.24781
1.28                   0.9943274       -45.94713
1.284                  0.9981193        -46.7361
1.288                   1.001926        -47.6238
1.292                   1.005062        -48.6027
1.296                    1.00695       -49.65024
1.3                     1.007212       -50.73257
1.304                   1.005744       -51.80994
1.308                   1.002736       -52.84283
1.312                  0.9986512       -53.79838
1.316                  0.9941628       -54.65622
1.32                   0.9900426       -55.41311
1.324                  0.9870297       -56.08485
1.328                  0.9856924       -56.70484
1.332                  0.9863139       -57.31863
1.336                  0.9888277       -57.97546
1.34                   0.9928201       -58.71873
1.344                  0.9975998       -59.57759
1.348                    1.00232       -60.56179
1.352                   1.006124       -61.66031
1.356                   1.008296       -62.84369
1.36                    1.008378       -64.06885
1.364                   1.006254       -65.28555
1.368                   1.002179       -66.44395
1.372                  0.9967558       -67.50237
1.376                  0.9908541        -68.4349
1.38                   0.9854739       -69.23744
1.384                  0.9815765         -69.931
1.388                  0.9799021       -70.56002
1.392                  0.9808168       -71.18547
1.396                  0.9842225       -71.87344
1.4                    0.9895593        -72.6818
1.404                  0.9958989       -73.64915
1.408                   1.002107       -74.78787
1.412                   1.007038       -76.08294
1.416                   1.009727        -77.4951
1.42                     1.00955       -78.96717
1.424                   1.006332       -80.43213
1.428                   1.000396       -81.82226
1.432                  0.9925439       -83.07926
1.436                  0.9839626       -84.16467
1.44                   0.9760534       -85.06947
1.444                  0.9702007        -85.8206
1.448                   0.967508       -86.48087
1.452                  0.9685581       -87.14022
1.456                  0.9732601       -87.89868
1.46                   0.9808323       -88.84592
1.464                  0.9899269        -90.0434
1.468                  0.9988619       -91.51411
1.472                   1.005903       -93.24092
1.476                   1.009538       -95.17146
1.48                    1.008709       -97.22662
1.484                   1.002982       -99.31039
1.488                  0.9926535       -101.3207
1.492                  0.9787666        -103.162
1.496                  0.9630453       -104.7606
1.5                    0.9477046       -106.0837
1.504                  0.9351287       -107.1579
1.508                  0.9274283       -108.0816
1.512                  0.9259512       -109.0193
1.516                  0.9308826       -110.1758
1.52                   0.9410777       -111.7549
1.524                  0.9541863       -113.9194
1.528                  0.9670097       -116.7703
1.532                  0.9759524       -120.3457
1.536                  0.9774448       -124.6352
1.54                   0.9682719        -129.599
1.544                  0.9457967       -135.1854
1.548                  0.9080974       -141.3444
1.552                   0.854038       -148.0399
