! TOUCHSTONE file generated by CST MICROWAVE STUDIO
! Date and time: Tue Jun  7 21:57:03 2022
! Project name: AppElm_antenne_patch_FR4.cst
! Parameters = {L=45; W=58.5; e=0.035; h=1.6; lambda=0.190476; ls=120; w0=1.6; w1=0.533; ws=120; y0=20; y1=23.81}
! Header version: 2018
! Port assignment regex: !\s*Touchstone port\s*([0-9]+)\s*=\s*(CST MWS port|CST DS port)\s*([0-9]+|Zmin|Zmax)\s*\(\"(.*)\"\)(\s*mode\s*([0-9]+))?.*
! Touchstone port assignment:
! Touchstone port 1 = CST MWS port 1 ("")
# GHz S MA R 50
0                      0.9892759              -0
0.004                  0.9899165        -9.93033
0.008                    0.99175       -19.77356
0.012                  0.9945254       -29.44681
0.016                  0.9978669       -38.87506
0.02                     1.00133       -47.99347
0.024                   1.004465       -56.74864
0.028                    1.00688       -65.09873
0.032                   1.008288       -73.01301
0.036                   1.008547       -80.47111
0.04                     1.00767       -87.46262
0.044                   1.005823       -93.98665
0.048                   1.003297       -100.0519
0.052                   1.000467       -105.6768
0.056                  0.9977395       -110.8886
0.06                   0.9954904       -115.7233
0.064                  0.9940155        -120.223
0.068                  0.9934866       -124.4334
0.072                  0.9939293       -128.4003
0.076                  0.9952253       -132.1662
0.08                   0.9971353       -135.7667
0.084                  0.9993418       -139.2291
0.088                   1.001499       -142.5709
0.092                   1.003289       -145.8007
0.096                   1.004461       -148.9193
0.1                     1.004874       -151.9224
0.104                   1.004504       -154.8032
0.108                   1.003447       -157.5547
0.112                   1.001902        -160.173
0.116                   1.000131       -162.6584
0.12                   0.9984235       -165.0168
0.124                  0.9970474       -167.2601
0.128                  0.9962081       -169.4049
0.132                  0.9960177       -171.4709
0.136                  0.9964805       -173.4785
0.14                   0.9974951        -175.446
0.144                  0.9988756       -177.3878
0.148                   1.000385       -179.3127
0.152                   1.001775        178.7769
0.156                   1.002825        176.8839
0.16                     1.00338        175.0162
0.164                   1.003367        173.1837
0.168                   1.002807        171.3974
0.172                   1.001811        169.6664
0.176                   1.000555        167.9968
0.18                   0.9992533          166.39
0.184                  0.9981209        164.8424
0.188                  0.9973411         163.346
0.192                   0.997033        161.8891
0.196                  0.9972341        160.4586
0.2                    0.9978964        159.0415
0.204                  0.9988961        157.6273
0.208                   1.000057        156.2094
0.212                    1.00118        154.7857
0.216                   1.002079        153.3588
0.22                     1.00261        151.9354
0.224                   1.002692        150.5245
0.228                   1.002321        149.1362
0.232                    1.00157        147.7797
0.236                   1.000571        146.4616
0.24                   0.9994972        145.1851
0.244                  0.9985315        143.9491
0.248                  0.9978345        142.7481
0.252                  0.9975191        141.5737
0.256                  0.9976319        140.4156
0.26                   0.9981452        139.2631
0.264                  0.9989646        138.1075
0.268                  0.9999441        136.9427
0.272                   1.000915         135.767
0.276                   1.001711        134.5823
0.28                    1.002201        133.3944
0.284                   1.002305        132.2114
0.288                   1.002012        131.0423
0.292                   1.001375        129.8959
0.296                   1.000509        128.7785
0.3                    0.9995632        127.6938
0.304                  0.9987007        126.6412
0.308                  0.9980685        125.6166
0.312                  0.9977723        124.6129
0.316                  0.9978592        123.6209
0.32                   0.9983099        122.6314
0.324                  0.9990421        121.6363
0.328                  0.9999267        120.6302
0.332                   1.000809        119.6113
0.336                   1.001538        118.5814
0.34                     1.00199        117.5458
0.344                   1.002088         116.512
0.348                    1.00182        115.4886
0.352                   1.001235        114.4836
0.356                   1.000436        113.5033
0.36                   0.9995623        112.5511
0.364                  0.9987663        111.6267
0.368                  0.9981858        110.7266
0.372                  0.9979205        109.8438
0.376                  0.9980149        108.9702
0.38                   0.9984505        108.0968
0.384                  0.9991493        107.2162
0.388                  0.9999883        106.3235
0.392                   1.000821        105.4169
0.396                   1.001502        104.4984
0.4                     1.001914        103.5731
0.404                   1.001987        102.6482
0.408                    1.00171        101.7322
0.412                   1.001132        100.8327
0.416                   1.000353        99.95587
0.42                   0.9995112         99.1048
0.424                  0.9987527        98.27914
0.428                  0.9982105         97.4752
0.432                   0.997979        96.68636
0.436                  0.9980979        95.90442
0.44                   0.9985461        95.12091
0.444                  0.9992436        94.32864
0.448                   1.000068        93.52295
0.452                   1.000873        92.70249
0.456                   1.001519        91.86944
0.46                    1.001893          91.029
0.464                   1.001929         90.1886
0.468                   1.001621        89.35648
0.472                   1.001023        88.54027
0.476                    1.00024        87.74581
0.48                   0.9994085        86.97591
0.484                  0.9986756        86.22992
0.488                  0.9981705        85.50381
0.492                  0.9979825        84.79085
0.496                  0.9981453        84.08266
0.5                    0.9986305        83.37088
0.504                  0.9993523        82.64853
0.508                   1.000183        81.91134
0.512                   1.000977        81.15834
0.516                   1.001592        80.39217
0.52                    1.001921        79.61843
0.524                   1.001904        78.84484
0.528                   1.001543        78.07978
0.532                     1.0009        77.33085
0.536                   1.000087        76.60361
0.54                   0.9992467         75.9005
0.544                  0.9985274        75.22039
0.548                  0.9980566        74.55875
0.552                  0.9979186        73.90835
0.556                  0.9981388        73.26059
0.56                   0.9986789          72.607
0.564                  0.9994435        71.94081
0.568                   1.000297        71.25809
0.572                   1.001088        70.55843
0.576                   1.001676        69.84509
0.58                    1.001956        69.12428
0.584                   1.001876        68.40416
0.588                   1.001448        67.69334
0.592                   1.000746        66.99947
0.596                  0.9998929        66.32778
0.6                    0.9990391        65.68025
0.604                  0.9983364        65.05505
0.608                   0.997911        64.44694
0.612                  0.9978407        63.84807
0.616                    0.99814        63.24939
0.62                   0.9987572        62.64232
0.624                  0.9995842        62.02023
0.628                   1.000474         61.3797
0.632                   1.001269        60.72105
0.636                   1.001825        60.04832
0.64                    1.002044        59.36852
0.644                   1.001883         58.6904
0.648                   1.001367        58.02295
0.652                   1.000586        57.37382
0.656                  0.9996758        56.74795
0.66                   0.9987974        56.14662
0.664                  0.9981078        55.56721
0.668                  0.9977316        55.00355
0.672                  0.9977385        54.44695
0.676                  0.9981297        53.88788
0.68                   0.9988377         53.3175
0.684                  0.9997371        52.72946
0.688                   1.000668        52.12092
0.692                   1.001464        51.49308
0.696                   1.001982        50.85096
0.7                     1.002126         50.2025
0.704                   1.001867        49.55721
0.708                   1.001248        48.92446
0.712                   1.000374        48.31191
0.716                  0.9994006        47.72402
0.72                   0.9984998        47.16128
0.724                  0.9978339           46.62
0.728                  0.9975252        46.09288
0.732                  0.9976322        45.57032
0.736                  0.9981397        45.04207
0.74                   0.9989595        44.49922
0.744                  0.9999469        43.93568
0.748                   1.000926        43.34939
0.752                   1.001721        42.74262
0.756                   1.002187        42.12161
0.76                    1.002237        41.49544
0.764                   1.001858        40.87446
0.768                   1.001111         40.2685
0.772                   1.000126         39.6851
0.776                  0.9990756        39.12821
0.78                   0.9981471        38.59728
0.784                  0.9975084        38.08735
0.788                  0.9972772        37.58981
0.792                  0.9974988        37.09394
0.796                  0.9981374        36.58881
0.8                    0.9990813        36.06532
0.804                   1.000163        35.51788
0.808                   1.001188        34.94537
0.812                    1.00197        34.35138
0.816                   1.002367        33.74352
0.82                    1.002302         33.1322
0.824                    1.00178        32.52868
0.828                   1.000887        31.94322
0.832                  0.9997789        31.38321
0.836                  0.9986511        30.85178
0.84                    0.997706        30.34715
0.844                   0.997116        29.86281
0.848                  0.9969921        29.38859
0.852                  0.9973621        28.91249
0.856                  0.9981647        28.42287
0.86                   0.9992597        27.91056
0.864                   1.000453        27.37059
0.868                   1.001529        26.80305
0.872                   1.002294        26.21312
0.876                   1.002605        25.61008
0.88                      1.0024         25.0058
0.884                   1.001708         24.4126
0.888                   1.000645        23.84116
0.892                  0.9993958        23.29859
0.896                  0.9981822        22.78703
0.9                    0.9972228        22.30315
0.904                   0.996694        21.83863
0.908                   0.996697         21.3815
0.912                  0.9972377        20.91835
0.916                  0.9982244        20.43678
0.92                   0.9994837        19.92768
0.924                    1.00079        19.38694
0.928                   1.001909        18.81613
0.932                   1.002633        18.22231
0.936                   1.002828        17.61668
0.94                    1.002449        17.01279
0.944                   1.001553        16.42408
0.948                   1.000294        15.86159
0.952                  0.9988889        15.33194
0.956                  0.9975901        14.83598
0.96                   0.9966331         14.3685
0.964                  0.9961967        13.91894
0.968                  0.9963681        13.47326
0.972                   0.997125        13.01645
0.976                  0.9983389        12.53534
0.98                    0.999796        12.02102
0.984                   1.001236        11.47049
0.988                     1.0024         10.8872
0.992                   1.003071        10.28043
0.996                   1.003123        9.663708
1                       1.002534        9.052445
1.004                   1.001397        8.461349
1.008                  0.9999059        7.901792
1.012                  0.9983221        7.379725
1.016                  0.9969289        6.894398
1.02                   0.9959811        6.438278
1.024                  0.9956578        5.998205
1.028                  0.9960273        5.557703
1.032                  0.9970332        5.099996
1.036                  0.9985016        4.611141
1.04                    1.000173        4.082623
1.044                   1.001746        3.512919
1.048                   1.002934        2.907758
1.052                   1.003515        2.279123
1.056                   1.003372        1.643191
1.06                    1.002514        1.017593
1.064                   1.001078       0.4183872
1.068                  0.9993106      -0.1427878
1.072                  0.9975201      -0.6609385
1.076                  0.9960288       -1.138883
1.08                   0.9951123       -1.587048
1.084                  0.9949474         -2.0218
1.088                  0.9955778       -2.462539
1.092                  0.9969024       -2.928116
1.096                  0.9986924       -3.433281
1.1                     1.000631       -3.985948
1.104                   1.002369       -4.585752
1.108                    1.00359       -5.224129
1.112                   1.004061        -5.88581
1.116                   1.003682       -6.551399
1.12                      1.0025       -7.200648
1.124                   1.000707       -7.815858
1.128                  0.9986096       -8.385199
1.132                  0.9965766       -8.904866
1.136                  0.9949761       -9.380277
1.14                   0.9941069       -9.825436
1.144                  0.9941417       -10.26064
1.148                  0.9950915       -10.70883
1.152                  0.9968001       -11.19127
1.156                  0.9989701       -11.72358
1.16                    1.001215       -12.31277
1.164                   1.003128       -12.95605
1.168                   1.004356       -13.64129
1.172                   1.004658       -14.34913
1.176                   1.003954        -15.0562
1.18                    1.002342       -15.73901
1.184                   1.000083       -16.37795
1.188                  0.9975615       -16.96089
1.192                  0.9952221       -17.48567
1.196                   0.993491        -17.9611
1.2                    0.9926964       -18.40584
1.204                  0.9930044       -18.84528
1.208                  0.9943833       -19.30694
1.212                  0.9966052       -19.81523
1.216                  0.9992838       -20.38683
1.22                    1.001942       -21.02761
1.224                     1.0041       -21.73162
1.228                   1.005354       -22.48218
1.232                   1.005453       -23.25468
1.236                   1.004344       -24.02064
1.24                    1.002185        -24.7523
1.244                  0.9993271       -25.42742
1.248                  0.9962575       -26.03342
1.252                  0.9935197       -26.57016
1.256                  0.9916175       -27.05083
1.26                   0.9909187       -27.50023
1.264                  0.9915822       -27.95057
1.268                  0.9935205       -28.43548
1.272                  0.9964099       -28.98357
1.276                  0.9997456       -29.61296
1.28                     1.00293       -30.32797
1.284                   1.005381       -31.11851
1.288                   1.006628       -31.96177
1.292                   1.006403       -32.82607
1.296                   1.004687       -33.67586
1.3                     1.001719       -34.47738
1.304                  0.9979752       -35.20445
1.308                  0.9940852       -35.84346
1.312                  0.9907365       -36.39682
1.316                  0.9885483       -36.88378
1.32                   0.9879525       -37.33795
1.324                  0.9891048       -37.80154
1.328                  0.9918435        -38.3174
1.332                  0.9957099       -38.92067
1.336                   1.000029       -39.63202
1.34                    1.004025       -40.45407
1.344                    1.00696       -41.37108
1.348                   1.008259       -42.35177
1.352                   1.007613        -43.3543
1.356                   1.005038        -44.3326
1.36                    1.000888       -45.24359
1.364                  0.9958089        -46.0543
1.368                  0.9906503        -46.7486
1.372                  0.9863221       -47.33172
1.376                  0.9836339       -47.83159
1.38                   0.9831343       -48.29536
1.384                  0.9849904       -48.78136
1.388                  0.9889369       -49.34774
1.392                  0.9943123       -50.04093
1.396                   1.000169       -50.88677
1.4                     1.005441       -51.88611
1.404                   1.009125       -53.01522
1.408                   1.010452        -54.2299
1.412                   1.009016       -55.47215
1.416                   1.004861       -56.67831
1.42                   0.9984968       -57.78824
1.424                  0.9908489        -58.7551
1.428                   0.983139       -59.55516
1.432                  0.9766945       -60.19555
1.436                  0.9727115       -60.71769
1.44                   0.9720105       -61.19339
1.444                  0.9748448       -61.71271
1.448                  0.9808115       -62.36616
1.452                   0.988899       -63.22608
1.456                  0.9976558       -64.33292
1.46                    1.005438       -65.68919
1.464                   1.010679       -67.26088
1.468                   1.012141       -68.98369
1.472                   1.009111       -70.77189
1.476                   1.001539       -72.52856
1.48                   0.9901016       -74.15694
1.484                  0.9761796       -75.57462
1.488                  0.9617285       -76.73038
1.492                   0.949024        -77.6229
1.496                  0.9402771       -78.31559
1.5                    0.9371655       -78.93943
1.504                  0.9403895       -79.67602
1.508                  0.9493948       -80.72268
1.512                  0.9623634       -82.25174
1.516                  0.9764666       -84.38107
1.52                   0.9882749       -87.16415
1.524                  0.9941897       -90.59739
1.528                  0.9908127        -94.6355
1.532                  0.9752127       -99.20695
1.536                   0.945102        -104.225
1.54                   0.8989382       -109.5929
1.544                  0.8359739       -115.2022
1.548                  0.7562694       -120.9233
1.552                  0.6606862       -126.5794
