! TOUCHSTONE file generated by CST MICROWAVE STUDIO
! Date and time: Thu Jun  9 14:52:34 2022
! Project name: AppElm_antenne_patch_Alumina.cst
! Parameters = {L=30.5; W=41.8; e=0.035; h=1.6; lambda=0.190476; ls=90; w0=1.12; w1=0.373; ws=90; y0=11.2; y1=10}
! Header version: 2018
! Port assignment regex: !\s*Touchstone port\s*([0-9]+)\s*=\s*(CST MWS port|CST DS port)\s*([0-9]+|Zmin|Zmax)\s*\(\"(.*)\"\)(\s*mode\s*([0-9]+))?.*
! Touchstone port assignment:
! Touchstone port 1 = CST MWS port 1 ("")
# GHz S MA R 50
0                      0.9803838              -0
0.004                  0.9814904       -10.38409
0.008                  0.9846598        -20.6557
0.012                  0.9894651       -30.70946
0.016                    0.99527       -40.45264
0.02                    1.001324        -49.8084
0.024                   1.006871       -58.71641
0.028                   1.011246       -67.13181
0.032                   1.013959       -75.02316
0.036                   1.014746       -82.37055
0.04                      1.0136       -89.16422
0.044                   1.010756       -95.40427
0.048                   1.006665        -101.101
0.052                   1.001926       -106.2761
0.056                  0.9972064       -110.9632
0.06                   0.9931526       -115.2082
0.064                   0.990294       -119.0671
0.068                  0.9889701       -122.6031
0.072                  0.9892835       -125.8812
0.076                  0.9910923       -128.9622
0.08                   0.9940422       -131.8975
0.084                  0.9976308       -134.7251
0.088                    1.00129        -137.468
0.092                   1.004477       -140.1344
0.096                   1.006746       -142.7205
0.1                     1.007811       -145.2135
0.104                    1.00758       -147.5963
0.108                   1.006152        -149.851
0.112                   1.003803       -151.9634
0.116                   1.000936       -153.9262
0.12                   0.9980182        -155.741
0.124                  0.9955098       -157.4194
0.128                    0.99379       -158.9821
0.132                  0.9931012       -160.4567
0.136                  0.9935121       -161.8735
0.14                   0.9949131       -163.2615
0.144                  0.9970399       -164.6443
0.148                  0.9995228       -166.0368
0.152                   1.001951       -167.4445
0.156                   1.003939       -168.8629
0.16                    1.005185         -170.28
0.164                   1.005518       -171.6783
0.168                   1.004914       -173.0384
0.172                   1.003502       -174.3423
0.176                   1.001534       -175.5762
0.18                   0.9993466       -176.7332
0.184                  0.9973031       -177.8144
0.188                  0.9957368       -178.8292
0.192                  0.9948947       -179.7936
0.196                   0.994898        179.2719
0.2                    0.9957247        178.3458
0.204                  0.9972162        177.4095
0.208                  0.9991077        176.4497
0.212                   1.001075        175.4604
0.216                   1.002792        174.4438
0.22                    1.003979        173.4089
0.224                   1.004455          172.37
0.228                   1.004154        171.3443
0.232                   1.003144        170.3486
0.236                   1.001606        169.3967
0.24                   0.9998056        168.4974
0.244                  0.9980491        167.6525
0.248                  0.9966316        166.8568
0.252                  0.9957873        166.0985
0.256                  0.9956501        165.3615
0.26                   0.9962319        164.6279
0.264                   0.997422        163.8814
0.268                  0.9990089        163.1095
0.272                   1.000717        162.3061
0.276                   1.002257        161.4721
0.28                     1.00337        160.6145
0.284                   1.003877        159.7458
0.288                   1.003701        158.8811
0.292                   1.002879        158.0361
0.296                    1.00156        157.2242
0.3                    0.9999711        156.4541
0.304                  0.9983868         155.729
0.308                  0.9970776        155.0451
0.312                  0.9962653        154.3927
0.316                  0.9960848        153.7578
0.32                   0.9965609        153.1244
0.324                   0.997605        152.4773
0.328                  0.9990318        151.8049
0.332                   1.000592        151.1011
0.336                   1.002018        150.3662
0.34                    1.003067        149.6063
0.344                   1.003564        148.8327
0.348                   1.003428        148.0597
0.352                   1.002689        147.3019
0.356                   1.001477        146.5723
0.36                    1.000002        145.8794
0.364                  0.9985208        145.2267
0.368                  0.9972886        144.6109
0.372                  0.9965179        144.0233
0.376                  0.9963398        143.4509
0.38                   0.9967821        142.8786
0.384                  0.9977643         142.292
0.388                  0.9991121        141.6802
0.392                    1.00059        141.0371
0.396                   1.001941        140.3629
0.4                     1.002933        139.6636
0.404                   1.003398          138.95
0.408                   1.003257        138.2357
0.412                   1.002538        137.5349
0.416                   1.001367        136.8602
0.42                   0.9999481          136.22
0.424                  0.9985273        135.6172
0.428                  0.9973528         135.049
0.432                  0.9966292        134.5068
0.436                  0.9964816        133.9779
0.44                   0.9969349        133.4476
0.444                  0.9979072        132.9022
0.448                  0.9992268         132.331
0.452                   1.000662        131.7283
0.456                   1.001962        131.0947
0.46                    1.002902        130.4362
0.464                   1.003318        129.7636
0.468                   1.003141        129.0905
0.472                   1.002401        128.4307
0.476                   1.001227        127.7965
0.48                   0.9998249        127.1959
0.484                  0.9984382        126.6315
0.488                  0.9973105        126.1002
0.492                  0.9966399        125.5931
0.496                  0.9965443        125.0975
0.5                    0.9970401        124.5988
0.504                  0.9980394        124.0836
0.508                  0.9993655        123.5415
0.512                   1.000785        122.9676
0.516                   1.002048        122.3627
0.52                    1.002935        121.7333
0.524                   1.003291        121.0906
0.528                   1.003052        120.4483
0.532                   1.002262        119.8201
0.536                   1.001056        119.2181
0.54                   0.9996444        118.6497
0.544                   0.998276        118.1172
0.548                   0.997191        117.6166
0.552                   0.996582        117.1386
0.556                  0.9965572        116.6702
0.56                   0.9971215        116.1966
0.564                  0.9981753        115.7046
0.568                  0.9995326        115.1844
0.572                   1.000954        114.6315
0.576                   1.002188        114.0475
0.58                    1.003019        113.4396
0.584                     1.0033        112.8196
0.588                    1.00298        112.2014
0.592                   1.002115         111.599
0.596                   1.000853        111.0239
0.6                    0.9994155        110.4832
0.604                  0.9980557        109.9785
0.608                  0.9970142        109.5048
0.612                  0.9964769        109.0521
0.616                  0.9965405        108.6068
0.62                   0.9971953        108.1539
0.624                   0.998326        107.6802
0.628                  0.9997325        107.1764
0.632                   1.001166        106.6389
0.636                   1.002374        106.0701
0.64                    1.003141        105.4783
0.644                   1.003332        104.8758
0.648                   1.002911        104.2772
0.652                   1.001949        103.6965
0.656                   1.000612         103.145
0.66                   0.9991358        102.6292
0.664                  0.9977797        102.1495
0.668                  0.9967856        101.7001
0.672                   0.996332          101.27
0.676                  0.9965018        100.8447
0.68                   0.9972671         100.409
0.684                  0.9984929        99.94969
0.688                  0.9999624        99.45811
0.692                   1.001415        98.93153
0.696                   1.002593        98.37356
0.7                     1.003287        97.79351
0.704                   1.003371        97.20474
0.708                   1.002828         96.6223
0.712                    1.00175        96.06045
0.716                   1.000323        95.53015
0.72                   0.9987976        95.03712
0.724                  0.9974444        94.58067
0.728                  0.9965052        94.15376
0.732                    0.99615        93.74408
0.736                  0.9964452        93.33625
0.74                   0.9973409        92.91468
0.744                  0.9986793        92.46633
0.748                   1.000223        91.98321
0.752                   1.001698        91.46362
0.756                   1.002841        90.91256
0.76                    1.003448        90.34065
0.764                   1.003408        89.76233
0.768                   1.002723        89.19335
0.772                   1.001509        88.64813
0.776                  0.9999774        88.13726
0.78                    0.998397         87.6655
0.784                   0.997049        87.23087
0.788                  0.9961754        86.82484
0.792                  0.9959358        86.43368
0.796                   0.996377        86.04098
0.8                    0.9974234        85.63068
0.804                  0.9988904        85.18995
0.808                   1.000517        84.71162
0.812                   1.002014        84.19531
0.816                   1.003114        83.64753
0.82                    1.003618        83.08042
0.824                   1.003432        82.50965
0.828                   1.002583        81.95177
0.832                   1.001214        81.42136
0.836                  0.9995644        80.92849
0.84                    0.997924        80.47685
0.844                  0.9965859        80.06289
0.848                  0.9957916        79.67634
0.852                  0.9956881        79.30189
0.856                  0.9962984        78.92197
0.86                   0.9975174        78.52003
0.864                  0.9991297        78.08352
0.868                   1.000848        77.60627
0.872                   1.002366        77.08942
0.876                   1.003411        76.54124
0.88                    1.003793        75.97562
0.884                   1.003436        75.40959
0.888                   1.002398        74.86058
0.892                   1.000853         74.3433
0.896                  0.9990712        73.86719
0.9                    0.9973669        73.43465
0.904                  0.9960452        73.04033
0.908                   0.995347        72.67194
0.912                  0.9954028        72.31237
0.916                  0.9962085        71.94276
0.92                   0.9976241        71.54605
0.924                  0.9993991        71.11009
0.928                   1.001217        70.62988
0.932                   1.002752        70.10838
0.936                   1.003728        69.55588
0.94                    1.003963        68.98821
0.944                   1.003408        68.42404
0.948                   1.002151        67.88164
0.952                   1.000405        67.37588
0.956                  0.9984745        66.91543
0.96                    0.996702        66.50112
0.964                  0.9954056        66.12552
0.968                  0.9948234        65.77399
0.972                  0.9950667        65.42738
0.976                  0.9960989        65.06537
0.98                   0.9977398         64.6704
0.984                  0.9996986        64.23086
0.988                   1.001625        63.74317
0.992                   1.003173        63.21235
0.996                   1.004061        62.65107
1                       1.004123        62.07739
1.004                   1.003333        61.51175
1.008                   1.001822        60.97349
1.012                  0.9998446        60.47751
1.016                  0.9977466        60.03159
1.02                   0.9959003        59.63472
1.024                  0.9946399        59.27692
1.028                  0.9941985        58.94093
1.032                  0.9946644        58.60515
1.036                  0.9959621        58.24766
1.04                   0.9978649        57.85034
1.044                   1.000034        57.40231
1.048                   1.002083        56.90163
1.052                   1.003639        56.35583
1.056                   1.004419        55.78028
1.06                    1.004271        55.19567
1.064                   1.003204         54.6245
1.068                   1.001393        54.08727
1.072                  0.9991443        53.59899
1.076                  0.9968516        53.16629
1.08                   0.9949233        52.78594
1.084                    0.99371        52.44503
1.088                  0.9934398        52.12306
1.092                  0.9941724        51.79561
1.096                  0.9957863        51.43887
1.1                    0.9979985        51.03416
1.104                   1.000415        50.57137
1.108                   1.002603        50.05069
1.112                   1.004165        49.48252
1.116                   1.004809         48.8855
1.12                    1.004405        48.28342
1.124                   1.003002        47.70124
1.128                   1.000827        47.16088
1.132                   0.998251         46.6775
1.136                  0.9957233        46.25627
1.14                    0.993696        45.89134
1.144                  0.9925408        45.56628
1.148                   0.992479         45.2566
1.152                  0.9935361        44.93438
1.156                  0.9955341        44.57358
1.16                   0.9981222        44.15478
1.164                   1.000839        43.66888
1.168                   1.003194        43.11859
1.172                   1.004758        42.51783
1.176                   1.005233        41.88918
1.18                    1.004509        41.26028
1.184                   1.002684        40.65912
1.188                   1.000054        40.10953
1.192                  0.9970645        39.62675
1.196                  0.9942373        39.21448
1.2                    0.9920802        38.86352
1.204                  0.9909926        38.55291
1.208                  0.9911885         38.2532
1.212                  0.9926515         37.9321
1.216                  0.9951338        37.56048
1.22                   0.9981983        37.11802
1.224                   1.001297        36.59677
1.228                    1.00387        36.00254
1.232                   1.005439        35.35357
1.236                   1.005699        34.67757
1.24                    1.004563        34.00706
1.244                   1.002191        33.37407
1.248                  0.9989625        32.80492
1.252                   0.995422        32.31544
1.256                  0.9921877        31.90743
1.26                   0.9898428        31.56756
1.264                  0.9888272        31.26887
1.268                  0.9893497        30.97531
1.272                  0.9913419        30.64852
1.276                   0.994465        30.25519
1.28                   0.9981685        29.77339
1.284                   1.001788        29.19653
1.288                   1.004664         28.5343
1.292                   1.006255        27.81066
1.296                   1.006231           27.06
1.3                     1.004538        26.32145
1.304                   1.001408        25.63289
1.308                   0.997335        25.02456
1.312                  0.9929992        24.51348
1.316                   0.989155        24.09939
1.32                   0.9864988        23.76342
1.324                  0.9855364        23.47034
1.328                  0.9864793        23.17451
1.332                  0.9891934        22.82856
1.336                  0.9932162        22.39258
1.34                   0.9978366        21.84183
1.344                   1.002221        21.17098
1.348                   1.005558        20.39467
1.352                   1.007202         19.5447
1.356                   1.006778        18.66486
1.36                    1.004258        17.80418
1.364                  0.9999711        17.00956
1.368                  0.9945707        16.31801
1.372                  0.9889384        15.74958
1.376                   0.984044          15.302
1.38                   0.9807725        14.94878
1.384                  0.9797544        14.64207
1.388                  0.9812283        14.32074
1.392                  0.9849792        13.92209
1.396                  0.9903634        13.39434
1.4                    0.9964199        12.70653
1.404                   1.002039        11.85363
1.408                   1.006153        10.85662
1.412                   1.007916        9.758391
1.416                   1.006845         8.61706
1.42                    1.002912        7.497691
1.424                  0.9965677        6.463029
1.428                  0.9887023        5.563556
1.432                  0.9805308         4.82751
1.436                  0.9734074        4.252423
1.44                   0.9685907        3.800784
1.444                  0.9669927        3.402721
1.448                  0.9689733        2.967076
1.452                  0.9742327        2.399031
1.456                  0.9818403         1.61926
1.46                   0.9903902       0.5788641
1.464                  0.9982424      -0.7334351
1.468                   1.003794       -2.291846
1.472                   1.005729       -4.039487
1.476                   1.003226       -5.897149
1.48                   0.9960951       -7.773264
1.484                  0.9848473        -9.57499
1.488                  0.9706865       -11.22121
1.492                  0.9553987       -12.65827
1.496                  0.9411298       -13.87763
1.5                    0.9300439       -14.93145
1.504                  0.9238932       -15.93868
1.508                  0.9235912       -17.07424
1.512                  0.9289147       -18.53997
1.516                  0.9384451       -20.52706
1.52                   0.9497644        -23.1852
1.524                  0.9598276       -26.60954
1.528                  0.9653868       -30.84577
1.532                  0.9633727       -35.90657
1.536                  0.9511906       -41.79177
1.54                   0.9269319       -48.50827
1.544                  0.8895243       -56.08948
1.548                  0.8388552       -64.61705
1.552                  0.7759048       -74.25009
