! TOUCHSTONE file generated by CST MICROWAVE STUDIO
! Date and time: Thu Jun  9 14:52:37 2022
! Project name: AppElm_antenne_patch_Alumina.cst
! Parameters = {L=30.5; W=41.8; e=0.035; h=1.6; lambda=0.190476; ls=90; w0=1.12; w1=0.373; ws=90; y0=13.3; y1=10}
! Header version: 2018
! Port assignment regex: !\s*Touchstone port\s*([0-9]+)\s*=\s*(CST MWS port|CST DS port)\s*([0-9]+|Zmin|Zmax)\s*\(\"(.*)\"\)(\s*mode\s*([0-9]+))?.*
! Touchstone port assignment:
! Touchstone port 1 = CST MWS port 1 ("")
# GHz S MA R 50
0                      0.9793845              -0
0.004                  0.9805146       -10.36738
0.008                  0.9837556       -20.62441
0.012                  0.9886826       -30.66767
0.016                  0.9946603       -40.40615
0.02                    1.000937       -49.76434
0.024                   1.006746       -58.68289
0.028                   1.011409       -67.11749
0.032                   1.014412       -75.03685
0.036                   1.015461       -82.42067
0.04                    1.014517       -89.25826
0.044                   1.011783        -95.5481
0.048                   1.007686       -101.2983
0.052                   1.002811       -106.5277
0.056                  0.9978346       -111.2668
0.06                   0.9934259       -115.5585
0.064                  0.9901585       -119.4564
0.068                  0.9884291       -123.0227
0.072                  0.9884018       -126.3224
0.076                  0.9899892       -129.4185
0.08                   0.9928754       -132.3654
0.084                  0.9965721        -135.205
0.088                   1.000499        -137.964
0.092                   1.004073       -140.6538
0.096                   1.006793       -143.2726
0.1                     1.008306       -145.8084
0.104                   1.008447       -148.2429
0.108                   1.007257       -150.5564
0.112                   1.004972       -152.7312
0.116                   1.001981       -154.7559
0.12                   0.9987657       -156.6277
0.124                  0.9958324       -158.3547
0.128                  0.9936293       -159.9551
0.132                  0.9924785       -161.4556
0.136                  0.9925281       -162.8882
0.14                   0.9937305       -164.2849
0.144                  0.9958561       -165.6738
0.148                  0.9985362       -167.0748
0.152                   1.001327       -168.4976
0.156                   1.003781       -169.9411
0.16                     1.00552       -171.3945
0.164                    1.00629       -172.8399
0.168                   1.005994        -174.256
0.172                   1.004708        -175.621
0.176                    1.00266       -176.9166
0.18                    1.000198       -178.1311
0.184                  0.9977312       -179.2615
0.188                  0.9956645        179.6859
0.192                   0.994331         178.696
0.196                  0.9939384        177.7471
0.2                    0.9945348        176.8145
0.204                  0.9960023        175.8749
0.208                  0.9980806        174.9098
0.212                   1.000413        173.9085
0.216                   1.002608        172.8696
0.22                    1.004307        171.8005
0.224                   1.005237         170.716
0.228                   1.005257        169.6353
0.232                   1.004376        168.5792
0.236                   1.002754        167.5663
0.24                    1.000668        166.6104
0.244                   0.998474        165.7178
0.248                  0.9965415         164.886
0.252                  0.9951957        164.1044
0.256                  0.9946598        163.3554
0.26                    0.995017        162.6177
0.264                  0.9961973          161.87
0.268                  0.9979905        161.0945
0.272                   1.000085        160.2803
0.276                   1.002122        159.4245
0.28                    1.003757        158.5328
0.284                   1.004719        157.6183
0.288                   1.004851        156.6985
0.292                   1.004137        155.7935
0.296                   1.002705        154.9214
0.3                     1.000801        154.0964
0.304                  0.9987531        153.3259
0.308                   0.996913        152.6088
0.312                  0.9955968        151.9363
0.316                  0.9950297        151.2924
0.32                   0.9953063        150.6575
0.324                  0.9963741        150.0112
0.328                  0.9980436        149.3363
0.332                   1.000023        148.6218
0.336                   1.001968        147.8646
0.34                    1.003546        147.0696
0.344                   1.004488        146.2492
0.348                   1.004636        145.4205
0.352                   1.003967        144.6027
0.356                   1.002599         143.814
0.36                    1.000769        143.0683
0.364                  0.9987938        142.3731
0.368                  0.9970159        141.7278
0.372                  0.9957452        141.1239
0.376                  0.9952036         140.546
0.38                   0.9954848         139.975
0.384                  0.9965374        139.3909
0.388                  0.9981751         138.777
0.392                    1.00011        138.1226
0.396                   1.002004        137.4248
0.4                     1.003529        136.6887
0.404                   1.004421        135.9266
0.408                   1.004528        135.1557
0.412                   1.003831         134.395
0.416                   1.002452        133.6625
0.42                     1.00063        132.9719
0.424                  0.9986824        132.3302
0.428                  0.9969496        131.7367
0.432                  0.9957369        131.1823
0.436                  0.9952583        130.6516
0.44                    0.995599        130.1253
0.444                  0.9966987        129.5836
0.448                  0.9983624        129.0103
0.452                   1.000297        128.3952
0.456                   1.002162        127.7359
0.46                    1.003632        127.0383
0.464                    1.00445        126.3153
0.468                   1.004474        125.5843
0.472                   1.003699        124.8647
0.476                   1.002257        124.1742
0.48                    1.000401        123.5261
0.484                  0.9984545        122.9269
0.488                    0.99676        122.3747
0.492                  0.9956184        121.8598
0.496                  0.9952337        121.3662
0.5                    0.9956757        120.8739
0.504                  0.9968668        120.3633
0.508                   0.998596        119.8185
0.512                   1.000557        119.2301
0.516                   1.002405        118.5968
0.52                    1.003813        117.9256
0.524                   1.004535        117.2301
0.528                   1.004443        116.5287
0.532                    1.00355        115.8409
0.536                    1.00201        115.1844
0.54                    1.000092        114.5718
0.544                   0.998132        114.0087
0.548                  0.9964774        113.4921
0.552                  0.9954239         113.011
0.556                  0.9951613        112.5481
0.56                   0.9957391         112.083
0.564                  0.9970559        111.5961
0.568                  0.9988785        111.0718
0.572                   1.000883        110.5018
0.576                   1.002715         109.886
0.58                    1.004051         109.233
0.584                   1.004653        108.5576
0.588                   1.004413         107.879
0.592                   1.003371        107.2173
0.596                   1.001705          106.59
0.6                    0.9997068        106.0089
0.604                   0.997728        105.4783
0.608                  0.9961214        104.9937
0.612                   0.995176        104.5425
0.616                  0.9950639        104.1061
0.62                   0.9958089        103.6633
0.624                    0.99728        103.1943
0.628                  0.9992161        102.6844
0.632                   1.001273        102.1263
0.636                   1.003085        101.5219
0.64                    1.004331        100.8811
0.644                   1.004788        100.2204
0.648                   1.004373        99.56024
0.652                   1.003152        98.92087
0.656                   1.001338        98.31963
0.66                   0.9992477        97.76747
0.664                  0.9972511        97.26709
0.668                  0.9957058        96.81207
0.672                  0.9948919        96.38794
0.676                  0.9949596        95.97455
0.68                   0.9959008        95.54993
0.684                  0.9975503        95.09422
0.688                  0.9996142        94.59349
0.692                   1.001725        94.04215
0.696                   1.003507        93.44384
0.7                     1.004643        92.81057
0.704                   1.004927        92.16065
0.708                   1.004305        91.51545
0.712                    1.00288        90.89589
0.716                   1.000899         90.3188
0.72                   0.9987103        89.79397
0.724                  0.9967021        89.32222
0.728                  0.9952364        88.89498
0.732                  0.9945806        88.49556
0.736                  0.9948583        88.10218
0.74                   0.9960243        87.69192
0.744                  0.9978729        87.24509
0.748                   1.000075        86.74883
0.752                   1.002236        86.19941
0.756                   1.003973        85.60269
0.76                    1.004972        84.97296
0.764                   1.005052        84.33042
0.768                   1.004193        83.69768
0.772                   1.002538        83.09606
0.776                   1.000375        82.54181
0.78                   0.9980839        82.04329
0.784                   0.996075        81.59908
0.788                  0.9947113        81.19809
0.792                  0.9942441        80.82126
0.796                  0.9947638        80.44491
0.8                    0.9961826        80.04529
0.804                  0.9982491        79.60302
0.808                   1.000594        79.10663
0.812                   1.002799        78.55453
0.816                   1.004469        77.95517
0.82                    1.005302        77.32535
0.824                   1.005144        76.68732
0.828                   1.004014        76.06503
0.832                   1.002104        75.48002
0.836                   0.999745        74.94782
0.84                   0.9973543        74.47496
0.844                  0.9953606         74.0575
0.848                  0.9941272        73.68144
0.852                  0.9938836        73.32503
0.856                  0.9946816        72.96269
0.86                   0.9963836        72.56985
0.864                  0.9986874        72.12768
0.868                   1.001181        71.62637
0.872                   1.003418        71.06693
0.876                   1.004996        70.46068
0.88                    1.005629        69.82722
0.884                   1.005196        69.19101
0.888                   1.003762         68.5773
0.892                    1.00157        68.00785
0.896                  0.9990037        67.49711
0.9                    0.9965173        67.04946
0.904                  0.9945594        66.65804
0.908                  0.9934893        66.30554
0.912                  0.9935096        65.96726
0.916                   0.994626        65.61559
0.92                   0.9966437        65.22531
0.924                  0.9992038        64.77834
0.928                   1.001848        64.26698
0.932                   1.004103        63.69516
0.936                    1.00556        63.07751
0.94                    1.005954        62.43668
0.944                   1.005201        61.79953
0.948                   1.003422        61.19265
0.952                    1.00092         60.6378
0.956                  0.9981328        60.14813
0.96                    0.995556        59.72546
0.964                  0.9936573        59.35946
0.968                  0.9927884        59.02915
0.972                  0.9931181        58.70655
0.976                  0.9945973        58.36194
0.98                   0.9969669        57.96953
0.984                  0.9998042        57.51234
0.988                   1.002601        56.98522
0.992                   1.004854        56.39547
0.996                   1.006155        55.76144
1                       1.006262        55.10918
1.004                   1.005138        54.46813
1.008                   1.002967        53.86621
1.012                    1.00012        53.32514
1.016                   0.997095        52.85636
1.02                   0.9944333        52.45863
1.024                   0.992621        52.11765
1.028                  0.9919978         51.8082
1.032                  0.9926908        51.49865
1.036                  0.9945867        51.15708
1.04                    0.997352        50.75724
1.044                   1.000493        50.28366
1.048                   1.003445        49.73414
1.052                   1.005678        49.11997
1.056                   1.006781        48.46367
1.06                    1.006544        47.79513
1.064                   1.004988        47.14664
1.068                   1.002367        46.54756
1.072                  0.9991292        46.01933
1.076                  0.9958443        45.57137
1.08                    0.993102        45.19881
1.084                  0.9914077        44.88263
1.088                  0.9910841        44.59271
1.092                  0.9922073        44.29336
1.096                  0.9945886        43.95017
1.1                    0.9978076        43.53663
1.104                   1.001289        43.03911
1.108                   1.004407        42.45902
1.112                   1.006597        41.81224
1.116                   1.007455        41.12618
1.12                    1.006805        40.43506
1.124                   1.004736         39.7744
1.128                   1.001587        39.17519
1.132                   0.997897        38.65855
1.136                  0.9943166         38.2314
1.14                   0.9914931        37.88445
1.144                  0.9899519         37.5931
1.148                   0.989994        37.32148
1.152                   0.991634        37.02901
1.156                  0.9945925         36.6786
1.16                   0.9983458        36.24343
1.164                   1.002223        35.71226
1.168                   1.005525         35.0908
1.172                   1.007652         34.4004
1.176                   1.008204        33.67413
1.18                     1.00705        32.95144
1.184                   1.004357        32.27176
1.188                   1.000567        31.66802
1.192                  0.9963298        31.16095
1.196                  0.9923931        30.75445
1.2                    0.9894743          30.434
1.204                  0.9881243        30.16806
1.208                  0.9886175        29.91359
1.212                   0.990893        29.62419
1.216                  0.9945601        29.25921
1.22                   0.9989693         28.7918
1.224                   1.003331        28.21345
1.228                   1.006859        27.53513
1.232                   1.008904        26.78479
1.236                   1.009071         26.0026
1.24                    1.007282        25.23437
1.244                   1.003801        24.52455
1.248                   0.999196        23.90871
1.252                  0.9942543        23.40743
1.256                  0.9898517        23.02106
1.26                   0.9867976        22.72835
1.264                   0.985679        22.48899
1.268                  0.9867407        22.25063
1.272                  0.9898277        21.95906
1.276                  0.9944086        21.56911
1.28                   0.9996713        21.05336
1.284                   1.004673        20.40677
1.288                   1.008507        19.64679
1.292                   1.010459        18.80983
1.296                   1.010129        17.94504
1.3                     1.007503        17.10683
1.304                   1.002964        16.34651
1.308                  0.9972441        15.70401
1.312                  0.9913169        15.20019
1.316                  0.9862354        14.83134
1.32                   0.9829436        14.56754
1.324                  0.9820913        14.35639
1.328                  0.9838939        14.13236
1.332                  0.9880774        13.82996
1.336                  0.9939205        13.39702
1.34                    1.000387         12.8047
1.344                   1.006316          12.052
1.348                   1.010623         11.1648
1.352                   1.012485         10.1907
1.356                   1.011479        9.191413
1.36                    1.007657        8.233729
1.364                   1.001558         7.37982
1.368                  0.9941419        6.677166
1.372                  0.9866543        6.149031
1.376                  0.9804247        5.787232
1.38                   0.9766236        5.549845
1.384                  0.9760264        5.366261
1.388                  0.9788364        5.150039
1.392                  0.9846223        4.816739
1.396                  0.9923866         4.30151
1.4                      1.00075        3.571341
1.404                   1.008198        2.629559
1.408                   1.013346        1.513266
1.412                    1.01516       0.2861258
1.416                   1.013129      -0.9711968
1.42                    1.007356       -2.171731
1.424                  0.9985839       -3.233844
1.428                  0.9881133       -4.094023
1.432                  0.9776422       -4.720239
1.436                  0.9690013       -5.123566
1.44                   0.9638209       -5.363626
1.444                  0.9631875       -5.542987
1.448                  0.9673765        -5.78863
1.452                   0.975751       -6.224719
1.456                  0.9868596       -6.945882
1.46                   0.9987039       -7.999766
1.464                   1.009092       -9.382225
1.468                   1.015997       -11.04263
1.472                   1.017864        -12.8944
1.476                   1.013844       -14.82688
1.48                    1.003936       -16.71723
1.484                   0.989061       -18.44338
1.488                  0.9710268       -19.90015
1.492                  0.9523706       -21.02083
1.496                  0.9360402       -21.80269
1.5                    0.9248955       -22.32946
1.504                  0.9210871       -22.77674
1.508                  0.9254701       -23.38792
1.512                  0.9372696       -24.42281
1.516                  0.9541404       -26.10098
1.52                   0.9725769       -28.56582
1.524                  0.9884893       -31.88019
1.528                  0.9977549        -36.0449
1.532                  0.9966418       -41.02568
1.536                  0.9820885       -46.77819
1.54                   0.9518749       -53.26857
1.544                  0.9047164       -60.49155
1.548                  0.8403234       -68.49205
1.552                  0.7594595       -77.40009
