! TOUCHSTONE file generated by CST MICROWAVE STUDIO
! Date and time: Thu Jun  9 14:52:41 2022
! Project name: AppElm_antenne_patch_Alumina.cst
! Parameters = {L=30.5; W=41.8; e=0.035; h=1.6; lambda=0.190476; ls=90; w0=1.12; w1=0.373; ws=90; y0=16.8; y1=10}
! Header version: 2018
! Port assignment regex: !\s*Touchstone port\s*([0-9]+)\s*=\s*(CST MWS port|CST DS port)\s*([0-9]+|Zmin|Zmax)\s*\(\"(.*)\"\)(\s*mode\s*([0-9]+))?.*
! Touchstone port assignment:
! Touchstone port 1 = CST MWS port 1 ("")
# GHz S MA R 50
0                      0.9837112              -0
0.004                  0.9846922       -10.42673
0.008                  0.9874934       -20.74118
0.012                  0.9917142        -30.8379
0.016                  0.9967605       -40.62369
0.02                    1.001938       -50.02083
0.024                   1.006557       -58.96794
0.028                   1.010028       -67.41917
0.032                    1.01194       -75.34262
0.036                   1.012106        -82.7187
0.04                    1.010587       -89.53917
0.044                    1.00767       -95.80692
0.048                   1.003829       -101.5365
0.052                  0.9996528       -106.7544
0.056                  0.9957599       -111.4999
0.06                   0.9927052       -115.8232
0.064                  0.9908971       -119.7831
0.068                  0.9905378       -123.4428
0.072                  0.9915964       -126.8638
0.076                  0.9938245       -130.1007
0.08                   0.9968058       -133.1966
0.084                   1.000031       -136.1806
0.088                   1.002983       -139.0674
0.092                   1.005217        -141.859
0.096                   1.006426       -144.5478
0.1                     1.006476       -147.1202
0.104                   1.005423       -149.5615
0.108                   1.003493       -151.8593
0.112                    1.00104        -154.007
0.116                  0.9984906       -156.0064
0.12                   0.9962694       -157.8686
0.124                  0.9947311       -159.6129
0.128                   0.994104       -161.2654
0.132                  0.9944551       -162.8545
0.136                  0.9956846       -164.4075
0.14                   0.9975492       -165.9464
0.144                  0.9997094       -167.4852
0.148                   1.001791       -169.0288
0.152                   1.003449       -170.5731
0.156                   1.004422       -172.1068
0.16                    1.004574       -173.6141
0.164                   1.003909       -175.0778
0.168                   1.002567       -176.4826
0.172                   1.000798       -177.8177
0.176                  0.9989167       -179.0788
0.18                   0.9972492        179.7305
0.184                  0.9960766        178.5995
0.188                  0.9955878         177.512
0.192                  0.9958489        176.4486
0.196                  0.9967944        175.3906
0.2                    0.9982419        174.3225
0.204                  0.9999279        173.2347
0.208                   1.001556        172.1248
0.212                   1.002847        170.9972
0.216                   1.003588        169.8624
0.22                    1.003665        168.7345
0.224                   1.003082        167.6287
0.228                   1.001951         166.559
0.232                   1.000482         165.535
0.236                  0.9989346        164.5613
0.24                   0.9975809        163.6354
0.244                   0.996654         162.749
0.248                  0.9963091        161.8889
0.252                  0.9965966        161.0396
0.256                  0.9974554        160.1858
0.26                   0.9987249        159.3151
0.264                   1.000176        158.4202
0.268                   1.001552        157.4997
0.272                   1.002615        156.5586
0.276                   1.003185        155.6065
0.28                     1.00317        154.6563
0.284                   1.002581         153.722
0.288                   1.001529        152.8157
0.292                   1.000202        151.9461
0.296                  0.9988358        151.1168
0.3                    0.9976712        150.3253
0.304                  0.9969113         149.564
0.308                  0.9966858        148.8209
0.312                  0.9970287         148.082
0.316                  0.9978737        147.3339
0.32                   0.9990662        146.5661
0.324                   1.000392        145.7727
0.328                   1.001618        144.9534
0.332                   1.002528        144.1133
0.336                   1.002968        143.2621
0.34                    1.002863         142.412
0.344                   1.002237         141.576
0.348                   1.001203        140.7652
0.352                  0.9999443        139.9872
0.356                  0.9986851        139.2447
0.36                   0.9976477        138.5348
0.364                  0.9970145        137.8498
0.368                  0.9968959        137.1779
0.372                  0.9973103        136.5062
0.376                  0.9981814        135.8222
0.38                   0.9993527        135.1166
0.384                   1.000615        134.3847
0.388                   1.001746        133.6269
0.392                   1.002547        132.8491
0.396                   1.002878         132.061
0.4                     1.002684        131.2747
0.404                   1.001999        130.5026
0.408                   1.000947        129.7551
0.412                  0.9997125        129.0389
0.416                  0.9985145        128.3557
0.42                   0.9975655        127.7022
0.424                  0.9970333        127.0699
0.428                  0.9970125        126.4474
0.432                  0.9975054        125.8217
0.436                  0.9984237        125.1813
0.44                   0.9996031        124.5175
0.444                   1.000834        123.8267
0.448                   1.001898        123.1102
0.452                   1.002608        122.3745
0.456                   1.002839        121.6298
0.46                     1.00255        120.8883
0.464                    1.00179         120.162
0.468                   1.000695        119.4609
0.472                  0.9994563        118.7908
0.476                  0.9982939        118.1527
0.48                    0.997414        117.5422
0.484                  0.9969741        116.9504
0.488                  0.9970534        116.3653
0.492                  0.9976382        115.7742
0.496                  0.9986251        115.1657
0.5                    0.9998386         114.532
0.504                   1.001063        113.8703
0.508                   1.002083         113.183
0.512                   1.002716        112.4774
0.516                    1.00285        111.7642
0.52                     1.00246        111.0559
0.524                   1.001614        110.3646
0.528                   1.000458        109.6997
0.532                  0.9991975        109.0664
0.536                  0.9980549        108.4646
0.54                   0.9972344         107.889
0.544                  0.9968839        107.3299
0.548                  0.9970676        106.7747
0.552                  0.9977547        106.2105
0.556                  0.9988239        105.6262
0.56                    1.000086        105.0148
0.564                   1.001316        104.3742
0.568                   1.002296        103.7079
0.572                   1.002851        103.0242
0.576                    1.00288        102.3347
0.58                    1.002376        101.6523
0.584                   1.001424        100.9891
0.588                    1.00019        100.3541
0.592                  0.9988916        99.75177
0.596                  0.9977581        99.18102
0.6                    0.9969932         98.6354
0.604                  0.9967357        98.10408
0.608                  0.9970344        97.57383
0.612                  0.9978385         97.0314
0.616                  0.9990067        96.46593
0.62                    1.000332        95.87095
0.624                   1.001579         95.2455
0.628                   1.002526        94.59422
0.632                   1.003002        93.92653
0.636                    1.00292        93.25499
0.64                    1.002291        92.59307
0.644                   1.001222        91.95299
0.648                  0.9998983        91.34338
0.652                  0.9985539        90.76787
0.656                  0.9974279        90.22421
0.66                   0.9967236        89.70465
0.664                  0.9965699        89.19718
0.668                  0.9969985        88.68765
0.672                  0.9979361        88.16242
0.676                  0.9992181        87.61085
0.68                    1.000618        87.02716
0.684                   1.001885        86.41152
0.688                   1.002794        85.76995
0.692                    1.00318        85.11313
0.696                    1.00297        84.45477
0.7                     1.002196        83.80904
0.704                   1.000989        83.18827
0.708                  0.9995585        82.60071
0.712                  0.9981574        82.04902
0.716                  0.9970355        81.52968
0.72                   0.9963958        81.03339
0.724                  0.9963571        80.54674
0.728                   0.996931        80.05458
0.732                  0.9980188        79.54283
0.736                  0.9994292          79.001
0.74                    1.000912        78.42417
0.744                   1.002203         77.8138
0.748                    1.00307        77.17739
0.752                   1.003355        76.52721
0.756                   1.003001        75.87814
0.76                    1.002064        75.24514
0.764                   1.000704        74.64073
0.768                  0.9991581        74.07263
0.772                   0.997699        73.54245
0.776                  0.9965887        73.04506
0.78                     0.99603         72.5695
0.784                  0.9961288        72.10074
0.788                  0.9968735        71.62249
0.792                  0.9981361        71.12015
0.796                  0.9996945        70.58355
0.8                     1.001272        70.00874
0.804                   1.002587        69.39864
0.808                   1.003403        68.76253
0.812                   1.003569        68.11441
0.816                   1.003048        67.47056
0.82                    1.001925         66.8468
0.824                   1.000389        66.25579
0.828                  0.9987102        65.70473
0.832                  0.9971853        65.19386
0.836                  0.9960891        64.71632
0.84                   0.9956232        64.25914
0.844                   0.995878        63.80548
0.848                  0.9968149        63.33779
0.852                  0.9982718        62.84097
0.856                  0.9999919        62.30518
0.86                    1.001669        61.72768
0.864                   1.003003        61.11309
0.868                   1.003752        60.47273
0.872                   1.003776        59.82254
0.876                   1.003059        59.18037
0.88                    1.001719        58.56298
0.884                  0.9999851        57.98319
0.888                  0.9981594        57.44739
0.892                   0.996567        56.95436
0.896                  0.9954962         56.4951
0.9                    0.9951463        56.05434
0.904                  0.9955887        55.61321
0.908                  0.9967529        55.15271
0.912                  0.9984367        54.65723
0.916                   1.000344        54.11744
0.92                    1.002134        53.53194
0.924                   1.003487        52.90748
0.928                   1.004156        52.25763
0.932                   1.004012         51.6006
0.936                   1.003069        50.95599
0.94                    1.001481        50.34165
0.944                  0.9995201        49.77045
0.948                  0.9975298        49.24792
0.952                  0.9958652        48.77097
0.956                  0.9948295        48.32821
0.96                    0.994618        47.90167
0.964                  0.9952791        47.47014
0.968                  0.9967042        47.01302
0.972                  0.9986456        46.51418
0.976                    1.00076        45.96498
0.98                     1.00267        45.36569
0.984                   1.004032        44.72543
0.988                   1.004594        44.06052
0.992                   1.004244        43.39167
0.996                   1.003029        42.74059
1                       1.001146        42.12625
1.004                  0.9989201         41.5616
1.008                  0.9967396        41.05105
1.012                  0.9949958        40.58935
1.016                  0.9940082        40.16215
1.02                   0.9939662        39.74837
1.024                  0.9948906        39.32405
1.028                  0.9966274        38.86675
1.032                   0.998874        38.35982
1.036                   1.001233        37.79543
1.04                    1.003284        37.17588
1.044                   1.004655         36.5131
1.048                   1.005093         35.8266
1.052                   1.004501         35.1401
1.056                   1.002967        34.47766
1.06                    1.000742        33.85963
1.064                   0.998208        33.29901
1.068                  0.9958112        32.79886
1.072                  0.9939829        32.35132
1.076                  0.9930621        31.93853
1.08                   0.9932307        31.53569
1.084                  0.9944749        31.11553
1.088                  0.9965864        30.65352
1.092                   0.999197        30.13241
1.096                   1.001845        29.54544
1.1                     1.004057        28.89732
1.104                   1.005431        28.20343
1.108                   1.005708        27.48704
1.112                   1.004815        26.77548
1.116                   1.002885        26.09569
1.12                    1.000236        25.46969
1.124                  0.9973214        24.91058
1.128                  0.9946542        24.41983
1.132                  0.9927172        23.98636
1.136                  0.9918733        23.58808
1.14                    0.992295        23.19556
1.144                  0.9939282        22.77747
1.148                  0.9964972        22.30668
1.152                   0.999554        21.76521
1.156                   1.002558        21.14749
1.16                     1.00497         20.4613
1.164                   1.006351         19.7261
1.168                   1.006432         18.9698
1.172                    1.00517        18.22416
1.176                   1.002753        17.51978
1.18                    0.999579         16.8808
1.184                  0.9961908        16.32062
1.188                  0.9931873        15.83879
1.192                  0.9911166        15.42029
1.196                  0.9903738        15.03761
1.2                    0.9911217        14.65542
1.204                   0.993255         14.2373
1.208                  0.9964147        13.75258
1.212                   1.000051        13.18227
1.216                   1.003521        12.52238
1.22                    1.006202        11.78429
1.224                   1.007602        10.99268
1.228                    1.00744        10.18137
1.232                   1.005703        9.387936
1.236                   1.002649         8.64776
1.24                   0.9987772        7.988123
1.244                  0.9947482        7.423073
1.248                  0.9912752        6.950003
1.252                  0.9889967        6.548954
1.256                  0.9883555        6.185314
1.26                   0.9895081         5.81586
1.264                  0.9922865           5.397
1.268                  0.9962229        4.893264
1.272                   1.000633        4.284003
1.276                   1.004736        3.566911
1.28                    1.007794        2.758044
1.284                   1.009236        1.888833
1.288                   1.008759        1.000952
1.292                   1.006381       0.1399131
1.296                   1.002451      -0.6519693
1.3                    0.9976014       -1.342604
1.304                  0.9926559       -1.916326
1.308                  0.9884915       -2.378123
1.312                  0.9858834        -2.75451
1.316                  0.9853533       -3.090026
1.32                   0.9870601       -3.439388
1.324                  0.9907558       -3.856848
1.328                  0.9958236       -4.385447
1.332                   1.001387       -5.048879
1.336                   1.006463       -5.847624
1.34                    1.010136       -6.759498
1.344                   1.011711       -7.743757
1.348                    1.01083       -8.747489
1.352                   1.007544       -9.713369
1.356                   1.002314       -10.58814
1.36                   0.9959645       -11.33131
1.364                  0.9895623       -11.92321
1.368                  0.9842442       -12.37088
1.372                  0.9810143       -12.70983
1.376                  0.9805444       -12.99967
1.38                   0.9830246       -13.31361
1.384                   0.988105       -13.72385
1.388                  0.9949471       -14.28685
1.392                   1.002372       -15.03265
1.396                   1.009069       -15.96027
1.4                     1.013816       -17.03912
1.404                   1.015686       -18.21456
1.408                   1.014195       -19.41607
1.412                   1.009399       -20.56669
1.416                   1.001912       -21.59346
1.42                   0.9928508       -22.43874
1.424                  0.9836948       -23.07197
1.428                   0.976059       -23.49959
1.432                   0.971409       -23.76999
1.436                   0.970761       -23.96932
1.44                    0.974441       -24.20657
1.444                  0.9819767       -24.59107
1.448                   0.992158       -25.20913
1.452                    1.00325       -26.10753
1.456                   1.013292       -27.28724
1.46                    1.020425        -28.7062
1.464                   1.023173       -30.28758
1.468                   1.020674       -31.93017
1.472                   1.012836       -33.51937
1.476                   1.000411        -34.9393
1.48                   0.9849886       -36.08776
1.484                  0.9688633       -36.89558
1.488                  0.9547632       -37.34931
1.492                  0.9454095       -37.51145
1.496                  0.9429549       -37.52668
1.5                    0.9484295       -37.60296
1.504                  0.9613845       -37.96758
1.508                  0.9798732       -38.81537
1.512                   1.000767       -40.27127
1.516                    1.02026        -42.3796
1.52                    1.034383       -45.11468
1.524                   1.039435       -48.40002
1.528                   1.032279        -52.1256
1.532                   1.010537       -56.15759
1.536                  0.9727169       -60.33907
1.54                   0.9182981       -64.48041
1.544                  0.8478184       -68.33589
1.548                  0.7630106       -71.55765
1.552                  0.6670924        -73.6083
