! TOUCHSTONE file generated by CST MICROWAVE STUDIO
! Date and time: Thu Jun  9 14:52:33 2022
! Project name: AppElm_antenne_patch_Alumina.cst
! Parameters = {L=30.5; W=41.8; e=0.035; h=1.6; lambda=0.190476; ls=90; w0=1.12; w1=0.373; ws=90; y0=10.5; y1=10}
! Header version: 2018
! Port assignment regex: !\s*Touchstone port\s*([0-9]+)\s*=\s*(CST MWS port|CST DS port)\s*([0-9]+|Zmin|Zmax)\s*\(\"(.*)\"\)(\s*mode\s*([0-9]+))?.*
! Touchstone port assignment:
! Touchstone port 1 = CST MWS port 1 ("")
# GHz S MA R 50
0                      0.9803663              -0
0.004                  0.9814738       -10.38506
0.008                  0.9846451       -20.65722
0.012                  0.9894519        -30.7107
0.016                  0.9952554       -40.45246
0.02                    1.001304        -49.8054
0.024                   1.006838       -58.70906
0.028                   1.011194        -67.1185
0.032                   1.013883       -75.00225
0.036                   1.014644       -82.34043
0.04                    1.013472       -89.12343
0.044                   1.010609       -95.35149
0.048                   1.006508       -101.0352
0.052                   1.001772       -106.1966
0.056                  0.9970722       -110.8698
0.06                   0.9930519       -115.1009
0.064                  0.9902384       -118.9467
0.068                  0.9889651       -122.4705
0.072                  0.9893274       -125.7373
0.076                  0.9911765       -128.8081
0.08                   0.9941517       -131.7339
0.084                  0.9977459       -134.5523
0.088                   1.001391       -137.2859
0.092                   1.004545       -139.9426
0.096                   1.006768        -142.518
0.1                     1.007782       -144.9993
0.104                     1.0075       -147.3692
0.108                   1.006032         -149.61
0.112                   1.003661       -151.7078
0.116                   1.000792       -153.6556
0.12                    0.997896       -155.4557
0.124                  0.9954283       -157.1201
0.128                   0.993763         -158.67
0.132                  0.9931331       -160.1332
0.136                  0.9935982       -161.5399
0.14                   0.9950391       -162.9191
0.144                  0.9971849       -164.2937
0.148                  0.9996626       -165.6784
0.152                   1.002062       -167.0778
0.156                   1.004002       -168.4871
0.16                    1.005189       -169.8939
0.164                   1.005461       -171.2805
0.168                   1.004805       -172.6277
0.172                   1.003358       -173.9176
0.176                   1.001377       -175.1369
0.18                   0.9992029       -176.2794
0.184                  0.9971963       -177.3467
0.188                  0.9956846       -178.3486
0.192                  0.9949054       -179.3017
0.196                  0.9949695        179.7735
0.2                     0.995844        178.8559
0.204                   0.997362         177.927
0.208                  0.9992541        176.9743
0.212                   1.001196        175.9924
0.216                   1.002865         174.984
0.22                    1.003992        173.9586
0.224                   1.004402        172.9307
0.228                   1.004044        171.9174
0.232                   1.002994        170.9352
0.236                   1.001439        169.9976
0.24                   0.9996502        169.1126
0.244                   0.997931        168.2814
0.248                  0.9965708        167.4983
0.252                   0.995794        166.7511
0.256                  0.9957231        166.0235
0.26                   0.9963583        165.2978
0.264                    0.99758         164.558
0.268                  0.9991705        163.7925
0.272                   1.000854        162.9958
0.276                   1.002345        162.1692
0.28                    1.003395        161.3204
0.284                   1.003833        160.4621
0.288                   1.003594        159.6094
0.292                   1.002729        158.7776
0.296                   1.001391        157.9796
0.3                     0.999814        157.2237
0.304                  0.9982688        156.5121
0.308                  0.9970198        155.8404
0.312                   0.996279        155.1987
0.316                  0.9961686        154.5726
0.32                    0.996701        153.9464
0.324                  0.9977778        153.3055
0.328                  0.9992077        152.6388
0.332                   1.000741        151.9409
0.336                   1.002114        151.2128
0.34                    1.003093        150.4613
0.344                   1.003516        149.6977
0.348                   1.003314        148.9364
0.352                   1.002528        148.1917
0.356                   1.001296        147.4759
0.36                   0.9998336         146.797
0.364                   0.998394        146.1575
0.368                   0.997226        145.5537
0.372                   0.996531        144.9764
0.376                  0.9964266        144.4123
0.38                   0.9969276        143.8466
0.384                  0.9979425        143.2656
0.388                  0.9992914        142.6587
0.392                   1.000738         142.021
0.396                   1.002031        141.3532
0.4                     1.002948        140.6619
0.404                   1.003334        139.9581
0.408                   1.003124        139.2554
0.412                   1.002357        138.5678
0.416                   1.001169        137.9069
0.42                   0.9997661        137.2805
0.424                  0.9983937        136.6908
0.428                  0.9972906        136.1343
0.432                  0.9966494        135.6017
0.436                  0.9965811        135.0805
0.44                   0.9970959        134.5561
0.444                  0.9981012        134.0154
0.448                  0.9994196        133.4485
0.452                   1.000819        132.8506
0.456                   1.002055        132.2229
0.46                    1.002914        131.5722
0.464                   1.003247        130.9092
0.468                   1.002997        130.2477
0.472                   1.002211         129.601
0.476                   1.001024        128.9805
0.48                   0.9996437        128.3936
0.484                  0.9983129        127.8421
0.488                  0.9972645        127.3219
0.492                  0.9966831        126.8238
0.496                  0.9966705         126.335
0.5                    0.9972287        125.8414
0.504                  0.9982579          125.33
0.508                  0.9995762        124.7914
0.512                   1.000951        124.2217
0.516                   1.002142        123.6223
0.52                    1.002939        123.0005
0.524                   1.003204        122.3675
0.528                   1.002891        121.7368
0.532                   1.002053        121.1219
0.536                   1.000837        120.5337
0.54                   0.9994557         119.979
0.544                  0.9981509         119.459
0.548                  0.9971534        118.9691
0.552                  0.9966394        118.4995
0.556                  0.9967007        118.0371
0.56                   0.9973263        117.5678
0.564                  0.9984052        117.0788
0.568                  0.9997465        116.5615
0.572                   1.001113        116.0123
0.576                   1.002264        115.4337
0.58                    1.002996        114.8335
0.584                   1.003181        114.2234
0.588                   1.002785        113.6173
0.592                   1.001876        113.0284
0.596                   1.000613        112.4674
0.6                    0.9992155        111.9405
0.604                  0.9979315         111.448
0.608                  0.9969886        110.9844
0.612                  0.9965548        110.5394
0.616                  0.9967086        110.0992
0.62                    0.997424        109.6495
0.624                  0.9985742        109.1781
0.628                  0.9999559        108.6766
0.632                   1.001324        108.1425
0.636                   1.002437         107.579
0.64                    1.003098         106.995
0.644                   1.003189        106.4028
0.648                   1.002692        105.8167
0.652                   1.001692        105.2499
0.656                   1.000364        104.7127
0.66                   0.9989409        104.2105
0.664                  0.9976741        103.7427
0.668                  0.9967898        103.3028
0.672                  0.9964472        102.8794
0.676                  0.9967092        102.4581
0.68                   0.9975308        102.0246
0.684                  0.9987669        101.5667
0.688                   1.000198        101.0768
0.692                    1.00157        100.5533
0.696                    1.00264        100.0008
0.7                     1.003217         99.4289
0.704                   1.003196        98.85102
0.708                   1.002578        98.28169
0.712                   1.001469        97.73429
0.716                   1.000062        97.21863
0.72                   0.9986037        96.73919
0.724                  0.9973539        96.29427
0.728                  0.9965359        95.87607
0.732                   0.996298        95.47211
0.736                  0.9966852        95.06735
0.74                   0.9976307        94.64701
0.744                  0.9989669         94.1993
0.748                   1.000457        93.71745
0.752                   1.001835        93.20103
0.756                   1.002856        92.65579
0.76                    1.003336        92.09275
0.764                   1.003188        91.52617
0.768                   1.002433        90.97116
0.772                     1.0012        90.44108
0.776                  0.9997045        89.94521
0.78                   0.9982102        89.48702
0.784                   0.996983        89.06341
0.788                  0.9962443        88.66521
0.792                   0.996129        88.27865
0.796                  0.9966614        87.88781
0.8                    0.9977488        87.47768
0.804                  0.9991988        87.03684
0.808                   1.000754        86.55945
0.812                   1.002136         86.0464
0.816                   1.003098        85.50499
0.82                    1.003467        84.94762
0.824                   1.003172        84.38959
0.828                   1.002259        83.84662
0.832                   1.000886        83.33203
0.836                  0.9992907        82.85444
0.84                   0.9977565        82.41615
0.844                  0.9965568        82.01252
0.848                  0.9959091        81.63274
0.852                   0.995933        81.26158
0.856                  0.9966284        80.88224
0.86                   0.9978736        80.47942
0.864                   0.999448        80.04215
0.868                   1.001071        79.56573
0.872                   1.002451         79.0526
0.876                   1.003341        78.51172
0.88                    1.003578        77.95706
0.884                   1.003113        77.40514
0.888                   1.002021        76.87229
0.892                   1.000489        76.37171
0.896                  0.9987844        75.91131
0.9                    0.9972092        75.49196
0.904                  0.9960458        75.10726
0.908                  0.9955062        74.74449
0.912                  0.9956919        74.38689
0.916                  0.9965744        74.01658
0.92                   0.9979992        73.61806
0.924                  0.9997132        73.18091
0.928                   1.001411        72.70177
0.932                   1.002787        72.18479
0.936                   1.003593        71.64088
0.94                    1.003679        71.08574
0.944                   1.003021        70.53723
0.948                   1.001728        70.01232
0.952                   1.000021        69.52415
0.956                  0.9981985        69.07961
0.96                   0.9965843          68.678
0.964                  0.9954693        68.31089
0.968                  0.9950588        67.96342
0.972                  0.9954329        67.61704
0.976                  0.9965302        67.25276
0.98                   0.9981584        66.85483
0.984                   1.000028        66.41363
0.988                   1.001805        65.92722
0.992                   1.003169        65.40184
0.996                   1.003872        64.85055
1                        1.00378        64.29105
1.004                   1.002897        63.74272
1.008                    1.00137        63.22322
1.012                  0.9994593        62.74551
1.016                  0.9974996        62.31543
1.02                   0.9958395        61.93039
1.024                  0.9947795        61.57957
1.028                  0.9945161        61.24573
1.032                  0.9951042        60.90819
1.036                  0.9964444        60.54679
1.04                   0.9983009        60.14553
1.044                   1.000343        59.69564
1.048                   1.002203        59.19701
1.052                   1.003545        58.65814
1.056                   1.004122        58.09462
1.06                    1.003817        57.52647
1.064                   1.002669        56.97473
1.068                   1.000868        56.45793
1.072                  0.9987208        55.98882
1.076                  0.9966032        55.57195
1.08                   0.9948932        55.20252
1.084                   0.993902        54.86694
1.088                  0.9938159        54.54508
1.092                  0.9946599        54.21386
1.096                  0.9962904        53.85164
1.1                    0.9984199        53.44221
1.104                   1.000669        52.97778
1.108                   1.002632        52.46032
1.112                   1.003953        51.90106
1.116                   1.004384        51.31858
1.12                    1.003831        50.73554
1.124                   1.002373        50.17506
1.128                   1.000249        49.65666
1.132                   0.997823        49.19292
1.136                  0.9955195         48.7869
1.14                   0.9937515        48.43116
1.144                  0.9928439         48.1088
1.148                  0.9929716        47.79617
1.152                  0.9941241        47.46731
1.156                  0.9961047        47.09878
1.16                    0.998564        46.67403
1.164                   1.001063        46.18649
1.168                    1.00315        45.64054
1.172                   1.004442        45.05068
1.176                   1.004692        44.43911
1.18                    1.003829         43.8318
1.184                   1.001979        43.25443
1.188                  0.9994452         42.7279
1.192                  0.9966573        42.26468
1.196                  0.9941038        41.86612
1.2                    0.9922429        41.52161
1.204                  0.9914188        41.21012
1.208                   0.991795        40.90361
1.212                  0.9933189        40.57238
1.216                  0.9957285        40.19057
1.22                   0.9985973        39.74109
1.224                   1.001411        39.21863
1.228                   1.003657        38.63058
1.232                   1.004918        37.99548
1.236                    1.00494        37.33997
1.24                    1.003682         36.6943
1.244                   1.001326        36.08767
1.248                  0.9982531        35.54298
1.252                  0.9949828        35.07279
1.256                  0.9920861        34.67644
1.26                   0.9900852        34.33942
1.264                  0.9893546        34.03523
1.268                  0.9900478        33.72995
1.272                  0.9920611        33.38868
1.276                  0.9950485        32.98202
1.28                   0.9984815        32.49182
1.284                   1.001743        31.91418
1.288                   1.004237        31.26013
1.292                   1.005488        30.55342
1.296                   1.005232         29.8266
1.3                     1.003454        29.11594
1.304                   1.000411        28.45554
1.308                  0.9965839        27.87158
1.312                  0.9926152        27.37742
1.316                  0.9891958        26.97017
1.32                   0.9869442        26.63011
1.324                   0.986289         26.3232
1.328                  0.9873797        26.00702
1.332                  0.9900495        25.63877
1.336                   0.993839        25.18349
1.34                   0.9980754        24.62069
1.344                   1.001991        23.94787
1.348                   1.004857         23.1806
1.352                   1.006108        22.34971
1.356                   1.005442        21.49629
1.36                    1.002874        20.66545
1.364                   0.998748        19.89926
1.368                  0.9936945        19.22981
1.372                  0.9885368        18.67283
1.376                  0.9841578        18.22327
1.38                   0.9813429        17.85423
1.384                  0.9806272        17.52018
1.388                  0.9821807        17.16474
1.392                  0.9857596        16.73149
1.396                  0.9907401        16.17494
1.4                    0.9962245         15.4691
1.404                   1.001197        14.61173
1.408                     1.0047        13.62404
1.412                   1.005989        12.54685
1.416                   1.004665        11.43423
1.42                    1.000749        10.34574
1.424                  0.9946974        9.337778
1.428                  0.9873583        8.454331
1.432                  0.9798589        7.718051
1.436                  0.9734307        7.123036
1.44                   0.9691928          6.6317
1.444                  0.9679308        6.178071
1.448                  0.9699177        5.678388
1.452                  0.9748301        5.047017
1.456                  0.9817827         4.21331
1.46                    0.989474         3.13453
1.464                   0.996407        1.802015
1.468                   1.001133       0.2405619
1.472                   1.002479       -1.497019
1.476                  0.9997325       -3.337987
1.48                   0.9927624       -5.199079
1.484                  0.9820802       -6.997091
1.488                  0.9688185       -8.661195
1.492                  0.9546215        -10.1474
1.496                  0.9414319       -11.45411
1.5                    0.9311753       -12.63496
1.504                  0.9253777       -13.80285
1.508                  0.9247937       -15.11925
1.512                   0.929156       -16.76861
1.516                  0.9371334       -18.92609
1.52                   0.9465062       -21.73125
1.524                  0.9544954       -25.27658
1.528                  0.9581424       -29.61146
1.532                  0.9546557       -34.75626
1.536                  0.9416884       -40.72036
1.54                   0.9175436       -47.52042
1.544                  0.8813262       -55.19875
1.548                  0.8330723       -63.84351
1.552                   0.773888       -73.61437
