! TOUCHSTONE file generated by CST MICROWAVE STUDIO
! Date and time: Thu Jun  9 14:52:35 2022
! Project name: AppElm_antenne_patch_Alumina.cst
! Parameters = {L=30.5; W=41.8; e=0.035; h=1.6; lambda=0.190476; ls=90; w0=1.12; w1=0.373; ws=90; y0=11.9; y1=10}
! Header version: 2018
! Port assignment regex: !\s*Touchstone port\s*([0-9]+)\s*=\s*(CST MWS port|CST DS port)\s*([0-9]+|Zmin|Zmax)\s*\(\"(.*)\"\)(\s*mode\s*([0-9]+))?.*
! Touchstone port assignment:
! Touchstone port 1 = CST MWS port 1 ("")
# GHz S MA R 50
0                      0.9798132              -0
0.004                  0.9809337        -10.3754
0.008                  0.9841449        -20.6392
0.012                  0.9890201       -30.68686
0.016                  0.9949219       -40.42639
0.02                    1.001098       -49.78151
0.024                   1.006786       -58.69239
0.028                   1.011313        -67.1144
0.032                   1.014175       -75.01618
0.036                   1.015096       -82.37768
0.04                     1.01405        -89.1887
0.044                    1.01126       -95.44857
0.048                   1.007162       -101.1666
0.052                   1.002352        -106.363
0.056                  0.9975025       -111.0701
0.06                   0.9932709       -115.3322
0.064                  0.9902094       -119.2043
0.068                  0.9886855       -122.7492
0.072                   0.988832       -126.0318
0.076                  0.9905338       -129.1142
0.08                   0.9934545       -132.0492
0.084                  0.9970986       -134.8768
0.088                   1.000892       -137.6217
0.092                    1.00427       -140.2938
0.096                   1.006763       -142.8901
0.1                     1.008049       -145.3984
0.104                   1.008001       -147.8008
0.108                   1.006692       -150.0787
0.112                   1.004376       -152.2161
0.116                   1.001449       -154.2036
0.12                   0.9983862       -156.0408
0.124                  0.9956696       -157.7376
0.128                  0.9937122       -159.3133
0.132                  0.9927952       -160.7952
0.136                  0.9930263       -162.2143
0.14                   0.9943265       -163.6011
0.144                  0.9964488       -164.9813
0.148                  0.9990248       -166.3724
0.152                   1.001628       -167.7818
0.156                   1.003843       -169.2067
0.16                    1.005333       -170.6359
0.164                   1.005883       -172.0516
0.168                   1.005436       -173.4336
0.172                   1.004092        -174.762
0.176                   1.002092       -176.0209
0.18                   0.9997759        -177.201
0.184                  0.9975297       -178.3013
0.188                    0.99572       -179.3298
0.192                  0.9946359        179.6981
0.196                  0.9944407        178.7613
0.2                    0.9951476         177.837
0.204                  0.9966187        176.9042
0.208                  0.9985929        175.9471
0.212                   1.000732        174.9575
0.216                   1.002679        173.9356
0.22                    1.004116        172.8896
0.224                   1.004818         171.834
0.228                   1.004681        170.7869
0.232                   1.003745        169.7669
0.236                   1.002176        168.7902
0.24                    1.000245        167.8679
0.244                  0.9982811        167.0042
0.248                  0.9966141        166.1953
0.252                  0.9955221        165.4299
0.256                  0.9951826        164.6914
0.26                   0.9956436        163.9605
0.264                  0.9968159        163.2182
0.268                   0.998491        162.4498
0.272                   1.000378        161.6466
0.276                   1.002155        160.8075
0.28                    1.003523         159.939
0.284                   1.004258        159.0536
0.288                   1.004243        158.1674
0.292                   1.003489        157.2982
0.296                    1.00213        156.4617
0.3                     1.000401        155.6693
0.304                  0.9985999         154.926
0.308                   0.997035        154.2299
0.312                  0.9959736        153.5715
0.316                  0.9955947        152.9362
0.32                   0.9959591        152.3063
0.324                  0.9969977        151.6643
0.328                  0.9985267        150.9957
0.332                   1.000279        150.2921
0.336                   1.001951         149.552
0.34                    1.003259        148.7807
0.344                   1.003981        147.9899
0.348                   1.003998        147.1951
0.352                   1.003312         146.413
0.356                   1.002042         145.659
0.36                    1.000411        144.9444
0.364                  0.9986995        144.2746
0.368                  0.9972045         143.648
0.372                  0.9961844        143.0559
0.376                  0.9958158        142.4844
0.38                   0.9961605        141.9168
0.384                  0.9971552        141.3359
0.388                  0.9986238        140.7281
0.392                   1.000309         140.085
0.396                   1.001917        139.4051
0.4                     1.003171        138.6937
0.404                   1.003855        137.9621
0.408                   1.003854        137.2255
0.412                   1.003169        136.5003
0.416                    1.00192        135.8017
0.42                    1.000324        135.1405
0.424                  0.9986596        134.5221
0.428                  0.9972159        133.9446
0.432                  0.9962464        133.3995
0.436                  0.9959207        132.8731
0.44                   0.9962951        132.3485
0.444                  0.9973034        131.8094
0.448                  0.9987666        131.2421
0.452                   1.000427         130.639
0.456                   1.001995        129.9987
0.46                    1.003197        129.3271
0.464                   1.003824        128.6357
0.468                   1.003768        127.9396
0.472                   1.003039        127.2553
0.476                   1.001762        126.5975
0.48                    1.000161        125.9771
0.484                  0.9985146        125.3986
0.488                   0.997112        124.8597
0.492                  0.9962006        124.3516
0.496                  0.9959418        123.8599
0.5                     0.996382        123.3681
0.504                  0.9974429        122.8595
0.508                  0.9989372        122.3213
0.512                   1.000601        121.7461
0.516                   1.002142        121.1335
0.52                    1.003289        120.4898
0.524                   1.003843        119.8273
0.528                   1.003704        119.1613
0.532                   1.002898        118.5086
0.536                   1.001561        117.8836
0.54                   0.9999289        117.2967
0.544                  0.9982862        116.7517
0.548                  0.9969235        116.2455
0.552                  0.9960831        115.7684
0.556                  0.9959153        115.3055
0.56                   0.9964514        114.8397
0.564                  0.9975973        114.3547
0.568                  0.9991504        113.8379
0.572                   1.000836        113.2826
0.576                   1.002356        112.6895
0.58                    1.003444        112.0659
0.584                   1.003907        111.4247
0.588                   1.003662        110.7822
0.592                    1.00275        110.1551
0.596                   1.001328        109.5578
0.6                    0.9996454             109
0.604                  0.9979972        108.4845
0.608                  0.9966767        108.0073
0.612                  0.9959196        107.5573
0.616                  0.9958633         107.119
0.62                   0.9965198        106.6747
0.624                  0.9977739         106.208
0.628                  0.9994035        105.7069
0.632                    1.00112        105.1657
0.636                   1.002618        104.5862
0.64                    1.003633         103.977
0.644                   1.003985        103.3522
0.648                   1.003608        102.7286
0.652                   1.002566        102.1233
0.656                   1.001037        101.5505
0.66                   0.9992903        101.0191
0.664                  0.9976335        100.5308
0.668                  0.9963622        100.0801
0.672                  0.9957055        99.65482
0.676                  0.9957836          99.238
0.68                   0.9965854        98.81151
0.684                    0.99797          98.359
0.688                  0.9996919        97.86908
0.692                   1.001445        97.33727
0.696                   1.002918        96.76671
0.7                     1.003849        96.16754
0.704                   1.004071        95.55505
0.708                    1.00354        94.94704
0.712                   1.002346        94.36082
0.716                   1.000695        93.81025
0.72                    0.998877        93.30332
0.724                  0.9972143        92.84048
0.728                   0.996005        92.41446
0.732                  0.9954685        92.01141
0.736                  0.9957051        91.61331
0.74                   0.9966757        91.20127
0.744                  0.9982099        90.75907
0.748                   1.000035        90.27612
0.752                   1.001826        89.74932
0.756                   1.003264        89.18348
0.76                    1.004091        88.59046
0.764                   1.004158        87.98697
0.768                   1.003446        87.39177
0.772                   1.002076        86.82249
0.776                   1.000285        86.29256
0.78                   0.9983882        85.80884
0.784                  0.9967225        85.37016
0.788                  0.9955876        84.96737
0.792                  0.9951915        84.58474
0.796                  0.9956099         84.2029
0.8                    0.9967717        83.80228
0.804                  0.9984717        83.36685
0.808                   1.000407        82.88702
0.812                   1.002233         82.3613
0.816                   1.003623        81.79647
0.82                    1.004326        81.20627
0.824                   1.004212        80.60905
0.828                   1.003295        80.02456
0.832                   1.001729         79.4707
0.836                  0.9997864        78.96033
0.84                   0.9978096        78.49898
0.844                  0.9961519        78.08355
0.848                  0.9951138        77.70266
0.852                   0.994887         77.3386
0.856                  0.9955183        76.97042
0.86                   0.9968995        76.57793
0.864                  0.9987863        76.14539
0.868                   1.000843        75.66448
0.872                   1.002701        75.13557
0.876                   1.004028         74.5677
0.88                    1.004583        73.97675
0.884                   1.004261        73.38282
0.888                   1.003109        72.80677
0.892                   1.001323        72.26669
0.896                  0.9992146        71.77472
0.9                    0.9971554        71.33478
0.904                  0.9955155        70.94152
0.908                  0.9945938        70.58111
0.912                  0.9945629        70.23351
0.916                  0.9954354        69.87615
0.92                   0.9970599        69.48821
0.924                  0.9991482        69.05445
0.928                   1.001327          68.568
0.932                   1.003207        68.03153
0.936                   1.004447        67.45652
0.94                    1.004821        66.86133
0.944                   1.004252        66.26798
0.948                    1.00283        65.69848
0.952                   1.000795        65.17102
0.956                  0.9985022        64.69684
0.96                   0.9963581        64.27794
0.964                  0.9947489        63.90637
0.968                  0.9939702        63.56541
0.972                  0.9941706        63.23245
0.976                  0.9953222        62.88318
0.98                    0.997224        62.49616
0.984                   0.999538        62.05683
0.988                    1.00185        61.56011
0.992                   1.003746        61.01122
0.996                    1.00488        60.42455
1                       1.005043        59.82119
1.004                   1.004192        59.22529
1.008                   1.002463        58.66005
1.012                   1.000152        58.14377
1.016                  0.9976617        57.68652
1.02                   0.9954358          57.288
1.024                  0.9938781        56.93723
1.028                  0.9932778        56.61419
1.032                  0.9937545        56.29335
1.036                  0.9952321        55.94847
1.04                    0.997452        55.55754
1.044                   1.000019        55.10693
1.048                   1.002475        54.59371
1.052                   1.004375        54.02612
1.056                   1.005373        53.42187
1.06                    1.005279        52.80516
1.064                   1.004091        52.20254
1.068                   1.002002         51.6386
1.072                  0.9993673        51.13162
1.076                  0.9966482        50.69027
1.08                   0.9943298        50.31155
1.084                  0.9928351        49.98087
1.088                  0.9924451        49.67437
1.092                  0.9932435        49.36315
1.096                  0.9950975         49.0188
1.1                    0.9976813        48.61873
1.104                   1.000534        48.15045
1.108                   1.003143        47.61364
1.112                   1.005035        47.02007
1.116                   1.005861        46.39132
1.12                    1.005454         45.7552
1.124                   1.003863        45.14109
1.128                   1.001347        44.57511
1.132                  0.9983328        44.07555
1.136                  0.9953494        43.64932
1.14                   0.9929317        43.29022
1.144                  0.9915247        42.97928
1.148                  0.9913984        42.68799
1.152                  0.9925929        42.38344
1.156                  0.9949074        42.03466
1.16                   0.9979344        41.61843
1.164                   1.001134        41.12365
1.168                    1.00393        40.55317
1.172                   1.005814        39.92291
1.176                   1.006432        39.25918
1.18                    1.005646        38.59411
1.184                   1.003566        37.96051
1.188                   1.000527        37.38645
1.192                  0.9970486        36.89025
1.196                  0.9937396        36.47683
1.2                    0.9911971          36.136
1.204                  0.9898945        35.84348
1.208                  0.9900889        35.56495
1.212                  0.9917676         35.2625
1.216                  0.9946452        34.90195
1.22                   0.9982142        34.45922
1.224                   1.001836        33.92499
1.228                   1.004855         33.3059
1.232                   1.006717         32.6231
1.236                   1.007059        31.90864
1.24                    1.005781        31.20016
1.244                    1.00306         30.5349
1.248                  0.9993369        29.94357
1.252                  0.9952396        29.44488
1.256                  0.9914865        29.04133
1.26                   0.9887575        28.71774
1.264                  0.9875666        28.44294
1.268                  0.9881591        28.17501
1.272                  0.9904575        27.86932
1.276                  0.9940687        27.48713
1.28                   0.9983546        27.00314
1.284                   1.002546        26.40995
1.288                   1.005882        25.71891
1.292                   1.007738        24.95785
1.296                   1.007738        24.16631
1.3                     1.005818        23.38924
1.304                   1.002249        22.67012
1.308                  0.9975967        22.04372
1.312                  0.9926446        21.52972
1.316                   0.988261        21.12796
1.32                   0.9852469        20.81672
1.324                  0.9841824        20.55531
1.328                  0.9853066        20.29106
1.332                  0.9884594         19.9694
1.336                  0.9931028         19.5448
1.34                   0.9984162        18.98947
1.344                   1.003444        18.29812
1.348                   1.007264         17.4882
1.352                   1.009144        16.59648
1.356                   1.008669        15.67293
1.36                    1.005812        14.77326
1.364                   1.000958        13.95054
1.368                  0.9948548        13.24667
1.372                  0.9885081        12.68424
1.376                  0.9830206        12.26045
1.38                   0.9793959         11.9448
1.384                  0.9783407        11.68239
1.388                  0.9801128        11.40334
1.392                  0.9844493        11.03658
1.396                  0.9906039        10.52428
1.4                    0.9974776         9.83289
1.404                   1.003815        8.958562
1.408                   1.008423         7.92655
1.412                   1.010364        6.786207
1.416                   1.009121        5.603283
1.42                    1.004682        4.450736
1.424                  0.9975757        3.398598
1.428                  0.9888172        2.503023
1.432                  0.9797801        1.795124
1.436                  0.9719871        1.271332
1.44                   0.9668423       0.8884118
1.444                   0.965348       0.5666769
1.448                  0.9678732       0.2031047
1.452                  0.9740406      -0.3080265
1.456                   0.982771       -1.053196
1.46                   0.9924702       -2.083284
1.464                   1.001309        -3.40656
1.468                   1.007524       -4.990482
1.472                   1.009696       -6.769148
1.476                   1.006961       -8.653235
1.48                   0.9991634        -10.5408
1.484                  0.9869202       -12.32903
1.488                  0.9716075       -13.92831
1.492                  0.9552376       -15.27955
1.496                  0.9402082       -16.37419
1.5                    0.9289147       -17.27192
1.504                  0.9232639       -18.10715
1.508                  0.9241934       -19.07499
1.512                  0.9313541       -20.39619
1.516                  0.9430738       -22.27352
1.52                   0.9566115       -24.85822
1.524                  0.9685914       -28.23841
1.528                  0.9754748       -32.44779
1.532                  0.9739604       -37.48552
1.536                   0.961283       -43.33846
1.54                   0.9354153       -50.00191
1.544                  0.8952035       -57.49946
1.548                  0.8404735       -65.90562
1.552                  0.7721474       -75.37841
