! TOUCHSTONE file generated by CST MICROWAVE STUDIO
! Date and time: Thu Jun  9 14:52:39 2022
! Project name: AppElm_antenne_patch_Alumina.cst
! Parameters = {L=30.5; W=41.8; e=0.035; h=1.6; lambda=0.190476; ls=90; w0=1.12; w1=0.373; ws=90; y0=14.7; y1=10}
! Header version: 2018
! Port assignment regex: !\s*Touchstone port\s*([0-9]+)\s*=\s*(CST MWS port|CST DS port)\s*([0-9]+|Zmin|Zmax)\s*\(\"(.*)\"\)(\s*mode\s*([0-9]+))?.*
! Touchstone port assignment:
! Touchstone port 1 = CST MWS port 1 ("")
# GHz S MA R 50
0                      0.9795408              -0
0.004                  0.9806642        -10.3675
0.008                  0.9838862        -20.6254
0.012                  0.9887856       -30.67098
0.016                   0.994732       -40.41374
0.02                    1.000979       -49.77854
0.024                   1.006766       -58.70625
0.028                   1.011415        -67.1526
0.032                   1.014415       -75.08627
0.036                   1.015472       -82.48687
0.04                     1.01454       -89.34345
0.044                   1.011822       -95.65428
0.048                   1.007738       -101.4271
0.052                    1.00287       -106.6805
0.056                  0.9978915       -111.4444
0.06                   0.9934706       -115.7611
0.064                  0.9901835       -119.6842
0.068                  0.9884302       -123.2751
0.072                  0.9883796       -126.5991
0.076                  0.9899503       -129.7189
0.08                   0.9928297       -132.6891
0.084                  0.9965319        -135.552
0.088                   1.000476       -138.3345
0.092                   1.004076       -141.0483
0.096                   1.006826       -143.6916
0.1                     1.008367       -146.2527
0.104                   1.008527       -148.7131
0.108                   1.007345       -151.0527
0.112                   1.005052       -153.2536
0.116                   1.002038        -155.304
0.12                   0.9987885       -157.2008
0.124                  0.9958158       -158.9517
0.128                  0.9935747       -160.5748
0.132                   0.992396       -162.0972
0.136                  0.9924332       -163.5508
0.14                   0.9936422       -164.9684
0.144                  0.9957932       -166.3784
0.148                  0.9985136       -167.8012
0.152                   1.001352       -169.2469
0.156                   1.003854       -170.7143
0.16                     1.00563       -172.1926
0.164                    1.00642       -173.6637
0.168                   1.006123       -175.1056
0.172                   1.004812        -176.496
0.176                   1.002721       -177.8163
0.18                    1.000203       -179.0542
0.184                  0.9976793        179.7935
0.188                  0.9955635        178.7204
0.192                  0.9941991        177.7112
0.196                  0.9938004        176.7435
0.2                    0.9944177        175.7922
0.204                  0.9959301        174.8332
0.208                  0.9980697        173.8473
0.212                   1.000469        172.8238
0.216                   1.002724        171.7611
0.22                    1.004465         170.667
0.224                    1.00541        169.5567
0.228                   1.005415        168.4502
0.232                   1.004492         167.369
0.236                   1.002805        166.3325
0.24                    1.000643        165.3546
0.244                  0.9983754        164.4419
0.248                   0.996386        163.5918
0.252                  0.9950108        162.7931
0.256                  0.9944796        162.0274
0.26                   0.9948758        161.2726
0.264                   0.996123        160.5066
0.268                  0.9979994         159.711
0.272                   1.000178        158.8746
0.276                   1.002285        157.9947
0.28                    1.003963        157.0776
0.284                   1.004932        156.1369
0.288                   1.005032        155.1914
0.292                   1.004253        154.2616
0.296                   1.002732        153.3668
0.3                     1.000732        152.5214
0.304                  0.9985972        151.7327
0.308                  0.9966959        150.9995
0.312                  0.9953562         150.312
0.316                  0.9948088        149.6534
0.32                    0.995146        149.0028
0.324                  0.9963051         148.339
0.328                  0.9980804        147.6442
0.332                   1.000161        146.9073
0.336                   1.002184        146.1254
0.34                    1.003802        145.3044
0.344                   1.004739        144.4575
0.348                   1.004834        143.6029
0.352                   1.004077         142.761
0.356                   1.002597        141.9506
0.36                    1.000651        141.1861
0.364                  0.9985787        140.4749
0.368                  0.9967401        139.8156
0.372                  0.9954574        139.1988
0.376                  0.9949564        138.6079
0.38                   0.9953241        138.0223
0.384                  0.9964952        137.4211
0.388                  0.9982621        136.7872
0.392                   1.000313        136.1097
0.396                    1.00229        135.3863
0.4                     1.003848        134.6233
0.404                   1.004716        133.8341
0.408                   1.004746        133.0373
0.412                   1.003933         132.253
0.416                   1.002416        131.5001
0.42                     1.00046        130.7925
0.424                  0.9984067        130.1369
0.428                  0.9966166        129.5316
0.432                  0.9954066        128.9663
0.436                  0.9949919         128.424
0.44                   0.9954475        127.8839
0.444                  0.9966923        127.3253
0.448                  0.9985059        126.7314
0.452                   1.000568        126.0922
0.456                   1.002513        125.4062
0.46                    1.004002        124.6807
0.464                   1.004773        123.9301
0.468                   1.004691        123.1734
0.472                   1.003767        122.4311
0.476                   1.002162        121.7217
0.48                    1.000155        121.0587
0.484                  0.9980983        120.4479
0.488                  0.9963558        119.8863
0.492                  0.9952384        119.3625
0.496                  0.9949475        118.8585
0.5                    0.9955369        118.3529
0.504                  0.9969032        117.8251
0.508                  0.9988036        117.2588
0.512                   1.000901         116.645
0.516                   1.002824        115.9836
0.52                    1.004234        115.2834
0.524                   1.004881        114.5598
0.528                   1.004649        113.8327
0.532                   1.003576        113.1232
0.536                   1.001848        112.4495
0.54                   0.9997654        111.8243
0.544                  0.9976965         111.252
0.548                  0.9960096        110.7282
0.552                  0.9950078        110.2397
0.556                  0.9948735        109.7674
0.56                   0.9956344         109.289
0.564                   0.997156        108.7839
0.568                   0.999168        108.2366
0.572                   1.001312        107.6393
0.576                   1.003208        106.9939
0.58                    1.004518        106.3105
0.584                    1.00501        105.6065
0.588                   1.004593        104.9027
0.592                   1.003336        104.2206
0.596                   1.001456         103.578
0.6                    0.9992835        102.9867
0.604                  0.9972024        102.4494
0.608                  0.9955857        101.9597
0.612                  0.9947267        101.5026
0.616                  0.9947837        101.0573
0.62                    0.995751        100.6007
0.624                  0.9974574        100.1122
0.628                  0.9995995        99.57719
0.632                   1.001795        98.98978
0.636                   1.003653        98.35364
0.64                    1.004843        97.68122
0.644                    1.00515        96.99143
0.648                   1.004516         96.3065
0.652                   1.003047        95.64812
0.656                   1.000998        95.03385
0.66                   0.9987287        94.47393
0.664                  0.9966443        93.96929
0.668                  0.9951201        93.51106
0.672                  0.9944348        93.08203
0.676                  0.9947174        92.65956
0.68                    0.995922        92.21983
0.684                  0.9978355        91.74239
0.688                   1.000116        91.21389
0.692                   1.002357        90.63045
0.696                   1.004157        89.99812
0.7                     1.005194        89.33173
0.704                    1.00528         88.6522
0.708                   1.004392        87.98298
0.712                   1.002681        87.34611
0.716                   1.000444        86.75841
0.72                   0.9980752        86.22852
0.724                  0.9959991        85.75502
0.728                  0.9945918        85.32632
0.732                  0.9941126        84.92267
0.736                  0.9946547        84.51954
0.74                   0.9961255        84.09234
0.744                  0.9982639        83.62106
0.748                   1.000687        83.09391
0.752                   1.002962        82.50938
0.756                    1.00468        81.87627
0.76                    1.005532        81.21208
0.764                    1.00536        80.53981
0.768                   1.004187        79.88418
0.772                   1.002211        79.26741
0.776                  0.9997774        78.70538
0.78                   0.9973176        78.20472
0.784                   0.995274        77.76119
0.788                  0.9940196        77.36021
0.792                  0.9937884        76.97916
0.796                  0.9946305        76.59162
0.8                    0.9963999        76.17233
0.804                  0.9987812          75.702
0.808                   1.001349        75.17077
0.812                   1.003641        74.57997
0.816                   1.005248        73.94148
0.82                    1.005876         73.2757
0.824                   1.005405        72.60787
0.828                    1.00391        71.96395
0.832                   1.001645        71.36616
0.836                  0.9990066        70.82913
0.84                   0.9964642        70.35705
0.844                  0.9944775        69.94246
0.848                  0.9934122        69.56734
0.852                  0.9934702        69.20605
0.856                  0.9946501         68.8302
0.86                    0.996745        68.41408
0.864                  0.9993811        67.93941
0.868                   1.002085        67.39878
0.872                   1.004372        66.79669
0.876                   1.005829        66.14856
0.88                    1.006188        65.47789
0.884                   1.005374        64.81229
0.888                   1.003519        64.17884
0.892                   1.000942        63.59957
0.896                   0.998095        63.08746
0.9                    0.9954866        62.64379
0.904                  0.9935919         62.2574
0.908                  0.9927633         61.9064
0.912                  0.9931623         61.5619
0.916                  0.9947272        61.19354
0.92                   0.9971825        60.77536
0.924                   1.000089        60.29061
0.928                   1.002926        59.73471
0.932                   1.005181         59.1159
0.936                   1.006448        58.45342
0.94                    1.006489        57.77423
0.944                   1.005284        57.10833
0.948                    1.00303        56.48394
0.952                   1.000116        55.92259
0.956                  0.9970562         55.4352
0.96                   0.9943995        55.01961
0.964                  0.9926335        54.66043
0.968                  0.9920905         54.3314
0.972                  0.9928829        54.00018
0.976                  0.9948787        53.63451
0.98                   0.9977242        53.20844
0.984                    1.00091        52.70718
0.988                   1.003863        52.12964
0.992                   1.006051        51.48822
0.996                   1.007073         50.8065
1                       1.006734        50.11512
1.004                   1.005074        49.44667
1.008                   1.002369         48.8304
1.012                  0.9990862        48.28704
1.016                  0.9958059        47.82495
1.02                   0.9931207         47.4379
1.024                  0.9915272        47.10557
1.028                  0.9913305        46.79684
1.032                  0.9925826         46.4756
1.036                  0.9950696         46.1077
1.04                   0.9983499        45.66753
1.044                   1.001835        45.14281
1.048                   1.004899        44.53648
1.052                   1.006986         43.8658
1.056                   1.007711        43.15916
1.06                    1.006927        42.45127
1.064                   1.004748        41.77749
1.068                   1.001538        41.16799
1.072                  0.9978537        40.64247
1.076                  0.9943496        40.20611
1.08                   0.9916635        39.84787
1.084                   0.990298        39.54171
1.088                  0.9905224        39.25098
1.092                  0.9923157         38.9354
1.096                  0.9953682        38.55894
1.1                    0.9991365        38.09676
1.104                   1.002945        37.53964
1.108                   1.006107        36.89535
1.112                   1.008048        36.18672
1.116                   1.008403        35.44766
1.12                    1.007081        34.71747
1.124                   1.004287        34.03456
1.128                   1.000486         33.4301
1.132                  0.9963395        32.92243
1.136                  0.9925861        32.51284
1.14                   0.9899143        32.18463
1.144                  0.9888313         31.9049
1.148                  0.9895607        31.63057
1.152                   0.991994         31.3166
1.156                  0.9957071        30.92493
1.16                    1.000038        30.43184
1.164                    1.00421        29.83193
1.168                   1.007469        29.13867
1.172                   1.009219        28.38139
1.176                    1.00912        27.60043
1.18                    1.007152        26.84048
1.184                   1.003623        26.14349
1.188                   0.999124        25.54186
1.192                  0.9944366        25.05222
1.196                  0.9904032        24.67123
1.2                    0.9877721         24.3751
1.204                  0.9870538        24.12269
1.208                  0.9884154        23.86298
1.212                  0.9916406        23.54532
1.216                  0.9961659        23.12931
1.22                    1.001185        22.59264
1.224                   1.005799        21.93468
1.228                   1.009171        21.17568
1.232                   1.010678        20.35302
1.236                    1.01001        19.51474
1.24                    1.007232        18.71222
1.244                   1.002777        17.99203
1.248                  0.9973901        17.38828
1.252                  0.9920081        16.91569
1.256                  0.9876036        16.56543
1.26                    0.985004        16.30477
1.264                  0.9847287        16.08195
1.268                  0.9868762        15.83588
1.272                  0.9910955        15.50845
1.276                  0.9966471        15.05624
1.28                    1.002541         14.4586
1.284                   1.007719        13.72063
1.288                   1.011237        12.87123
1.292                   1.012429        11.95769
1.296                   1.011017         11.0381
1.3                     1.007168        10.17268
1.304                   1.001476        9.414577
1.308                  0.9948841        8.800844
1.312                  0.9885398        8.344531
1.316                  0.9835981        8.029781
1.32                   0.9810057        7.812063
1.324                  0.9813058        7.624992
1.328                  0.9845147        7.393119
1.332                  0.9901047        7.047573
1.336                   0.997098        6.540072
1.34                    1.004251          5.8516
1.344                   1.010276        4.994496
1.348                   1.014068        4.008885
1.352                   1.014883        2.955437
1.356                   1.012466        1.906213
1.36                    1.007105       0.9345098
1.364                  0.9996047       0.1040794
1.368                  0.9911911      -0.5419022
1.372                  0.9833226       -0.990862
1.376                  0.9774441        -1.26735
1.38                   0.9747094       -1.432741
1.384                  0.9757332        -1.57579
1.388                  0.9804389       -1.794927
1.392                  0.9880525       -2.177125
1.396                  0.9972435       -2.779998
1.4                     1.006374       -3.621968
1.404                   1.013789       -4.681436
1.408                   1.018095       -5.902709
1.412                   1.018382       -7.205556
1.416                   1.014373       -8.496246
1.42                    1.006492       -9.679401
1.424                  0.9958455       -10.67104
1.428                  0.9840987       -11.41304
1.432                  0.9732488       -11.88801
1.436                  0.9652928        -12.1306
1.44                   0.9618347       -12.22942
1.444                  0.9637194        -12.3144
1.448                  0.9708004       -12.52989
1.452                  0.9819281       -13.00203
1.456                  0.9951612       -13.81222
1.46                    1.008129        -14.9845
1.464                   1.018442         -16.487
1.468                   1.024066       -18.24205
1.472                   1.023622       -20.13907
1.476                   1.016591       -22.04737
1.48                    1.003441       -23.82865
1.484                   0.985658        -25.3517
1.488                  0.9656623       -26.51247
1.492                  0.9465686       -27.26105
1.496                  0.9317392        -27.6319
1.5                    0.9241362       -27.76418
1.504                  0.9255885        -27.8936
1.508                   0.936216       -28.30614
1.512                  0.9542588        -29.2692
1.516                  0.9763785       -30.97416
1.52                    0.998267       -33.51477
1.524                   1.015309       -36.89969
1.528                    1.02312       -41.08109
1.532                   1.017912        -45.9833
1.536                  0.9967063       -51.52411
1.54                   0.9574407       -57.62869
1.544                  0.8990105         -64.239
1.548                  0.8212647       -71.32296
1.552                  0.7249717        -78.8902
