! TOUCHSTONE file generated by CST MICROWAVE STUDIO
! Date and time: Thu Jun  9 14:52:41 2022
! Project name: AppElm_antenne_patch_Alumina.cst
! Parameters = {L=30.5; W=41.8; e=0.035; h=1.6; lambda=0.190476; ls=90; w0=1.12; w1=0.373; ws=90; y0=16.1; y1=10}
! Header version: 2018
! Port assignment regex: !\s*Touchstone port\s*([0-9]+)\s*=\s*(CST MWS port|CST DS port)\s*([0-9]+|Zmin|Zmax)\s*\(\"(.*)\"\)(\s*mode\s*([0-9]+))?.*
! Touchstone port assignment:
! Touchstone port 1 = CST MWS port 1 ("")
# GHz S MA R 50
0                      0.9822974              -0
0.004                  0.9833282       -10.40631
0.008                  0.9862767        -20.7013
0.012                   0.990735       -30.78047
0.016                  0.9960964        -40.5516
0.02                    1.001648       -49.93788
0.024                   1.006676       -58.87873
0.028                   1.010558       -67.32887
0.032                   1.012849       -75.25659
0.036                   1.013324       -82.64199
0.04                    1.012006       -89.47591
0.044                   1.009153       -95.75953
0.048                   1.005219        -101.505
0.052                   1.000793       -106.7359
0.056                  0.9965125       -111.4882
0.06                   0.9929737       -115.8095
0.064                  0.9906443       -119.7567
0.068                  0.9897966       -123.3925
0.072                  0.9904695       -126.7797
0.076                  0.9924726        -129.976
0.08                   0.9954249       -133.0284
0.084                  0.9988241       -135.9707
0.088                    1.00213       -138.8218
0.092                   1.004847       -141.5871
0.096                   1.006597        -144.261
0.1                     1.007168       -146.8305
0.104                   1.006536       -149.2796
0.108                    1.00486        -151.593
0.112                   1.002453       -153.7602
0.116                  0.9997283       -155.7781
0.12                   0.9971358       -157.6526
0.124                  0.9950869       -159.3993
0.128                  0.9938911       -161.0413
0.132                  0.9937085       -162.6068
0.136                  0.9945281        -164.125
0.14                   0.9961743       -165.6216
0.144                  0.9983447       -167.1158
0.148                   1.000663       -168.6179
0.152                   1.002745       -170.1288
0.156                    1.00426       -171.6405
0.16                    1.004982        -173.139
0.164                   1.004821       -174.6066
0.168                   1.003835       -176.0257
0.172                   1.002212       -177.3812
0.176                   1.000239       -178.6637
0.18                   0.9982573       -179.8711
0.184                  0.9965983        178.9907
0.188                  0.9955331        177.9087
0.192                  0.9952265        176.8649
0.196                  0.9957109         175.839
0.2                    0.9968837        174.8119
0.204                  0.9985284        173.7689
0.208                   1.000355        172.7016
0.212                    1.00205        171.6093
0.216                   1.003332        170.4982
0.22                    1.003996        169.3805
0.224                   1.003942        168.2715
0.228                   1.003197        167.1874
0.232                   1.001899        166.1422
0.236                    1.00028        165.1458
0.24                   0.9986213        164.2016
0.244                  0.9972076        163.3064
0.248                  0.9962782        162.4507
0.252                  0.9959855        161.6201
0.256                  0.9963701        160.7979
0.26                   0.9973546        159.9681
0.264                  0.9987597        159.1181
0.268                   1.000337        158.2405
0.272                   1.001812        157.3346
0.276                   1.002934         156.406
0.28                    1.003516        155.4654
0.284                   1.003465        154.5269
0.288                   1.002799        153.6051
0.292                   1.001638        152.7131
0.296                   1.000188        151.8602
0.3                    0.9987026        151.0499
0.304                  0.9974393        150.2798
0.308                  0.9966162        149.5414
0.312                  0.9963725        148.8219
0.316                  0.9967458        148.1062
0.32                    0.997665        147.3801
0.324                  0.9989643        146.6319
0.328                   1.000414        145.8552
0.332                    1.00176        145.0497
0.336                   1.002771        144.2207
0.34                    1.003273        143.3784
0.344                   1.003184        142.5363
0.348                   1.002523        141.7082
0.352                   1.001408        140.9064
0.356                   1.000035        140.1396
0.36                   0.9986459         139.411
0.364                  0.9974831        138.7179
0.368                  0.9967509        138.0521
0.372                  0.9965762        137.4014
0.376                  0.9969876        136.7515
0.38                   0.9979104        136.0887
0.384                  0.9991801        135.4024
0.388                   1.000572        134.6869
0.392                   1.001841        133.9423
0.396                   1.002767        133.1745
0.4                     1.003189        132.3936
0.404                   1.003034        131.6129
0.408                   1.002332        130.8459
0.412                   1.001205        130.1045
0.416                  0.9998513        129.3965
0.42                   0.9985094        128.7247
0.424                  0.9974157        128.0859
0.428                  0.9967637        127.4716
0.432                  0.9966686        126.8693
0.436                  0.9971467         126.265
0.44                    0.998113        125.6455
0.444                  0.9993953        125.0008
0.448                   1.000767         124.326
0.452                   1.001985        123.6218
0.456                   1.002836        122.8949
0.46                    1.003169        122.1559
0.464                   1.002926        121.4182
0.468                   1.002149        120.6953
0.472                   1.000972        119.9986
0.476                  0.9996033        119.3354
0.48                   0.9982832        118.7077
0.484                  0.9972467        118.1114
0.488                  0.9966783        117.5373
0.492                  0.9966809        116.9724
0.496                   0.997255        116.4026
0.5                    0.9982995        115.8149
0.504                  0.9996295        115.1998
0.508                   1.001009        114.5533
0.512                   1.002194        113.8771
0.516                   1.002975        113.1788
0.52                    1.003212        112.4698
0.524                   1.002862         111.764
0.528                   1.001985        111.0748
0.532                   1.000733        110.4136
0.536                  0.9993258        109.7868
0.54                    0.998013        109.1955
0.544                  0.9970287        108.6345
0.548                  0.9965506        108.0936
0.552                  0.9966662        107.5591
0.556                  0.9973575        107.0164
0.56                   0.9985029        106.4526
0.564                   0.999899        105.8589
0.568                   1.001298        105.2324
0.572                   1.002451        104.5758
0.576                   1.003153        103.8979
0.58                    1.003275        103.2112
0.584                   1.002794        102.5302
0.588                    1.00179        101.8686
0.592                   1.000438        101.2373
0.596                  0.9989752        100.6421
0.6                    0.9976616        100.0827
0.604                  0.9967331        99.55278
0.608                  0.9963585         99.0407
0.612                  0.9966086        98.53183
0.616                  0.9974418        98.01101
0.62                   0.9987116        97.46551
0.624                   1.000193        96.88727
0.628                   1.001622        96.27431
0.632                   1.002745        95.63107
0.636                   1.003358        94.96756
0.64                     1.00335        94.29755
0.644                   1.002718        93.63627
0.648                   1.001568        92.99779
0.652                   1.000101        92.39251
0.656                  0.9985757        91.82536
0.66                    0.997264        91.29468
0.664                  0.9964032        90.79244
0.668                  0.9961518        90.30552
0.672                  0.9965596         89.8181
0.676                  0.9975579        89.31449
0.68                   0.9989711         88.7821
0.684                   1.000548        88.21373
0.688                   1.002007        87.60877
0.692                   1.003087        86.97334
0.696                   1.003592        86.31912
0.7                     1.003427        85.66126
0.704                   1.002615        85.01592
0.708                   1.001293        84.39738
0.712                  0.9996919        83.81556
0.716                  0.9980945        83.27422
0.72                   0.9967868        82.77007
0.724                  0.9960064        82.29316
0.728                  0.9958987        81.82863
0.732                  0.9964887        81.35931
0.736                  0.9976754        80.86896
0.74                   0.9992494        80.34522
0.744                    1.00093        79.78196
0.748                   1.002418        79.18021
0.752                   1.003443          78.548
0.756                    1.00382        77.89889
0.76                    1.003474        77.24964
0.764                   1.002458        76.61732
0.768                   1.000947        76.01638
0.772                   0.999203        75.45614
0.776                  0.9975369        74.93893
0.78                   0.9962486        74.45947
0.784                  0.9955744        74.00564
0.788                  0.9956427        73.56057
0.792                  0.9964485        73.10568
0.796                  0.9978526        72.62419
0.8                    0.9996074        72.10417
0.804                     1.0014        71.54078
0.808                   1.002909        70.93697
0.812                   1.003862        70.30305
0.816                   1.004082        69.65472
0.82                    1.003521        69.01041
0.824                    1.00227        68.38823
0.828                   1.000543        67.80275
0.832                  0.9986408        67.26243
0.836                  0.9969036        66.76785
0.84                   0.9956456        66.31148
0.844                  0.9950994        65.87866
0.848                  0.9953718         65.4503
0.852                  0.9964218        65.00631
0.856                   0.998067         64.5294
0.86                    1.000016        64.00828
0.864                    1.00192        63.43972
0.868                   1.003436        62.82898
0.872                   1.004289        62.18888
0.876                   1.004318        61.53751
0.88                    1.003506        60.89524
0.884                   1.001986        60.28113
0.888                   1.000019        59.70974
0.892                  0.9979496        59.18843
0.896                  0.9961486         58.7157
0.9                    0.9949443         58.2813
0.904                  0.9945625        57.86769
0.908                  0.9950824        57.45329
0.912                  0.9964201        57.01642
0.916                  0.9983424        56.53938
0.92                    1.000508        56.01179
0.924                    1.00253        55.43235
0.928                   1.004044        54.80904
0.932                   1.004771        54.15759
0.936                   1.004572        53.49881
0.94                    1.003468        52.85507
0.944                   1.001642         52.2465
0.948                  0.9994066        51.68753
0.952                   0.997157        51.18405
0.956                  0.9952971        50.73214
0.96                   0.9941688        50.31831
0.964                  0.9939867        49.92176
0.968                  0.9947963        49.51813
0.972                  0.9964625        49.08404
0.976                  0.9986934        48.60157
0.98                    1.001092        48.06151
0.984                   1.003228        47.46496
0.988                   1.004714        46.82304
0.992                   1.005276        46.15486
0.996                   1.004796        45.48427
1                       1.003344        44.83587
1.004                   1.001159        44.23088
1.008                  0.9986191        43.68337
1.012                  0.9961718         43.1975
1.016                  0.9942595        42.76629
1.02                   0.9932369        42.37254
1.024                  0.9933027        41.99159
1.028                  0.9944607        41.59593
1.032                  0.9965148        41.16039
1.036                  0.9991043         40.6669
1.04                    1.001768        40.10781
1.044                   1.004027        39.48713
1.048                   1.005472        38.81967
1.052                    1.00583        38.12843
1.056                   1.005019        37.44073
1.06                     1.00316         36.7837
1.064                   1.000564        36.17971
1.068                  0.9976788        35.64234
1.072                  0.9950174        35.17354
1.076                  0.9930636        34.76274
1.08                   0.9921846        34.38821
1.084                  0.9925582        34.02081
1.088                  0.9941362        33.62943
1.092                  0.9966494        33.18691
1.096                  0.9996555        32.67523
1.1                     1.002619        32.08871
1.104                   1.005005         31.4349
1.108                   1.006379          30.733
1.112                   1.006475        30.01061
1.116                    1.00525        29.29912
1.12                    1.002892        28.62862
1.124                  0.9997952        28.02282
1.128                   0.996494        27.49464
1.132                  0.9935763         27.0433
1.136                  0.9915768        26.65387
1.14                   0.9908763        26.29914
1.144                   0.991626        25.94446
1.148                  0.9937139        25.55443
1.152                  0.9967817        25.09962
1.156                   1.000288        24.56211
1.16                    1.003608        23.93868
1.164                   1.006143        23.24118
1.168                   1.007423        22.49415
1.172                   1.007195        21.73067
1.176                   1.005462        20.98711
1.18                    1.002495        20.29721
1.184                   0.998787        19.68629
1.188                  0.9949818        19.16651
1.192                  0.9917601        18.73386
1.196                  0.9897191        18.36776
1.2                    0.9892569         18.0342
1.204                  0.9904913        17.69171
1.208                  0.9932306        17.29941
1.212                  0.9970042        16.82496
1.216                   1.001148         16.2507
1.22                    1.004922        15.57656
1.224                   1.007645        14.81965
1.228                   1.008807        14.01117
1.232                   1.008163        13.19119
1.236                   1.005776        12.40237
1.24                    1.002016        11.68323
1.244                  0.9975066         11.0615
1.248                  0.9930296        10.54871
1.252                  0.9893899        10.13676
1.256                  0.9872699        9.798022
1.26                   0.9870951         9.48946
1.264                   0.988944        9.160483
1.268                  0.9925234        8.762904
1.272                  0.9972174        8.260435
1.276                   1.002199        7.635446
1.28                    1.006578         6.89171
1.284                   1.009558        6.053175
1.288                    1.01057        5.159626
1.292                   1.009373        4.260343
1.296                   1.006102        3.406631
1.3                     1.001256        2.643858
1.304                  0.9956329        2.003668
1.308                   0.990205        1.497342
1.312                  0.9859551        1.111779
1.316                  0.9836945        0.809763
1.32                   0.9838987       0.5355638
1.324                  0.9866016       0.2253566
1.328                  0.9913747      -0.1799278
1.332                  0.9974007      -0.7227969
1.336                   1.003621       -1.421413
1.34                    1.008925        -2.26713
1.344                   1.012341       -3.226881
1.348                   1.013199       -4.249001
1.352                   1.011247       -5.271069
1.356                   1.006702       -6.228862
1.36                    1.000238       -7.065944
1.364                  0.9929016        -7.74337
1.368                  0.9859542         -8.2484
1.372                  0.9806627       -8.600163
1.376                  0.9780609       -8.849665
1.38                   0.9787316       -9.072303
1.384                  0.9826681       -9.353402
1.388                   0.989253       -9.770463
1.392                  0.9973636       -10.37734
1.396                   1.005577       -11.19461
1.4                     1.012418       -12.20752
1.404                   1.016613       -13.36999
1.408                    1.01729       -14.61257
1.412                   1.014131       -15.85206
1.416                   1.007439        -17.0024
1.42                   0.9981364       -17.98642
1.424                  0.9876642       -18.74889
1.428                  0.9777882       -19.26963
1.432                  0.9703141       -19.57382
1.436                  0.9667435       -19.73459
1.44                   0.9679427       -19.86349
1.444                  0.9739159       -20.08871
1.448                  0.9837603       -20.52695
1.452                  0.9958186       -21.25867
1.456                    1.00798       -22.31436
1.46                    1.018046       -23.67304
1.464                    1.02408       -25.26949
1.468                   1.024696       -27.00538
1.472                   1.019278       -28.76094
1.476                   1.008109       -30.40691
1.48                    0.992423        -31.8183
1.484                  0.9743488       -32.89246
1.488                  0.9567088       -33.57315
1.492                  0.9426384        -33.8777
1.496                  0.9350152       -33.91715
1.5                    0.9357866       -33.89335
1.504                  0.9453956       -34.06263
1.508                  0.9625372        -34.6755
1.512                  0.9843412       -35.92035
1.516                    1.00688       -37.89553
1.52                    1.025778       -40.61328
1.524                   1.036754       -44.02168
1.528                   1.035999       -48.02904
1.532                   1.020431       -52.52156
1.536                  0.9878272       -57.37179
1.54                   0.9369021       -62.43746
1.544                  0.8673401       -67.54963
1.548                  0.7798212       -72.48416
1.552                  0.6760794       -76.89798
