! TOUCHSTONE file generated by CST MICROWAVE STUDIO
! Date and time: Thu Jun  9 14:52:36 2022
! Project name: AppElm_antenne_patch_Alumina.cst
! Parameters = {L=30.5; W=41.8; e=0.035; h=1.6; lambda=0.190476; ls=90; w0=1.12; w1=0.373; ws=90; y0=12.6; y1=10}
! Header version: 2018
! Port assignment regex: !\s*Touchstone port\s*([0-9]+)\s*=\s*(CST MWS port|CST DS port)\s*([0-9]+|Zmin|Zmax)\s*\(\"(.*)\"\)(\s*mode\s*([0-9]+))?.*
! Touchstone port assignment:
! Touchstone port 1 = CST MWS port 1 ("")
# GHz S MA R 50
0                      0.9793818              -0
0.004                  0.9805161       -10.36775
0.008                  0.9837692       -20.62478
0.012                  0.9887139       -30.66737
0.016                  0.9947121       -40.40425
0.02                    1.001008       -49.75974
0.024                   1.006834       -58.67442
0.028                   1.011507       -67.10393
0.032                   1.014512       -75.01699
0.036                   1.015556       -82.39332
0.04                      1.0146       -89.22229
0.044                   1.011849       -95.50247
0.048                   1.007732        -101.242
0.052                   1.002839         -106.46
0.056                  0.9978469        -111.187
0.06                   0.9934271       -115.4661
0.064                  0.9901548       -119.3511
0.068                  0.9884262       -122.9044
0.072                  0.9884044       -126.1914
0.076                  0.9900001       -129.2748
0.08                   0.9928954       -132.2095
0.084                  0.9965993        -135.037
0.088                    1.00053       -137.7841
0.092                   1.004104       -140.4622
0.096                   1.006821       -143.0692
0.1                     1.008326       -145.5931
0.104                   1.008459       -148.0156
0.108                   1.007261        -150.317
0.112                    1.00497       -152.4795
0.116                   1.001975       -154.4918
0.12                   0.9987604       -156.3514
0.124                  0.9958312       -158.0662
0.128                  0.9936343       -159.6546
0.132                   0.992491       -161.1435
0.136                  0.9925472       -162.5645
0.14                   0.9937539         -163.95
0.144                  0.9958805       -165.3279
0.148                  0.9985578       -166.7179
0.152                   1.001342       -168.1296
0.156                   1.003788       -169.5618
0.16                    1.005519       -171.0037
0.164                   1.006281       -172.4376
0.168                   1.005981        -173.842
0.172                   1.004694       -175.1952
0.176                   1.002649       -176.4792
0.18                    1.000195       -177.6822
0.184                  0.9977375       -178.8013
0.188                  0.9956807        -179.843
0.192                  0.9943557        179.1778
0.196                  0.9939682        178.2392
0.2                    0.9945649         177.317
0.204                  0.9960276        176.3877
0.208                  0.9980966         175.433
0.212                   1.000417        174.4423
0.216                     1.0026        173.4144
0.22                    1.004288        172.3565
0.224                    1.00521        171.2833
0.228                   1.005228        170.2141
0.232                   1.004352        169.1694
0.236                   1.002739        168.1678
0.24                    1.000666        167.2229
0.244                  0.9984861        166.3408
0.248                  0.9965666        165.5192
0.252                  0.9952299        164.7474
0.256                  0.9946971        164.0081
0.26                   0.9950508          163.28
0.264                  0.9962211         162.542
0.268                  0.9979999        161.7765
0.272                   1.000077        160.9726
0.276                   1.002099        160.1276
0.28                    1.003722         159.247
0.284                   1.004678        158.3437
0.288                   1.004812        157.4353
0.292                   1.004107        156.5414
0.296                    1.00269        155.6802
0.3                     1.000805        154.8656
0.304                  0.9987763         154.105
0.308                  0.9969516        153.3974
0.312                  0.9956445        152.7339
0.316                  0.9950782         152.099
0.32                   0.9953468         151.473
0.324                  0.9963991        150.8359
0.328                  0.9980482        150.1707
0.332                   1.000006        149.4663
0.336                   1.001932        148.7197
0.34                    1.003498        147.9358
0.344                   1.004436        147.1265
0.348                    1.00459         146.309
0.352                   1.003936        145.5021
0.356                    1.00259        144.7239
0.36                    1.000784         143.988
0.364                  0.9988313        143.3021
0.368                  0.9970703        142.6655
0.372                  0.9958075        142.0699
0.376                  0.9952629        141.5003
0.38                   0.9955304        140.9377
0.384                  0.9965611        140.3624
0.388                  0.9981724        139.7579
0.392                   1.000081        139.1136
0.396                   1.001954        138.4263
0.4                     1.003466        137.7013
0.404                   1.004358        136.9504
0.408                   1.004475        136.1905
0.412                     1.0038        135.4404
0.416                   1.002449        134.7179
0.42                    1.000656        134.0366
0.424                  0.9987345        133.4036
0.428                  0.9970196         132.818
0.432                  0.9958124        132.2713
0.436                  0.9953263        131.7482
0.44                   0.9956471        131.2298
0.444                  0.9967178        130.6966
0.448                  0.9983487        130.1326
0.452                   1.000252        129.5274
0.456                   1.002094        128.8788
0.46                    1.003553        128.1923
0.464                   1.004374        127.4805
0.468                   1.004415        126.7605
0.472                   1.003668        126.0513
0.476                   1.002262        125.3704
0.48                    1.000441         124.731
0.484                  0.9985229        124.1397
0.488                  0.9968461        123.5948
0.492                   0.995707        123.0869
0.496                  0.9953087        122.6002
0.5                    0.9957233        122.1155
0.504                  0.9968776        121.6132
0.508                  0.9985676        121.0777
0.512                   1.000494        120.4994
0.516                   1.002318         119.877
0.52                    1.003717         119.217
0.524                   1.004448        118.5328
0.528                    1.00438        117.8422
0.532                   1.003524        117.1646
0.536                   1.002026        116.5172
0.54                    1.000149        115.9128
0.544                  0.9982204        115.3569
0.548                  0.9965825        114.8469
0.552                  0.9955269         114.372
0.556                  0.9952437        113.9157
0.56                   0.9957857        113.4579
0.564                  0.9970578        112.9791
0.568                  0.9988345        112.4642
0.572                   1.000801        111.9045
0.576                   1.002609        111.2999
0.58                     1.00394        110.6584
0.584                   1.004558        109.9944
0.588                   1.004352        109.3267
0.592                   1.003355        108.6748
0.596                    1.00174        108.0561
0.6                    0.9997873        107.4825
0.604                  0.9978417        106.9584
0.608                  0.9962492        106.4796
0.612                  0.9952955        106.0341
0.616                   0.995154        105.6038
0.62                   0.9958532        105.1681
0.624                  0.9972704        104.7074
0.628                  0.9991539        104.2071
0.632                   1.001169        103.6598
0.636                   1.002959        103.0669
0.64                    1.004205         102.438
0.644                   1.004687        101.7889
0.648                   1.004314        101.1395
0.652                    1.00315        100.5097
0.656                   1.001394        99.91669
0.66                   0.9993545        99.37134
0.664                  0.9973912        98.87666
0.668                  0.9958554        98.42677
0.672                  0.9950248        98.00779
0.676                  0.9950519        97.60024
0.68                   0.9959359        97.18265
0.684                  0.9975212        96.73549
0.688                  0.9995259        96.24486
0.692                   1.001593        95.70489
0.696                   1.003355        95.11875
0.7                     1.004498        94.49782
0.704                   1.004816        93.85976
0.708                    1.00425        93.22536
0.712                   1.002892        92.61511
0.716                   1.000978        92.04569
0.72                   0.9988432        91.52698
0.724                  0.9968672        91.06023
0.728                  0.9954048        90.63748
0.732                  0.9947219        90.24282
0.736                  0.9949463        89.85514
0.74                   0.9960424        89.45213
0.744                  0.9978165        89.01433
0.748                  0.9999528        88.52888
0.752                    1.00207        87.99161
0.756                   1.003791        87.40783
0.76                    1.004808        86.79103
0.764                   1.004935        86.16066
0.768                   1.004145        85.53876
0.772                    1.00257        84.94614
0.776                   1.000482        84.39899
0.78                   0.9982497        83.90588
0.784                  0.9962705        83.46593
0.788                  0.9949019        83.06882
0.792                  0.9943948        82.69639
0.796                   0.994847        82.32575
0.8                    0.9961819        81.93378
0.804                  0.9981635        81.50127
0.808                   1.000438        81.01657
0.812                     1.0026        80.47762
0.816                   1.004261        79.89208
0.82                    1.005124        79.27586
0.824                   1.005029        78.65038
0.828                   1.003984        78.03885
0.832                   1.002167        77.46248
0.836                  0.9998929        76.93671
0.84                   0.9975626        76.46843
0.844                  0.9955937        76.05444
0.848                  0.9943439        75.68169
0.852                  0.9940449        75.32943
0.856                  0.9947578        74.97297
0.86                   0.9963601        74.58838
0.864                  0.9985675         74.1569
0.868                   1.000986        73.66846
0.872                   1.003182        73.12336
0.876                   1.004762        72.53197
0.88                     1.00544        71.91286
0.884                   1.005087        71.28954
0.888                   1.003755        70.68654
0.892                   1.001671        70.12525
0.896                  0.9991969        69.62018
0.9                     0.996771        69.17625
0.904                  0.9948296        68.78747
0.908                  0.9937279        68.43774
0.912                   0.993673        68.10352
0.916                  0.9946833        67.75816
0.92                   0.9965832        67.37701
0.924                  0.9990348        66.94201
0.928                     1.0016        66.44499
0.932                   1.003818        65.88896
0.936                    1.00529        65.28742
0.94                    1.005746        64.66182
0.944                   1.005095        64.03796
0.948                   1.003439        63.44167
0.952                    1.00106        62.89444
0.956                  0.9983719        62.40958
0.96                   0.9958538        61.98963
0.964                    0.99396        61.62547
0.968                  0.9930404        61.29746
0.972                  0.9932712        60.97898
0.976                  0.9946207        60.64135
0.98                   0.9968526         60.2593
0.984                  0.9995692        59.81572
0.988                   1.002284        59.30474
0.992                   1.004509        58.73251
0.996                   1.005843        58.11601
1                       1.006035        57.47993
1.004                   1.005039        56.85254
1.008                   1.003015        56.26101
1.012                   1.000307        55.72679
1.016                  0.9973897        55.26174
1.02                   0.9947826         54.8656
1.024                  0.9929604         54.5255
1.028                  0.9922629        54.21788
1.032                  0.9928289        53.91267
1.036                  0.9945678        53.57898
1.04                   0.9971738        53.19105
1.044                   1.000182        52.73301
1.048                   1.003053        52.20173
1.052                    1.00527        51.60703
1.056                   1.006428        50.96983
1.06                    1.006307        50.31843
1.064                    1.00491        49.68383
1.068                   1.002462        49.09464
1.072                  0.9993836        48.57219
1.076                  0.9962127        48.12652
1.08                    0.993518        47.75404
1.084                  0.9917932        47.43756
1.088                  0.9913647        47.14892
1.092                  0.9923262        46.85416
1.096                  0.9945172        46.51999
1.1                    0.9975516         46.1202
1.104                   1.000887        45.64056
1.108                   1.003926        45.08115
1.112                   1.006117        44.45607
1.116                   1.007058        43.79078
1.12                     1.00656        43.11769
1.124                   1.004687        42.47096
1.128                   1.001744        41.88082
1.132                  0.9982333        41.36842
1.136                   0.994772        40.94156
1.14                   0.9919833         40.5927
1.144                  0.9903832        40.29955
1.148                  0.9902803        40.02848
1.152                  0.9917137        39.74098
1.156                  0.9944403        39.40094
1.16                   0.9979782        38.98181
1.164                   1.001695         38.4713
1.168                   1.004922        37.87341
1.172                   1.007072        37.20722
1.176                   1.007744        36.50358
1.18                    1.006787        35.79974
1.184                   1.004336        35.13369
1.188                   1.000791        34.53763
1.192                  0.9967565         34.0325
1.196                  0.9929425        33.62356
1.2                    0.9900399         33.2985
1.204                   0.988592         33.0286
1.208                  0.9888873        32.77364
1.212                  0.9908982        32.48948
1.216                  0.9942809         32.1366
1.22                   0.9984368        31.68797
1.224                   1.002622         31.1336
1.228                   1.006082        30.48217
1.232                   1.008182        29.75898
1.236                   1.008518        29.00125
1.24                    1.006987        28.25249
1.244                   1.003809        27.55535
1.248                  0.9994996        26.94484
1.252                  0.9947918        26.44186
1.256                  0.9905156        26.04877
1.26                   0.9874515        25.74723
1.264                  0.9861819        25.50056
1.268                  0.9869741        25.25981
1.272                  0.9897192         24.9734
1.276                  0.9939459        24.59725
1.28                    0.998906        24.10332
1.284                   1.003711        23.48451
1.288                    1.00749        22.75524
1.292                   1.009542        21.94839
1.296                   1.009452        21.10973
1.3                     1.007168        20.29075
1.304                   1.003017        19.54079
1.308                  0.9976642        18.89908
1.312                  0.9920138        18.38738
1.316                  0.9870623        18.00454
1.32                   0.9837211        17.72463
1.324                  0.9826392            17.5
1.328                  0.9840669        17.26958
1.332                  0.9877937        16.97094
1.336                  0.9931795        16.55291
1.34                   0.9992699        15.98545
1.344                   1.004971        15.26455
1.348                    1.00924        14.41195
1.352                   1.011267        13.47072
1.356                   1.010603        12.49821
1.36                    1.007249        11.55758
1.364                   1.001666        10.70851
1.368                  0.9947233        9.997704
1.372                  0.9875766        9.449728
1.376                  0.9814798        9.060041
1.38                   0.9775628        8.792373
1.384                  0.9766046        8.582766
1.388                  0.9788621        8.350871
1.392                  0.9839964        8.016197
1.396                  0.9911244        7.514774
1.4                    0.9989784        6.811375
1.404                   1.006136        5.904765
1.408                   1.011263        4.826162
1.412                   1.013338        3.632967
1.416                   1.011813        2.399906
1.42                    1.006717        1.208887
1.424                  0.9986806       0.1379429
1.428                  0.9888748      -0.7508205
1.432                  0.9788625       -1.423748
1.436                   0.970361       -1.886644
1.44                    0.964936       -2.190455
1.444                  0.9636797       -2.427211
1.448                  0.9669511        -2.71422
1.452                  0.9742609       -3.169645
1.456                  0.9843379       -3.887344
1.46                   0.9953593       -4.919181
1.464                   1.005273       -6.268681
1.468                   1.012136       -7.894572
1.472                   1.014414       -9.720004
1.476                   1.011209       -11.64373
1.48                    1.002412       -13.55161
1.484                  0.9887702       -15.32901
1.488                  0.9718732       -16.87582
1.492                  0.9540092       -18.12594
1.496                  0.9378859       -19.07029
1.5                    0.9261884       -19.77756
1.504                  0.9210185       -20.40143
1.508                  0.9233492       -21.16256
1.512                    0.93268       -22.30547
1.516                  0.9470325       -24.04702
1.52                   0.9632797        -26.5398
1.524                  0.9776583       -29.86278
1.528                  0.9862921       -34.03482
1.532                  0.9856159       -39.03861
1.536                  0.9726716       -44.84516
1.54                   0.9452977        -51.4351
1.544                  0.9022455       -58.81827
1.548                  0.8432642       -67.05637
1.552                  0.7691912       -76.29772
