! TOUCHSTONE file generated by CST MICROWAVE STUDIO
! Date and time: Thu Jun  9 14:52:40 2022
! Project name: AppElm_antenne_patch_Alumina.cst
! Parameters = {L=30.5; W=41.8; e=0.035; h=1.6; lambda=0.190476; ls=90; w0=1.12; w1=0.373; ws=90; y0=15.4; y1=10}
! Header version: 2018
! Port assignment regex: !\s*Touchstone port\s*([0-9]+)\s*=\s*(CST MWS port|CST DS port)\s*([0-9]+|Zmin|Zmax)\s*\(\"(.*)\"\)(\s*mode\s*([0-9]+))?.*
! Touchstone port assignment:
! Touchstone port 1 = CST MWS port 1 ("")
# GHz S MA R 50
0                      0.9806273              -0
0.004                  0.9817118       -10.38305
0.008                   0.984819       -20.65586
0.012                  0.9895335       -30.71503
0.016                  0.9952355        -40.4694
0.02                    1.001193       -49.84317
0.024                   1.006664       -58.77665
0.028                   1.010997       -67.22516
0.032                   1.013706       -75.15721
0.036                   1.014525        -82.5526
0.04                    1.013439       -89.40115
0.044                    1.01067       -95.70227
0.048                   1.006654       -101.4655
0.052                   1.001974       -106.7114
0.056                  0.9972892       -111.4725
0.06                   0.9932377       -115.7932
0.064                  0.9903508       -119.7283
0.068                  0.9889757       -123.3399
0.072                  0.9892278       -126.6922
0.076                  0.9909803       -129.8458
0.08                   0.9938925       -132.8523
0.084                  0.9974714       -135.7502
0.088                   1.001153       -138.5633
0.092                    1.00439       -141.3006
0.096                   1.006727       -143.9589
0.1                     1.007867       -146.5256
0.104                   1.007699       -148.9836
0.108                    1.00631       -151.3145
0.112                   1.003967       -153.5037
0.116                   1.001069       -155.5426
0.12                   0.9980885       -157.4321
0.124                  0.9954954        -159.183
0.128                  0.9936866       -160.8157
0.132                  0.9929215       -162.3576
0.136                  0.9932862       -163.8396
0.14                   0.9946816       -165.2918
0.144                  0.9968468       -166.7386
0.148                  0.9994068       -168.1963
0.152                   1.001937       -169.6711
0.156                   1.004033       -171.1591
0.16                    1.005375       -172.6481
0.164                   1.005769       -174.1201
0.168                   1.005182       -175.5547
0.172                   1.003735       -176.9328
0.176                   1.001684       -178.2394
0.18                   0.9993805       -179.4664
0.184                  0.9972082        179.3856
0.188                  0.9955241        178.3075
0.192                  0.9945986        177.2827
0.196                  0.9945706        176.2896
0.2                    0.9954261        175.3054
0.204                  0.9970035        174.3098
0.208                  0.9990235        173.2883
0.212                    1.00114         172.234
0.216                   1.002998         171.149
0.22                    1.004294        170.0427
0.224                   1.004822        168.9305
0.228                   1.004509         167.831
0.232                    1.00342        166.7626
0.236                   1.001748        165.7408
0.24                   0.9997826        164.7753
0.244                  0.9978589        163.8687
0.248                  0.9963037        163.0153
0.252                   0.995378        162.2024
0.256                   0.995233        161.4123
0.26                   0.9958844        160.6252
0.264                  0.9972114        159.8228
0.268                  0.9989782        158.9913
0.272                   1.000878        158.1239
0.276                   1.002584        157.2214
0.28                     1.00381         156.292
0.284                   1.004352        155.3496
0.288                   1.004125        154.4115
0.292                   1.003173        153.4953
0.296                   1.001665        152.6161
0.3                    0.9998627        151.7839
0.304                  0.9980773        151.0019
0.308                  0.9966172        150.2659
0.312                  0.9957341        149.5645
0.316                  0.9955779        148.8815
0.32                   0.9961721        148.1985
0.324                  0.9974081        147.4982
0.328                  0.9990671        146.7675
0.332                   1.000858        145.9998
0.336                   1.002471        145.1958
0.34                    1.003628        144.3632
0.344                   1.004133        143.5155
0.348                   1.003901        142.6694
0.352                   1.002976         141.842
0.356                    1.00152        141.0481
0.36                   0.9997852        140.2973
0.364                  0.9980756        139.5929
0.368                  0.9966896        138.9306
0.372                    0.99587        138.2994
0.376                  0.9957599        137.6835
0.38                   0.9963776         137.065
0.384                  0.9976126        136.4271
0.388                  0.9992462        135.7573
0.392                   1.000991        135.0495
0.396                   1.002542        134.3049
0.4                     1.003629        133.5315
0.404                   1.004064         132.743
0.408                   1.003772         131.956
0.412                   1.002804        131.1874
0.416                    1.00133        130.4517
0.42                   0.9996063        129.7581
0.424                  0.9979356        129.1091
0.428                  0.9966125        128.5001
0.432                  0.9958714        127.9194
0.436                  0.9958447        127.3511
0.44                   0.9965368        126.7772
0.444                  0.9978255        126.1814
0.448                  0.9994821        125.5518
0.452                   1.001214        124.8829
0.456                   1.002716        124.1769
0.46                    1.003724        123.4426
0.464                   1.004061        122.6944
0.468                   1.003667         121.949
0.472                   1.002609        121.2237
0.476                   1.001072        120.5322
0.48                   0.9993246        119.8832
0.484                  0.9976747        119.2785
0.488                  0.9964158         118.712
0.492                  0.9957731        118.1714
0.496                  0.9958631          117.64
0.5                    0.9966715        117.0995
0.504                  0.9980552        116.5339
0.508                  0.9997691        115.9319
0.512                   1.001509        115.2893
0.516                   1.002967        114.6092
0.52                    1.003885         113.902
0.524                     1.0041        113.1826
0.528                   1.003571        112.4687
0.532                   1.002389        111.7774
0.536                   1.000759        111.1222
0.54                   0.9989674        110.5108
0.544                  0.9973323        109.9437
0.548                  0.9961457        109.4134
0.552                  0.9956223        108.9064
0.556                  0.9958589        108.4049
0.56                   0.9968155        107.8902
0.564                  0.9983231        107.3466
0.568                   1.000113        106.7638
0.572                   1.001868        106.1386
0.576                   1.003275        105.4761
0.58                    1.004083        104.7878
0.584                   1.004147          104.09
0.588                   1.003451        103.4012
0.592                   1.002114        102.7385
0.596                   1.000368        102.1149
0.6                     0.998522        101.5371
0.604                  0.9969043        101.0037
0.608                   0.995806        100.5058
0.612                   0.995428         100.028
0.616                  0.9958423        99.55137
0.62                    0.996978        99.05693
0.624                  0.9986341        98.52918
0.628                   1.000516        97.95886
0.632                   1.002287        97.34463
0.636                   1.003633        96.69317
0.64                     1.00431        96.01788
0.644                   1.004196        95.33661
0.648                   1.003306        94.66848
0.652                    1.00179        94.03077
0.656                  0.9999155        93.43579
0.66                   0.9980131        92.88872
0.664                   0.996424        92.38639
0.668                  0.9954366        91.91769
0.672                  0.9952334        91.46537
0.676                  0.9958563        91.00927
0.68                   0.9971978        90.52995
0.684                  0.9990199        90.01241
0.688                   1.000997         89.4488
0.692                   1.002777        88.83968
0.696                   1.004039        88.19393
0.7                     1.004556        87.52701
0.704                    1.00423        86.85827
0.708                   1.003112        86.20773
0.712                   1.001394        85.59263
0.716                   0.999376        85.02436
0.72                   0.9974177        84.50633
0.724                  0.9958711        84.03316
0.728                  0.9950187        83.59131
0.732                  0.9950205        83.16144
0.736                  0.9958822        82.72201
0.74                   0.9974536        82.25327
0.744                  0.9994549        81.74098
0.748                   1.001528        81.17891
0.752                   1.003302        80.56999
0.756                   1.004457        79.92549
0.76                    1.004781        79.26315
0.764                   1.004211        78.60403
0.768                   1.002837        77.96894
0.772                   1.000898        77.37493
0.776                   0.998734        76.83218
0.78                   0.9967311        76.34205
0.784                   0.995252        75.89647
0.788                  0.9945701        75.47917
0.792                  0.9948156        75.06859
0.796                   0.995952        74.64179
0.8                    0.9977799        74.17883
0.804                  0.9999733         73.6665
0.808                   1.002139        73.10063
0.812                   1.003889        72.48681
0.816                   1.004905        71.83911
0.82                       1.005        71.17774
0.824                   1.004146        70.52548
0.828                   1.002486        69.90396
0.832                   1.000306        69.32982
0.836                  0.9979907        68.81171
0.84                   0.9959546         68.3485
0.844                  0.9945695        67.92905
0.848                  0.9940931        67.53411
0.852                  0.9946208        67.13958
0.856                  0.9960654        66.72123
0.86                    0.998172        66.25913
0.864                   1.000564        65.74148
0.868                   1.002812        65.16657
0.872                   1.004511          64.543
0.876                   1.005351        63.88801
0.88                    1.005173        63.22445
0.884                   1.003995        62.57695
0.888                   1.002016        61.96776
0.892                   0.999578        61.41292
0.896                   0.997113        60.91915
0.9                    0.9950653        60.48231
0.904                  0.9938113        60.08783
0.908                   0.993588        59.71299
0.912                  0.9944473        59.33113
0.916                  0.9962434        58.91667
0.92                   0.9986582        58.45006
0.924                    1.00126        57.92124
0.928                   1.003581        57.33145
0.932                   1.005203        56.69278
0.936                   1.005826        56.02592
0.94                    1.005328        55.35664
0.944                   1.003781        54.71149
0.948                   1.001448        54.11325
0.952                  0.9987332        53.57698
0.956                  0.9961203        53.10708
0.96                   0.9940829        52.69592
0.964                  0.9929988         52.3249
0.968                  0.9930778        51.96752
0.972                  0.9943184        51.59435
0.976                   0.996507        51.17864
0.98                   0.9992548        50.70143
0.984                   1.002069        50.15496
0.988                   1.004444        49.54392
0.992                   1.005947        48.88438
0.996                   1.006298        48.20091
1                       1.005417        47.52247
1.004                   1.003443        46.87754
1.008                   1.000709        46.28935
1.012                  0.9976914        45.77167
1.016                    0.99493        45.32598
1.02                   0.9929281        44.94056
1.024                  0.9920614        44.59215
1.028                  0.9925034           44.25
1.032                  0.9941898        43.88169
1.036                  0.9968269        43.45937
1.04                   0.9999455        42.96505
1.044                   1.002986        42.39382
1.048                   1.005401        41.75437
1.052                   1.006748        41.06742
1.056                   1.006771        40.36187
1.06                    1.005444        39.67017
1.064                   1.002979         39.0229
1.068                  0.9997943        38.44362
1.072                  0.9964484        37.94443
1.076                  0.9935416        37.52327
1.08                   0.9916092        37.16356
1.084                  0.9910197         36.8366
1.088                  0.9919013         36.5068
1.092                  0.9941126        36.13848
1.096                  0.9972672        35.70278
1.1                     1.000803        35.18313
1.104                   1.004085        34.57805
1.108                   1.006519         33.9011
1.112                   1.007657        33.17826
1.116                   1.007273         32.4435
1.12                    1.005405        31.73322
1.124                   1.002354        31.08038
1.128                  0.9986393        30.50875
1.132                  0.9949123        30.02842
1.136                  0.9918456        29.63304
1.14                   0.9900094        29.30008
1.144                  0.9897612        28.99441
1.148                  0.9911724        28.67476
1.152                  0.9940096        28.30172
1.156                  0.9977742        27.84538
1.16                    1.001795         27.2911
1.164                   1.005349        26.64155
1.168                   1.007791        25.91605
1.172                   1.008664        25.14686
1.176                   1.007782         24.3739
1.18                    1.005259        23.63829
1.184                   1.001504        22.97576
1.188                  0.9971568        22.41049
1.192                  0.9929829         21.9499
1.196                  0.9897417        21.58243
1.2                    0.9880452        21.27832
1.204                  0.9882364        20.99446
1.208                  0.9903159        20.68246
1.212                  0.9939353        20.29846
1.216                   0.998459         19.8115
1.22                    1.003081        19.20916
1.224                    1.00697        18.49945
1.228                   1.009417        17.70868
1.232                   1.009955        16.87681
1.236                   1.008441         16.0511
1.24                    1.005086        15.27868
1.244                   1.000432        14.59901
1.248                  0.9952697        14.03685
1.252                  0.9905108        13.59677
1.256                  0.9870284         13.2606
1.26                   0.9854917        12.98927
1.264                  0.9862289        12.72931
1.268                   0.989153        12.42323
1.272                  0.9937698        12.02114
1.276                  0.9992675        11.49048
1.28                    1.004666        10.82176
1.284                   1.008991        10.02945
1.288                   1.011445        9.148758
1.292                   1.011542        8.229585
1.296                    1.00919        7.328808
1.3                     1.004719        6.501757
1.304                  0.9988435        5.793426
1.308                  0.9925557        5.230181
1.312                  0.9869698        4.813272
1.316                   0.983123        4.516038
1.32                   0.9817746        4.286662
1.324                  0.9832442        4.057103
1.328                  0.9873332        3.756656
1.332                  0.9933514        3.326518
1.336                   1.000243        2.731308
1.34                    1.006782        1.964899
1.344                   1.011785        1.050214
1.348                   1.014317      0.03433944
1.352                   1.013843       -1.019203
1.356                   1.010324        -2.03969
1.36                     1.00424       -2.959259
1.364                    0.99654       -3.723477
1.368                  0.9885127       -4.301743
1.372                  0.9815813       -4.695839
1.376                   0.977052       -4.943848
1.38                   0.9758514        -5.11649
1.384                  0.9783192       -5.304714
1.388                  0.9841128       -5.600916
1.392                  0.9922577       -6.079304
1.396                   1.001327       -6.781386
1.4                     1.009702        -7.70982
1.404                   1.015853       -8.830248
1.408                    1.01859        -10.0785
1.412                   1.017254       -11.37047
1.416                   1.011834       -12.61315
1.42                    1.003002       -13.71657
1.424                  0.9920602       -14.60711
1.428                  0.9807816       -15.24197
1.432                  0.9711482       -15.62274
1.436                  0.9650005       -15.80349
1.44                   0.9636548       -15.88765
1.444                  0.9675853          -16.01
1.448                  0.9762725       -16.30755
1.452                  0.9882737       -16.88887
1.456                   1.001492       -17.81293
1.46                    1.013558       -19.08201
1.464                   1.022219       -20.64666
1.468                    1.02569       -22.41685
1.472                   1.022907       -24.27461
1.476                   1.013713       -26.08635
1.48                   0.9989448        -27.7157
1.484                  0.9804321       -29.03979
1.488                  0.9608648       -29.97171
1.492                  0.9434842       -30.48922
1.496                  0.9315642       -30.66279
1.5                    0.9277164       -30.66718
1.504                  0.9331897       -30.75921
1.508                  0.9474215       -31.22062
1.512                   0.968041       -32.29013
1.516                   0.991301       -34.11798
1.52                    1.012725       -36.75793
1.524                   1.027731       -40.18695
1.528                   1.032103       -44.33385
1.532                   1.022299       -49.10386
1.536                  0.9956201       -54.39435
1.54                   0.9502956       -60.10217
1.544                  0.8855049       -66.12422
1.548                  0.8013629       -72.35155
1.552                  0.6988789       -78.65335
