! TOUCHSTONE file generated by CST MICROWAVE STUDIO
! Date and time: Thu Jun  9 08:54:56 2022
! Project name: AppElm_antenne_patch_Alumina.cst
! Parameters = {L=24.4; W=41.8; e=0.035; h=1.6; lambda=0.190476; ls=90; w0=1.12; w1=0.373; ws=90; y0=14; y1=10}
! Header version: 2018
! Port assignment regex: !\s*Touchstone port\s*([0-9]+)\s*=\s*(CST MWS port|CST DS port)\s*([0-9]+|Zmin|Zmax)\s*\(\"(.*)\"\)(\s*mode\s*([0-9]+))?.*
! Touchstone port assignment:
! Touchstone port 1 = CST MWS port 1 ("")
# GHz S MA R 50
0                      0.9936596              -0
0.004                  0.9940272       -8.632208
0.008                  0.9950798       -17.19776
0.012                  0.9966742       -25.63262
0.016                  0.9985953       -33.87763
0.02                    1.000587       -41.88034
0.024                   1.002389       -49.59606
0.028                   1.003771       -56.98847
0.032                   1.004565       -64.02978
0.036                   1.004685       -70.70061
0.04                    1.004139       -76.98979
0.044                   1.003021       -82.89422
0.048                   1.001504       -88.41854
0.052                  0.9998076       -93.57494
0.056                  0.9981721       -98.38244
0.06                   0.9968205        -102.866
0.064                  0.9959291       -107.0549
0.068                  0.9956021       -110.9812
0.072                  0.9958593       -114.6772
0.076                   0.996635       -118.1732
0.08                   0.9977915       -121.4961
0.084                  0.9991414       -124.6673
0.088                   1.000478       -127.7026
0.092                   1.001605       -130.6121
0.096                   1.002368       -133.4009
0.1                     1.002673       -136.0703
0.104                   1.002495       -138.6199
0.108                   1.001887       -141.0486
0.112                   1.000961       -143.3567
0.116                  0.9998751       -145.5467
0.12                   0.9988042       -147.6245
0.124                   0.997916       -149.5992
0.128                  0.9973434       -151.4829
0.132                  0.9971654       -153.2893
0.136                  0.9973963       -155.0329
0.14                   0.9979849       -156.7269
0.144                   0.998826       -158.3824
0.148                  0.9997781       -160.0069
0.152                   1.000687       -161.6041
0.156                    1.00141       -163.1742
0.16                    1.001841       -164.7141
0.164                   1.001921       -166.2188
0.168                    1.00165       -167.6824
0.172                   1.001083       -169.0998
0.176                   1.000323       -170.4674
0.18                   0.9994982       -171.7844
0.184                  0.9987461       -173.0528
0.188                  0.9981882       -174.2779
0.192                  0.9979113       -175.4668
0.196                  0.9979541       -176.6283
0.2                     0.998302       -177.7712
0.204                  0.9988905       -178.9031
0.208                  0.9996172        179.9705
0.212                   1.000359        178.8469
0.216                   1.000995        177.7264
0.22                    1.001423         176.612
0.224                   1.001577        175.5088
0.228                   1.001438        174.4227
0.232                   1.001036        173.3594
0.236                   1.000444        172.3236
0.24                   0.9997631        171.3178
0.244                  0.9991097         170.342
0.248                  0.9985925        169.3934
0.252                   0.998296        168.4673
0.256                  0.9982664         167.557
0.26                   0.9985041        166.6556
0.264                  0.9989648        165.7568
0.268                  0.9995675        164.8558
0.272                   1.000209        163.9502
0.276                    1.00078          163.04
0.28                    1.001187        162.1279
0.284                   1.001363        161.2184
0.288                   1.001284        160.3169
0.292                   1.000965        159.4291
0.296                   1.000464        158.5597
0.3                    0.9998683        157.7117
0.304                  0.9992802        156.8858
0.308                  0.9987997        156.0802
0.312                  0.9985073        155.2912
0.316                  0.9984508        154.5132
0.32                   0.9986374        153.7402
0.324                  0.9990325        152.9666
0.328                  0.9995666         152.188
0.332                   1.000147         151.402
0.336                   1.000676        150.6086
0.34                    1.001062        149.8101
0.344                   1.001242        149.0105
0.348                   1.001187        148.2151
0.352                    1.00091        147.4292
0.356                   1.000459        146.6575
0.36                    0.999914        145.9029
0.364                  0.9993688        145.1666
0.368                  0.9989172        144.4472
0.372                  0.9986366        143.7412
0.376                  0.9985743        143.0439
0.38                   0.9987395        142.3497
0.384                  0.9991021        141.6532
0.388                  0.9995985        140.9504
0.392                   1.000142         140.239
0.396                    1.00064         139.519
0.4                     1.001005        138.7925
0.404                   1.001178        138.0633
0.408                   1.001128        137.3365
0.412                   1.000866        136.6173
0.416                   1.000438        135.9101
0.42                     0.99992        135.2179
0.424                  0.9994009        134.5419
0.428                   0.998971        133.8807
0.432                  0.9987046        133.2313
0.436                   0.998647        132.5891
0.44                   0.9988075        131.9486
0.444                   0.999157        131.3049
0.448                  0.9996342        130.6541
0.452                   1.000155         129.994
0.456                   1.000629        129.3247
0.46                    1.000975        128.6482
0.464                   1.001131        127.9685
0.468                   1.001073        127.2904
0.472                    1.00081        126.6189
0.476                   1.000389        125.9584
0.48                   0.9998831        125.3119
0.484                  0.9993805        124.6803
0.488                   0.998969        124.0624
0.492                  0.9987197         123.455
0.496                  0.9986761        122.8536
0.5                    0.9988448         122.253
0.504                  0.9991957        121.6484
0.508                   0.999667        121.0359
0.512                   1.000176        120.4136
0.516                   1.000633        119.7818
0.52                    1.000958        119.1426
0.524                   1.001095           118.5
0.528                    1.00102        117.8587
0.532                   1.000746        117.2239
0.536                   1.000321        116.5996
0.54                     0.99982        115.9888
0.544                  0.9993299        115.3921
0.548                  0.9989369        114.8083
0.552                  0.9987098        114.2341
0.556                  0.9986886        113.6648
0.56                   0.9988765        113.0954
0.564                  0.9992407         112.521
0.568                  0.9997164        111.9382
0.572                    1.00022        111.3451
0.576                   1.000663        110.7422
0.58                    1.000968         110.132
0.584                   1.001081        109.5183
0.588                   1.000982        108.9063
0.592                   1.000688        108.3007
0.596                   1.000252        107.7058
0.6                    0.9997484        107.1241
0.604                  0.9992669        106.5561
0.608                  0.9988922        106.0003
0.612                  0.9986904        105.4533
0.616                   0.998697        104.9102
0.62                   0.9989112         104.366
0.624                  0.9992947        103.8159
0.628                    0.99978        103.2566
0.632                   1.000281        102.6867
0.636                    1.00071        102.1067
0.64                     1.00099        101.5196
0.644                   1.001072        100.9294
0.648                    1.00094        100.3412
0.652                   1.000618        99.75992
0.656                   1.000162        99.18957
0.66                   0.9996507        98.63248
0.664                  0.9991754        98.08888
0.668                  0.9988195        97.55687
0.672                  0.9986459        97.03272
0.676                  0.9986855        96.51154
0.68                   0.9989313         95.9881
0.684                  0.9993394        95.45783
0.688                  0.9998375        94.91762
0.692                   1.000337        94.36631
0.696                   1.000749        93.80495
0.7                        1.001         93.2366
0.704                   1.001045         92.6657
0.708                   1.000874        92.09749
0.712                   1.000518        91.53684
0.716                   1.000037         90.9876
0.72                   0.9995169        90.45177
0.724                  0.9990488        89.92926
0.728                  0.9987155        89.41775
0.732                  0.9985762        88.91317
0.736                   0.998656        88.41042
0.74                   0.9989407        87.90422
0.744                  0.9993796        87.39012
0.748                  0.9998945        86.86523
0.752                   1.000394        86.32882
0.756                   1.000788        85.78232
0.76                    1.001007        85.22921
0.764                    1.00101        84.67427
0.768                   1.000796        84.12283
0.772                   1.000401        83.57975
0.776                  0.9998949        83.04869
0.78                   0.9993662        82.53129
0.784                  0.9989086        82.02702
0.788                  0.9986037         81.5331
0.792                   0.998506        81.04509
0.796                  0.9986334        80.55764
0.8                    0.9989635         80.0654
0.804                  0.9994377        79.56409
0.808                  0.9999715        79.05112
0.812                    1.00047        78.52618
0.816                   1.000843        77.99125
0.82                    1.001024        77.45023
0.824                   1.000979        76.90821
0.828                   1.000715         76.3707
0.832                   1.000277        75.84254
0.836                  0.9997422        75.32707
0.84                   0.9992049        74.82558
0.844                  0.9987604        74.33699
0.848                  0.9984883        73.85803
0.852                  0.9984374        73.38382
0.856                  0.9986175        72.90874
0.86                   0.9989967        72.42743
0.864                  0.9995075        71.93575
0.868                   1.000059        71.43156
0.872                   1.000551        70.91505
0.876                   1.000896        70.38871
0.88                    1.001031        69.85697
0.884                   1.000929        69.32531
0.888                   1.000608        68.79932
0.892                   1.000122        68.28379
0.896                  0.9995563        67.78174
0.9                    0.9990114        67.29396
0.904                  0.9985839        66.81879
0.908                  0.9983502         66.3524
0.912                  0.9983527        65.88945
0.916                  0.9985913        65.42404
0.92                   0.9990239        64.95079
0.924                  0.9995729        64.46585
0.928                    1.00014         63.9675
0.932                   1.000622        63.45654
0.936                   1.000933        62.93608
0.94                    1.001014        62.41109
0.944                   1.000849         61.8874
0.948                   1.000465        61.37076
0.952                  0.9999279        60.86576
0.956                  0.9993326        60.37511
0.96                   0.9987843        59.89898
0.964                  0.9983807        59.43503
0.968                  0.9981944        58.97884
0.972                  0.9982595        58.52454
0.976                   0.998565        58.06601
0.98                   0.9990564        57.59791
0.984                  0.9996458        57.11669
0.988                   1.000227        56.62117
0.992                   1.000695        56.11285
0.996                   1.000964        55.59554
1                       1.000984        55.07474
1.004                   1.000749        54.55666
1.008                   1.000297        54.04717
1.012                  0.9997082        53.55064
1.016                  0.9990853        53.06929
1.02                   0.9985393        52.60264
1.024                  0.9981682        52.14763
1.028                  0.9980389        51.69909
1.032                  0.9981761        51.25069
1.036                  0.9985556        50.79607
1.04                     0.99911           50.33
1.044                    0.99974        49.84932
1.048                   1.000332        49.35353
1.052                   1.000778        48.84485
1.056                   1.000996        48.32786
1.06                    1.000944        47.80868
1.064                   1.000629         47.2939
1.068                   1.000104         46.7894
1.072                  0.9994593        46.29929
1.076                  0.9988103        45.82519
1.08                    0.998272        45.36588
1.084                  0.9979414        44.91744
1.088                  0.9978788        44.47396
1.092                  0.9980966        44.02863
1.096                  0.9985564        43.57486
1.1                    0.9991765        43.10762
1.104                  0.9998448        42.62425
1.108                    1.00044          42.125
1.112                   1.000854        41.61297
1.116                   1.001009        41.09356
1.12                    1.000874        40.57354
1.124                   1.000468        40.05982
1.128                  0.9998624        39.55826
1.132                  0.9991612        39.07263
1.136                  0.9984891        38.60383
1.14                   0.9979662        38.14976
1.144                  0.9976869        37.70553
1.148                   0.997703        37.26449
1.152                  0.9980127        36.81927
1.156                  0.9985614        36.36318
1.16                   0.9992506        35.89143
1.164                   0.999956        35.40195
1.168                   1.000549        34.89594
1.172                   1.000921        34.37745
1.176                      1.001        33.85278
1.18                    1.000769        33.32937
1.184                   1.000265        32.81446
1.188                  0.9995727        32.31378
1.192                  0.9988151        31.83064
1.196                  0.9981261        31.36509
1.2                    0.9976299        30.91397
1.204                  0.9974169         30.4714
1.208                  0.9975273         30.0299
1.212                   0.997943        29.58151
1.216                  0.9985907        29.11949
1.22                    0.999354        28.63944
1.224                   1.000095        28.14007
1.228                   1.000678        27.62362
1.232                   1.000995        27.09524
1.236                   1.000985        26.56218
1.24                    1.000644        26.03263
1.244                   1.000028        25.51405
1.248                  0.9992445        25.01203
1.252                  0.9984306        24.52922
1.256                  0.9977319        24.06466
1.26                    0.997275        23.61406
1.264                  0.9971443        23.17034
1.268                   0.997366        22.72507
1.272                  0.9979024        22.26981
1.276                  0.9986587        21.79783
1.28                   0.9994987        21.30526
1.284                    1.00027         20.7918
1.288                   1.000831        20.26082
1.292                   1.001076        19.71876
1.296                   1.000955        19.17398
1.3                     1.000484        18.63533
1.304                  0.9997421        18.11058
1.308                  0.9988569          17.605
1.312                  0.9979853        17.12038
1.316                  0.9972836        16.65461
1.32                   0.9968798        16.20196
1.324                  0.9968498        15.75411
1.328                  0.9972022        15.30156
1.332                   0.997876        14.83544
1.336                  0.9987513         14.3491
1.34                     0.99967        13.83937
1.344                   1.000464        13.30714
1.348                   1.000987        12.75719
1.352                   1.001137         12.1974
1.356                   1.000881        11.63734
1.36                    1.000256        11.08663
1.364                  0.9993677        10.55321
1.368                  0.9983699        10.04191
1.372                  0.9974399         9.55346
1.376                  0.9967455        9.084299
1.38                   0.9964143        8.627076
1.384                  0.9965103        8.171941
1.388                  0.9970199        7.708317
1.392                  0.9978544        7.226846
1.396                  0.9988645         6.72114
1.4                    0.9998668        6.188947
1.404                   1.000677        5.632596
1.408                   1.001143        5.058585
1.412                   1.001173        4.476466
1.416                    1.00075        3.897186
1.42                   0.9999421        3.331177
1.424                  0.9988846        2.786494
1.428                  0.9977627        2.267306
1.432                  0.9967767        1.773028
1.436                   0.996106        1.298282
1.44                   0.9958759       0.8337528
1.444                  0.9961341       0.3678169
1.448                  0.9968392      -0.1113353
1.452                   0.997868      -0.6135095
1.456                  0.9990358       -1.144677
1.46                     1.00013       -1.705858
1.464                   1.000948       -2.292915
1.468                   1.001334       -2.897255
1.472                   1.001207       -3.507312
1.476                   1.000577       -4.110535
1.48                   0.9995444       -4.695589
1.484                   0.998286       -5.254396
1.488                  0.9970228       -5.783697
1.492                   0.995982       -6.285807
1.496                  0.9953558        -6.76839
1.5                    0.9952647       -7.243206
1.504                  0.9957335       -7.724024
1.508                  0.9966852       -8.224078
1.512                  0.9979525        -8.75361
1.516                  0.9993075       -9.317923
1.52                    1.000502       -9.916397
1.524                   1.001312       -10.54255
1.528                   1.001579       -11.18515
1.532                   1.001239       -11.83013
1.536                   1.000335       -12.46297
1.54                   0.9990141       -13.07129
1.544                  0.9975019       -13.64709
1.548                  0.9960658        -14.1884
1.552                  0.9949667       -14.69984
