! TOUCHSTONE file generated by CST MICROWAVE STUDIO
! Date and time: Thu Jun  9 08:54:57 2022
! Project name: AppElm_antenne_patch_Alumina.cst
! Parameters = {L=25.925; W=41.8; e=0.035; h=1.6; lambda=0.190476; ls=90; w0=1.12; w1=0.373; ws=90; y0=14; y1=10}
! Header version: 2018
! Port assignment regex: !\s*Touchstone port\s*([0-9]+)\s*=\s*(CST MWS port|CST DS port)\s*([0-9]+|Zmin|Zmax)\s*\(\"(.*)\"\)(\s*mode\s*([0-9]+))?.*
! Touchstone port assignment:
! Touchstone port 1 = CST MWS port 1 ("")
# GHz S MA R 50
0                       0.991084              -0
0.004                  0.9915942       -9.083202
0.008                  0.9930561        -18.0898
0.012                  0.9952732       -26.94656
0.016                  0.9979507        -35.5865
0.02                    1.000738       -43.95098
0.024                   1.003278       -51.99086
0.028                   1.005255       -59.66694
0.032                   1.006436       -66.94972
0.036                   1.006698       -73.81914
0.04                    1.006042       -80.26408
0.044                   1.004592       -86.28226
0.048                   1.002571       -91.87996
0.052                   1.000273        -97.0719
0.056                  0.9980209       -101.8808
0.06                   0.9961196       -106.3366
0.064                   0.994815       -110.4746
0.068                  0.9942593       -114.3334
0.072                  0.9944917       -117.9522
0.076                   0.995437       -121.3679
0.08                   0.9969208       -124.6127
0.084                     0.9987       -127.7121
0.088                   1.000501        -130.684
0.092                    1.00206       -133.5388
0.096                   1.003164       -136.2807
0.1                     1.003676        -138.909
0.104                   1.003552       -141.4201
0.108                   1.002844         -143.81
0.112                   1.001688       -146.0761
0.116                   1.000281        -148.219
0.12                    0.998851       -150.2432
0.124                  0.9976188       -152.1579
0.128                  0.9967676       -153.9762
0.132                  0.9964139        -155.714
0.136                  0.9965931       -157.3883
0.14                   0.9972557       -159.0155
0.144                  0.9982787       -160.6091
0.148                  0.9994884       -162.1785
0.152                   1.000688       -163.7287
0.156                   1.001692       -165.2596
0.16                    1.002351       -166.7673
0.164                   1.002575       -168.2452
0.168                   1.002346       -169.6851
0.172                   1.001717       -171.0796
0.176                   1.000802       -172.4229
0.18                   0.9997573       -173.7123
0.184                   0.998754       -174.9489
0.188                  0.9979524       -176.1374
0.192                   0.997476       -177.2859
0.196                  0.9973925       -178.4044
0.2                    0.9977045       -179.5036
0.204                  0.9983504        179.4068
0.208                   0.999217        178.3194
0.212                   1.000158        177.2299
0.216                   1.001021        176.1378
0.22                    1.001668        175.0459
0.224                   1.002001        173.9599
0.228                   1.001975         172.887
0.232                   1.001602        171.8346
0.236                   1.000953        170.8095
0.24                    1.000139         169.816
0.244                  0.9992956        168.8555
0.248                  0.9985625        167.9265
0.252                  0.9980574        167.0241
0.256                  0.9978589        166.1414
0.26                   0.9979935        165.2702
0.264                  0.9984329        164.4024
0.268                  0.9990993        163.5315
0.272                  0.9998787         162.653
0.276                   1.000641        161.7658
0.28                    1.001263        160.8715
0.284                   1.001643        159.9744
0.288                   1.001724        159.0808
0.292                   1.001498        158.1974
0.296                   1.001007        157.3308
0.3                     1.000335         156.486
0.304                  0.9995965        155.6654
0.308                  0.9989142         154.869
0.312                  0.9984007        154.0936
0.316                  0.9981392         153.334
0.32                   0.9981706        152.5835
0.324                  0.9984856        151.8347
0.328                  0.9990292        151.0816
0.332                  0.9997081        150.3196
0.336                   1.000408        149.5467
0.34                    1.001013         148.764
0.344                   1.001423        147.9746
0.348                   1.001573         147.184
0.352                   1.001441        146.3985
0.356                    1.00105        145.6243
0.36                    1.000469        144.8667
0.364                  0.9997967        144.1289
0.368                  0.9991453        143.4116
0.372                  0.9986244        142.7127
0.376                  0.9983206         142.028
0.38                   0.9982837        141.3515
0.384                  0.9985185        140.6767
0.388                  0.9989838        139.9973
0.392                  0.9996001        139.3087
0.396                   1.000263        138.6086
0.4                     1.000862        137.8971
0.404                   1.001296         137.177
0.408                   1.001493         136.453
0.412                   1.001422         135.731
0.416                   1.001096        135.0173
0.42                     1.00057        134.3172
0.424                  0.9999327        133.6344
0.428                  0.9992932        132.9701
0.432                  0.9987589        132.3232
0.436                  0.9984199        131.6898
0.44                   0.9983333        131.0645
0.444                  0.9985134         130.441
0.448                  0.9989291        129.8132
0.452                  0.9995095        129.1761
0.456                   1.000156        128.5271
0.46                    1.000758        127.8656
0.464                   1.001214        127.1941
0.468                   1.001448         126.517
0.472                   1.001418          125.84
0.476                    1.00113        125.1693
0.48                    1.000633        124.5105
0.484                    1.00001        123.8677
0.488                  0.9993671        123.2426
0.492                  0.9988132        122.6343
0.496                  0.9984433        122.0395
0.5                    0.9983203         121.453
0.504                  0.9984657        120.8686
0.508                   0.998855        120.2798
0.512                  0.9994219        119.6817
0.516                    1.00007         119.071
0.52                    1.000688        118.4471
0.524                    1.00117         117.812
0.528                   1.001434        117.1699
0.532                   1.001433        116.5265
0.536                   1.001167        115.8883
0.54                    1.000681        115.2611
0.544                   1.000056        114.6492
0.548                  0.9993979        114.0548
0.552                  0.9988207        113.4773
0.556                  0.9984236        112.9135
0.56                   0.9982755        112.3582
0.564                  0.9984035        111.8052
0.568                  0.9987864        111.2477
0.572                  0.9993594        110.6804
0.576                   1.000025        110.0999
0.58                    1.000668        109.5051
0.584                   1.001179        108.8981
0.588                   1.001467        108.2829
0.592                   1.001484        107.6655
0.596                   1.001224        107.0527
0.6                     1.000729        106.4504
0.604                   1.000084        105.8635
0.608                  0.9993989        105.2943
0.612                  0.9987915        104.7423
0.616                  0.9983672        104.2046
0.62                   0.9982013        103.6757
0.624                  0.9983239        103.1489
0.628                  0.9987155        102.6174
0.632                  0.9993098        102.0755
0.636                   1.000005        101.5192
0.64                     1.00068        100.9476
0.644                   1.001219        100.3626
0.648                   1.001526        99.76854
0.652                   1.001546        99.17168
0.656                   1.001274        98.57904
0.66                    1.000753        97.99717
0.664                   1.000072         97.4311
0.668                  0.9993461         96.8834
0.672                   0.998702        96.35373
0.676                  0.9982518        95.83878
0.68                   0.9980755        95.33287
0.684                  0.9982057        94.82888
0.688                  0.9986219        94.31957
0.692                  0.9992532        93.79868
0.696                  0.9999908        93.26228
0.7                     1.000707        92.70924
0.704                   1.001275        92.14158
0.708                   1.001595        91.56405
0.712                   1.001608        90.98336
0.716                   1.001309        90.40702
0.72                    1.000747        89.84202
0.724                   1.000015        89.29372
0.728                  0.9992405        88.76485
0.732                  0.9985572        88.25488
0.736                  0.9980858        87.76026
0.74                   0.9979104        87.27477
0.744                  0.9980646        86.79076
0.748                  0.9985243        86.30036
0.752                  0.9992111        85.79702
0.756                   1.000006        85.27651
0.76                    1.000771        84.73785
0.764                    1.00137        84.18332
0.768                   1.001698        83.61822
0.772                   1.001693        83.04984
0.776                   1.001353        82.48628
0.78                    1.000733        81.93511
0.784                  0.9999372        81.40196
0.788                  0.9991043        80.88956
0.792                  0.9983794        80.39721
0.796                  0.9978911        79.92076
0.8                    0.9977277        79.45341
0.804                  0.9979216        78.98678
0.808                  0.9984419        78.51235
0.812                  0.9991998        78.02312
0.816                   1.000064        77.51483
0.82                    1.000882         76.9866
0.824                    1.00151        76.44126
0.828                   1.001835        75.88475
0.832                   1.001796        75.32517
0.836                   1.001394        74.77135
0.84                    1.000696        74.23138
0.844                  0.9998193        73.71121
0.848                  0.9989165        73.21346
0.852                  0.9981458        72.73706
0.856                  0.9976444        72.27715
0.86                   0.9975038        71.82609
0.864                  0.9977529        71.37456
0.868                  0.9983509        70.91344
0.872                  0.9991954        70.43527
0.876                   1.000139        69.93572
0.88                    1.001015         69.4143
0.884                   1.001667        68.87449
0.888                   1.001977        68.32313
0.892                   1.001885        67.76923
0.896                   1.001401        67.22249
0.9                     1.000605        66.69157
0.904                   0.999632        66.18264
0.908                  0.9986507        65.69815
0.912                  0.9978342         65.2364
0.916                  0.9973289        64.79168
0.92                   0.9972276        64.35521
0.924                  0.9975528        63.91673
0.928                  0.9982512        63.46628
0.932                   0.999202        62.99605
0.936                   1.000239        62.50173
0.94                    1.001178         61.9834
0.944                    1.00185        61.44541
0.948                   1.002134        60.89568
0.952                   1.001972        60.34436
0.956                   1.001386        59.80207
0.96                    1.000474         59.2781
0.964                  0.9993902        58.77876
0.968                  0.9983246        58.30618
0.972                  0.9974661         57.8578
0.976                  0.9969696        57.42682
0.98                   0.9969281        57.00314
0.984                  0.9973545        56.57534
0.988                  0.9981778        56.13263
0.992                  0.9992558        55.66684
0.996                   1.000399         55.1739
1                       1.001404        54.65458
1.004                    1.00209        54.11438
1.008                    1.00233        53.56255
1.012                   1.002075        53.01054
1.016                   1.001362        52.47001
1.02                     1.00031        51.95092
1.024                  0.9990982        51.45957
1.028                  0.9979402        50.99759
1.032                  0.9970418         50.5614
1.036                  0.9965671         50.1427
1.04                   0.9966058        49.72997
1.044                  0.9971578        49.31041
1.048                  0.9981301        48.87234
1.052                  0.9993536        48.40731
1.056                   1.000613        47.91163
1.06                    1.001682        47.38709
1.064                   1.002368        46.84055
1.068                   1.002542        46.28287
1.072                   1.002165        45.72699
1.076                   1.001293        45.18576
1.08                    1.000072         44.6697
1.084                   0.998712        44.18512
1.088                  0.9974525        43.73284
1.092                  0.9965184        43.30794
1.096                   0.996081        42.90042
1.1                    0.9962252        42.49695
1.104                  0.9969324        42.08322
1.108                  0.9980824        41.64663
1.112                   0.999474        41.17853
1.116                   1.000861        40.67586
1.12                    1.001993        40.14164
1.124                   1.002665        39.58449
1.128                   1.002749        39.01712
1.132                   1.002217        38.45422
1.136                   1.001154        37.90988
1.14                   0.9997373        37.39524
1.144                  0.9982117         36.9164
1.148                  0.9968463        36.47309
1.152                  0.9958873        36.05874
1.156                  0.9955125        35.66128
1.16                   0.9957972        35.26524
1.164                  0.9966992        34.85464
1.168                  0.9980644        34.41589
1.172                  0.9996534        33.94032
1.176                   1.001184        33.42568
1.18                    1.002381        32.87664
1.184                   1.003024        32.30392
1.188                   1.002989        31.72247
1.192                   1.002269         31.1489
1.196                   1.000978        30.59869
1.2                    0.9993334        30.08358
1.204                  0.9976217        29.60921
1.208                  0.9961467         29.1741
1.212                  0.9951762        28.76943
1.216                  0.9948927        28.38063
1.22                    0.995358         27.9898
1.224                  0.9964994        27.57904
1.228                  0.9981211        27.13376
1.232                  0.9999382        26.64538
1.236                   1.001627        26.11292
1.24                    1.002883        25.54304
1.244                   1.003474        24.94898
1.248                    1.00328        24.34827
1.252                   1.002322         23.7599
1.256                   1.000751        23.20083
1.26                    0.998835        22.68335
1.264                  0.9969071        22.21248
1.268                  0.9953112        21.78494
1.272                  0.9943394        21.38935
1.276                  0.9941772        21.00804
1.28                    0.994867        20.62025
1.284                  0.9962975        20.20589
1.288                  0.9982218        19.74934
1.292                     1.0003        19.24234
1.296                   1.002161        18.68545
1.3                     1.003467        18.08793
1.304                   1.003972        17.46608
1.308                    1.00357        16.84058
1.312                    1.00231        16.23298
1.316                   1.000397        15.66209
1.32                   0.9981532        15.14064
1.324                  0.9959715         14.6728
1.328                  0.9942426          14.253
1.332                  0.9932854         13.8666
1.336                  0.9932862        13.49219
1.34                   0.9942614        13.10552
1.344                  0.9960503        12.68397
1.348                  0.9983429        12.21084
1.352                   1.000733        11.67843
1.356                   1.002793        11.08936
1.36                    1.004146        10.45605
1.364                   1.004534        9.798616
1.368                   1.003865        9.141463
1.372                   1.002232        8.509313
1.376                  0.9998979         7.92302
1.38                   0.9972605        7.395824
1.384                  0.9947818        6.930668
1.388                  0.9929089        6.519115
1.392                  0.9919919         6.14236
1.396                  0.9922158        5.774352
1.4                    0.9935619        5.386547
1.404                   0.995807        4.953301
1.408                  0.9985612        4.456729
1.412                   1.001337        3.889969
1.416                   1.003636        3.258325
1.42                    1.005036        2.578253
1.424                   1.005266        1.874549
1.428                   1.004254        1.176283
1.432                   1.002144       0.5120807
1.436                  0.9992799     -0.09469435
1.44                   0.9961488      -0.6301919
1.444                  0.9933018       -1.093068
1.448                  0.9912569        -1.49548
1.452                  0.9904024       -1.861553
1.456                  0.9909202       -2.223315
1.46                   0.9927455        -2.61475
1.464                  0.9955741       -3.065297
1.468                  0.9989138        -3.59425
1.472                   1.002173        -4.20728
1.476                   1.004763       -4.895581
1.48                    1.006205       -5.637531
1.484                   1.006209       -6.402323
1.488                   1.004731        -7.15491
1.492                   1.001984         -7.8616
1.496                  0.9984113       -8.495695
1.5                    0.9946197        -9.04246
1.504                  0.9912775       -9.502562
1.508                  0.9889969       -9.893032
1.512                  0.9882184       -10.24508
1.516                  0.9891201       -10.59875
1.52                   0.9915773       -10.99534
1.524                  0.9951772        -11.4694
1.528                  0.9992917       -12.04212
1.532                   1.003189       -12.71761
1.536                   1.006161       -13.48244
1.54                    1.007647       -14.30815
1.544                   1.007334       -15.15593
1.548                   1.005208       -15.98264
1.552                   1.001574       -16.74754
