! TOUCHSTONE file generated by CST MICROWAVE STUDIO
! Date and time: Thu Jun  9 08:54:58 2022
! Project name: AppElm_antenne_patch_Alumina.cst
! Parameters = {L=27.45; W=41.8; e=0.035; h=1.6; lambda=0.190476; ls=90; w0=1.12; w1=0.373; ws=90; y0=14; y1=10}
! Header version: 2018
! Port assignment regex: !\s*Touchstone port\s*([0-9]+)\s*=\s*(CST MWS port|CST DS port)\s*([0-9]+|Zmin|Zmax)\s*\(\"(.*)\"\)(\s*mode\s*([0-9]+))?.*
! Touchstone port assignment:
! Touchstone port 1 = CST MWS port 1 ("")
# GHz S MA R 50
0                       0.989614              -0
0.004                  0.9902392       -9.548856
0.008                  0.9920263       -19.00889
0.012                  0.9947224       -28.29563
0.016                  0.9979512       -37.33263
0.02                     1.00127       -46.05399
0.024                   1.004233       -54.40552
0.028                   1.006459       -62.34497
0.032                   1.007676       -69.84153
0.036                   1.007761       -76.87528
0.04                    1.006748       -83.43655
0.044                   1.004824       -89.52581
0.048                   1.002296       -95.15349
0.052                   0.999547         -100.34
0.056                  0.9969788        -105.115
0.06                   0.9949538       -109.5165
0.064                  0.9937406       -113.5883
0.068                  0.9934755       -117.3771
0.072                  0.9941464       -120.9289
0.076                  0.9955997       -124.2851
0.08                   0.9975702       -127.4798
0.084                  0.9997277        -130.538
0.088                   1.001732        -133.475
0.092                   1.003283       -136.2972
0.096                   1.004167       -139.0042
0.1                     1.004284       -141.5909
0.104                   1.003657       -144.0508
0.108                   1.002424       -146.3784
0.112                   1.000811       -148.5717
0.116                  0.9990966       -150.6337
0.12                   0.9975641       -152.5734
0.124                  0.9964567       -154.4052
0.128                  0.9959381       -156.1476
0.132                  0.9960703        -157.821
0.136                  0.9968046       -159.4455
0.14                   0.9979952       -161.0376
0.144                  0.9994274       -162.6092
0.148                   1.000855       -164.1659
0.152                   1.002043       -165.7074
0.156                   1.002805        -167.228
0.16                    1.003032       -168.7189
0.164                   1.002705       -170.1694
0.168                   1.001901       -171.5698
0.172                    1.00077       -172.9129
0.176                  0.9995137       -174.1955
0.18                   0.9983494       -175.4196
0.184                  0.9974722       -176.5918
0.188                  0.9970233       -177.7226
0.192                  0.9970673       -178.8249
0.196                  0.9975828       -179.9119
0.2                    0.9984687        179.0052
0.204                  0.9995635        177.9184
0.208                   1.000675        176.8244
0.212                   1.001612        175.7246
0.216                   1.002221        174.6243
0.22                    1.002407         173.532
0.224                   1.002147        172.4575
0.228                   1.001498        171.4101
0.232                    1.00058        170.3969
0.236                  0.9995559        169.4215
0.24                   0.9986055        168.4836
0.244                  0.9978917        167.5785
0.248                  0.9975338        166.6983
0.252                  0.9975871        165.8329
0.256                  0.9980345         164.972
0.26                   0.9987907        164.1066
0.264                  0.9997186        163.2305
0.268                   1.000654        162.3414
0.272                   1.001435         161.441
0.276                   1.001928        160.5345
0.28                    1.002054        159.6297
0.284                   1.001797        158.7353
0.288                   1.001207        157.8599
0.292                   1.000392        157.0097
0.296                  0.9994975        156.1882
0.3                    0.9986811        155.3951
0.304                  0.9980851        154.6263
0.308                  0.9978112        153.8747
0.312                   0.997904        153.1317
0.316                  0.9983428        152.3883
0.32                   0.9990463        151.6367
0.324                  0.9998884        150.8719
0.328                    1.00072        150.0924
0.332                   1.001395        149.3001
0.336                   1.001798        148.5003
0.34                    1.001862        147.7004
0.344                   1.001579        146.9086
0.348                   1.001002        146.1325
0.352                   1.000236         145.378
0.356                  0.9994168        144.6477
0.36                   0.9986899        143.9412
0.364                  0.9981832        143.2543
0.368                  0.9979848        142.5803
0.372                  0.9981279        141.9112
0.376                  0.9985846        141.2386
0.38                   0.9992721        140.5557
0.384                   1.000067        139.8584
0.388                   1.000829        139.1458
0.392                   1.001423        138.4203
0.396                   1.001745        137.6873
0.4                     1.001741        136.9541
0.404                   1.001413        136.2286
0.408                   1.000821         135.518
0.412                   1.000069        134.8273
0.416                  0.9992932        134.1587
0.42                   0.9986295        133.5111
0.424                  0.9981963        132.8802
0.428                  0.9980694        132.2593
0.432                  0.9982702        131.6403
0.436                  0.9987619        131.0155
0.44                   0.9994555        130.3789
0.444                   1.000227         129.727
0.448                   1.000938        129.0595
0.452                   1.001463        128.3794
0.456                    1.00171        127.6926
0.46                    1.001634        127.0063
0.464                   1.001249        126.3283
0.468                   1.000625        125.6653
0.472                  0.9998715        125.0217
0.476                  0.9991232        124.3992
0.48                   0.9985134        123.7959
0.484                  0.9981507         123.207
0.488                  0.9980997        122.6255
0.492                  0.9983694        122.0436
0.496                  0.9989111        121.4538
0.5                    0.9996275        120.8506
0.504                   1.000391        120.2312
0.508                   1.001064        119.5962
0.512                   1.001528        118.9492
0.516                   1.001699        118.2964
0.52                    1.001547        117.6455
0.524                   1.001098        117.0039
0.528                   1.000432        116.3781
0.532                  0.9996682        115.7719
0.536                  0.9989421        115.1861
0.54                   0.9983842        114.6182
0.544                  0.9980951        114.0628
0.548                  0.9981272        113.5124
0.552                  0.9984755        112.9592
0.556                   0.999078        112.3959
0.56                   0.9998268        111.8177
0.564                   1.000588        111.2225
0.568                   1.001225        110.6116
0.572                   1.001624        109.9896
0.576                   1.001713        109.3631
0.58                    1.001474        108.7401
0.584                   1.000949        108.1281
0.588                   1.000232         107.533
0.592                  0.9994488         106.958
0.596                  0.9987405        106.4032
0.6                    0.9982346         105.865
0.604                  0.9980228        105.3375
0.608                  0.9981443        104.8125
0.612                  0.9985782        104.2823
0.616                  0.9992471        103.7397
0.62                    1.000031        103.1806
0.624                    1.00079        102.6037
0.628                   1.001386        102.0113
0.632                   1.001711        101.4088
0.636                   1.001706        100.8035
0.64                    1.001369        100.2037
0.644                   1.000759        99.61687
0.648                  0.9999821        99.04839
0.652                  0.9991781        98.50082
0.656                  0.9984905        97.97309
0.66                   0.9980438        97.46084
0.664                  0.9979197        96.95707
0.668                  0.9981421         96.4534
0.672                  0.9986722        95.94166
0.676                  0.9994153        95.41529
0.68                    1.000238         94.8706
0.684                   1.000992        94.30746
0.688                   1.001541        93.72921
0.692                   1.001784        93.14215
0.696                   1.001675        92.55436
0.7                     1.001231        91.97435
0.704                   1.000529         91.4095
0.708                  0.9996936        90.86472
0.712                  0.9988735        90.34161
0.716                  0.9982171        89.83803
0.72                   0.9978439        89.34849
0.724                  0.9978235        88.86506
0.728                  0.9981619        88.37883
0.732                  0.9987999        87.88154
0.736                  0.9996236        87.36709
0.74                    1.000485        86.83264
0.744                   1.001228        86.27914
0.748                   1.001719        85.71115
0.752                   1.001865        85.13601
0.756                   1.001638        84.56259
0.76                    1.001075        83.99964
0.764                   1.000275        83.45435
0.768                  0.9993794        82.93094
0.772                   0.998549        82.42994
0.776                  0.9979347        81.94796
0.78                   0.9976494        81.47826
0.784                  0.9977476        81.01193
0.788                  0.9982143        80.53955
0.792                   0.998967        80.05286
0.796                  0.9998711        79.54633
0.8                     1.000764        79.01817
0.804                   1.001482        78.47063
0.808                   1.001894         77.9096
0.812                   1.001923        77.34357
0.816                   1.001559        76.78213
0.82                    1.000862        76.23429
0.824                  0.9999557        75.70686
0.828                  0.9990001        75.20322
0.832                  0.9981678        74.72261
0.836                  0.9976102        74.26019
0.84                   0.9974311        73.80785
0.844                  0.9976657        73.35568
0.848                  0.9982746        72.89375
0.852                  0.9991496          72.414
0.856                   1.000133        71.91168
0.86                    1.001047         71.3862
0.864                   1.001724        70.84132
0.868                   1.002038        70.28441
0.872                   1.001928        69.72515
0.876                   1.001409        69.17387
0.88                    1.000568         68.6397
0.884                  0.9995534        68.12893
0.888                  0.9985468         67.6438
0.892                  0.9977301        67.18205
0.896                  0.9972536         66.7372
0.9                    0.9972069        66.29966
0.904                  0.9976029        65.85847
0.908                  0.9983728        65.40333
0.912                  0.9993794        64.92653
0.916                   1.000441        64.42432
0.92                    1.001365        63.89763
0.924                   1.001981        63.35195
0.928                   1.002174        62.79625
0.932                   1.001902        62.24147
0.936                   1.001208        61.69861
0.94                    1.000213        61.17678
0.944                  0.9990917        60.68148
0.948                  0.9980457        60.21359
0.952                   0.997266        59.76905
0.956                  0.9968977        59.33952
0.96                   0.9970122         58.9138
0.964                  0.9975935        58.47996
0.968                    0.99854        58.02746
0.972                  0.9996824        57.54916
0.976                   1.000813        57.04266
0.98                    1.001727        56.51069
0.984                   1.002253        55.96066
0.988                    1.00229        55.40336
0.992                   1.001825          54.851
0.996                   1.000933        54.31517
1                      0.9997694        53.80471
1.004                  0.9985406        53.32409
1.008                  0.9974686        52.87242
1.012                  0.9967499        52.44359
1.016                  0.9965201        52.02715
1.02                   0.9968262        51.61023
1.024                  0.9976181         51.1799
1.028                  0.9987554        50.72564
1.032                   1.000033        50.24123
1.036                    1.00122        49.72592
1.04                    1.002095        49.18461
1.044                   1.002495        48.62691
1.048                   1.002339        48.06552
1.052                   1.001646        47.51396
1.056                   1.000531        46.98425
1.06                   0.9991891        46.48472
1.064                  0.9978596        46.01837
1.068                   0.996784        45.58223
1.072                  0.9961615        45.16769
1.076                  0.9961117        44.76197
1.08                   0.9966503        44.35043
1.084                  0.9976855        43.91933
1.088                  0.9990327        43.45836
1.092                   1.000448        42.96262
1.096                   1.001673        42.43349
1.1                      1.00248        41.87838
1.104                   1.002715        41.30941
1.108                   1.002324        40.74135
1.112                   1.001367        40.18901
1.116                   1.000005        39.66462
1.12                   0.9984794        39.17565
1.124                  0.9970633        38.72322
1.128                  0.9960168        38.30172
1.132                  0.9955365        37.89969
1.136                  0.9957185        37.50169
1.14                   0.9965386        37.09128
1.144                  0.9978541        36.65406
1.148                  0.9994301        36.18032
1.152                    1.00098        35.66699
1.156                    1.00222        35.11806
1.16                    1.002917        34.54394
1.164                   1.002933        33.95963
1.168                   1.002253        33.38205
1.172                   1.000985        32.82729
1.176                   0.999346        32.30755
1.18                   0.9976275        31.82897
1.184                  0.9961403         31.3902
1.188                  0.9951599        30.98247
1.192                  0.9948744         30.5908
1.196                   0.995347        30.19697
1.2                    0.9965019        29.78262
1.204                   0.998136        29.33295
1.208                  0.9999554        28.83937
1.212                   1.001628        28.30115
1.216                   1.002844        27.72561
1.22                     1.00337        27.12671
1.224                   1.003097        26.52265
1.228                   1.002055        25.93282
1.232                   1.000415        25.37442
1.236                  0.9984603        24.85928
1.24                    0.996539        24.39163
1.244                  0.9950016        23.96696
1.248                  0.9941367        23.57242
1.252                  0.9941147        23.18911
1.256                  0.9949538        22.79547
1.26                   0.9965123        22.37132
1.264                  0.9985137        21.90166
1.268                   1.000596        21.37974
1.272                   1.002375          20.808
1.276                   1.003519        20.19781
1.28                    1.003802        19.56739
1.284                    1.00315        18.93871
1.288                   1.001659        18.33379
1.292                  0.9995744        17.77084
1.296                  0.9972605        17.26088
1.3                     0.995132        16.80545
1.304                   0.993582        16.39582
1.308                  0.9929069        16.01419
1.312                  0.9932484        15.63677
1.316                  0.9945623        15.23819
1.32                   0.9966228        14.79639
1.324                   0.999062        14.29685
1.328                   1.001436         13.7353
1.332                   1.003306        13.11846
1.336                   1.004315        12.46282
1.34                    1.004256        11.79183
1.344                   1.003109        11.13191
1.348                   1.001049        10.50805
1.352                   0.998423        9.939349
1.356                   0.995692        9.435405
1.36                   0.9933513        8.993971
1.364                  0.9918405         8.60074
1.368                  0.9914581        8.231462
1.372                  0.9923008        7.856267
1.376                  0.9942383        7.445354
1.38                   0.9969341        6.974793
1.384                  0.9999041        6.431117
1.388                   1.002605        5.813792
1.392                   1.004531        5.135241
1.396                   1.005307        4.418632
1.4                     1.004753        3.693997
1.404                   1.002924         2.99328
1.408                   1.000109        2.344983
1.412                  0.9967822        1.769044
1.416                  0.9935322        1.272747
1.42                   0.9909554       0.8485087
1.424                  0.9895459       0.4743368
1.428                  0.9895962       0.1173024
1.432                   0.991134      -0.2604027
1.436                  0.9939084       -0.694086
1.44                   0.9974314       -1.209601
1.444                   1.001065       -1.818419
1.448                   1.004137       -2.515621
1.452                   1.006059       -3.280915
1.456                   1.006436       -4.082121
1.46                    1.005137       -4.880408
1.464                   1.002325       -5.636525
1.468                  0.9984419       -6.317367
1.472                  0.9941455       -6.902124
1.476                  0.9901994       -7.387036
1.48                    0.987338       -7.787563
1.484                   0.986126        -8.13691
1.488                  0.9868396       -8.480538
1.492                  0.9894005       -8.867493
1.496                  0.9933786       -9.340575
1.5                    0.9980665       -9.927838
1.504                   1.002606       -10.63736
1.508                   1.006143       -11.45605
1.512                   1.007976       -12.35218
1.516                   1.007686        -13.2806
1.52                    1.005212       -14.18972
1.524                    1.00088       -15.02952
1.528                  0.9953664       -15.75991
1.532                  0.9896022       -16.35861
1.536                  0.9846213       -16.82723
1.54                   0.9813726       -17.19368
1.544                  0.9805304       -17.50918
1.548                  0.9823421       -17.83943
1.552                  0.9865581       -18.25151
