! TOUCHSTONE file generated by CST MICROWAVE STUDIO
! Date and time: Thu Jun  9 08:55:04 2022
! Project name: AppElm_antenne_patch_Alumina.cst
! Parameters = {L=36.6; W=41.8; e=0.035; h=1.6; lambda=0.190476; ls=90; w0=1.12; w1=0.373; ws=90; y0=14; y1=10}
! Header version: 2018
! Port assignment regex: !\s*Touchstone port\s*([0-9]+)\s*=\s*(CST MWS port|CST DS port)\s*([0-9]+|Zmin|Zmax)\s*\(\"(.*)\"\)(\s*mode\s*([0-9]+))?.*
! Touchstone port assignment:
! Touchstone port 1 = CST MWS port 1 ("")
# GHz S MA R 50
0                      0.9626663              -0
0.004                  0.9647881       -12.03908
0.008                  0.9708459       -23.90592
0.012                   0.979973       -35.44458
0.016                  0.9909019       -46.52687
0.02                    1.002176       -57.05654
0.024                   1.012368       -66.96701
0.028                   1.020268       -76.21544
0.032                   1.025026       -84.77613
0.036                   1.026227       -92.63516
0.04                    1.023926       -99.78765
0.044                   1.018624       -106.2377
0.048                   1.011193       -112.0004
0.052                   1.002764        -117.106
0.056                  0.9945731       -121.6035
0.06                   0.9877824       -125.5625
0.064                  0.9833058       -129.0717
0.068                  0.9816685       -132.2322
0.072                  0.9829286       -135.1467
0.076                  0.9866901       -137.9078
0.08                   0.9921902       -140.5873
0.084                   0.998451       -143.2303
0.088                   1.004448       -145.8547
0.092                   1.009274       -148.4539
0.096                   1.012262       -151.0038
0.1                     1.013066       -153.4692
0.104                   1.011692       -155.8119
0.108                   1.008479        -157.997
0.112                   1.004033       -159.9996
0.116                   0.999131       -161.8094
0.12                   0.9945928       -163.4338
0.124                  0.9911501       -164.8979
0.128                  0.9893256       -166.2415
0.132                  0.9893502       -167.5132
0.136                  0.9911332       -168.7616
0.14                   0.9942906       -170.0283
0.144                  0.9982268       -171.3405
0.148                   1.002247        -172.709
0.152                   1.005679       -174.1274
0.156                    1.00798       -175.5754
0.16                    1.008819       -177.0235
0.164                   1.008114       -178.4381
0.168                   1.006041       -179.7872
0.172                   1.002996        178.9545
0.176                  0.9995218        177.8014
0.18                    0.996222        176.7541
0.184                  0.9936547        175.7997
0.188                  0.9922392         174.913
0.192                  0.9921841        174.0612
0.196                  0.9934562        173.2098
0.2                    0.9957932        172.3286
0.204                  0.9987576         171.397
0.208                   1.001821         170.407
0.212                   1.004456        169.3634
0.216                   1.006227        168.2825
0.22                    1.006859        167.1882
0.224                   1.006274        166.1085
0.228                   1.004604          165.07
0.232                   1.002159        164.0942
0.236                  0.9993761        163.1937
0.24                   0.9967432        162.3701
0.244                   0.994715        161.6133
0.248                  0.9936331        160.9034
0.252                  0.9936675         160.214
0.256                  0.9947885        159.5174
0.26                   0.9967763        158.7892
0.264                   0.999265         158.013
0.268                   1.001811        157.1825
0.272                   1.003971        156.3026
0.276                   1.005382        155.3875
0.28                    1.005814        154.4583
0.284                   1.005211        153.5391
0.288                   1.003695        152.6531
0.292                   1.001542        151.8186
0.296                  0.9991353        151.0462
0.3                    0.9968983        150.3367
0.304                   0.995222        149.6808
0.308                  0.9943942        149.0606
0.312                  0.9945499         148.453
0.316                  0.9956479        147.8338
0.32                   0.9974806        147.1824
0.324                  0.9997151        146.4849
0.328                   1.001954        145.7369
0.332                   1.003805        144.9436
0.336                   1.004953        144.1187
0.34                    1.005206        143.2817
0.344                   1.004531        142.4547
0.348                   1.003055        141.6583
0.352                   1.001042        140.9088
0.356                  0.9988498        140.2148
0.36                   0.9968655        139.5759
0.364                  0.9954381        138.9827
0.368                   0.994816        138.4179
0.372                  0.9951037        137.8602
0.376                  0.9962418        137.2875
0.38                   0.9980212        136.6812
0.384                   1.000121        136.0299
0.388                   1.002168        135.3305
0.392                   1.003803        134.5892
0.396                   1.004743        133.8197
0.4                     1.004828         133.041
0.404                    1.00405        132.2738
0.408                   1.002549        131.5375
0.412                   1.000591        130.8463
0.416                  0.9985224        130.2073
0.42                   0.9967099        129.6189
0.424                  0.9954744        129.0708
0.428                  0.9950343        128.5458
0.432                  0.9954649        128.0231
0.436                  0.9966853        127.4818
0.44                   0.9984745        126.9053
0.444                   1.000512        126.2835
0.448                   1.002435        125.6151
0.452                   1.003905        124.9074
0.456                   1.004666        124.1747
0.46                    1.004585         123.436
0.464                   1.003679        122.7114
0.468                   1.002106        122.0192
0.472                   1.000146        121.3724
0.476                   0.998144        120.7765
0.48                   0.9964563        120.2282
0.484                  0.9953839        119.7163
0.488                   0.995119        119.2228
0.492                  0.9957085        118.7272
0.496                  0.9970461        118.2092
0.5                    0.9988915        117.6532
0.504                   1.000915        117.0511
0.508                   1.002758         116.403
0.512                   1.004093        115.7177
0.516                   1.004684        115.0104
0.52                    1.004428        114.3006
0.524                   1.003367        113.6083
0.528                   1.001687        112.9511
0.532                  0.9996833        112.3407
0.536                  0.9977099         111.781
0.54                   0.9961198        111.2672
0.544                   0.995199        110.7864
0.548                  0.9951148        110.3198
0.552                  0.9958847        109.8462
0.556                   0.997372        109.3459
0.56                   0.9993115        108.8045
0.564                   1.001357         108.215
0.568                   1.003145        107.5796
0.572                   1.004357        106.9087
0.576                   1.004777        106.2189
0.58                    1.004327        105.5305
0.584                   1.003083        104.8638
0.588                    1.00126        104.2357
0.592                  0.9991788         103.657
0.596                   0.997208        103.1296
0.6                    0.9957017         102.647
0.604                  0.9949335        102.1943
0.608                  0.9950463        101.7513
0.612                   0.996024        101.2961
0.616                  0.9976948        100.8092
0.62                   0.9997612         100.277
0.624                   1.001855        99.69434
0.628                   1.003602        99.06535
0.632                   1.004691        98.40235
0.636                   1.004924        97.72387
0.64                    1.004253        97.05129
0.644                   1.002791        96.40536
0.648                   1.000789        95.80262
0.652                  0.9985992        95.25249
0.656                  0.9966119        94.75528
0.66                   0.9951856        94.30192
0.664                  0.9945823        93.87539
0.668                  0.9949178        93.45364
0.672                  0.9961383        93.01369
0.676                  0.9980294        92.53604
0.68                    1.000255        92.00816
0.684                   1.002418        91.42678
0.688                   1.004131        90.79825
0.692                   1.005085        90.13737
0.696                   1.005104        89.46478
0.7                     1.004175        88.80337
0.704                   1.002452        88.17456
0.708                   1.000233        87.59453
0.712                  0.9979066        87.07136
0.716                  0.9958903        86.60312
0.72                   0.9945504        86.17805
0.724                  0.9941367        85.77634
0.728                  0.9947337        85.37366
0.732                  0.9962427        84.94577
0.736                  0.9983988        84.47307
0.74                    1.000819        83.94421
0.744                    1.00307        83.35804
0.748                   1.004748        82.72371
0.752                   1.005546         82.0589
0.756                   1.005314        81.38682
0.76                    1.004077        80.73226
0.764                   1.002043        80.11747
0.768                  0.9995607         79.5583
0.772                  0.9970693        79.06116
0.776                  0.9950167        78.62152
0.78                     0.99378        78.22428
0.784                  0.9935944         77.8463
0.788                  0.9945069        77.46046
0.792                  0.9963645        77.04095
0.796                  0.9988409        76.56805
0.8                     1.001496        76.03183
0.804                   1.003853        75.43374
0.808                   1.005488        74.78628
0.812                   1.006098        74.11062
0.816                   1.005559        73.43309
0.82                    1.003948        72.78081
0.824                   1.001535        72.17705
0.828                  0.9987347        71.63725
0.832                  0.9960438        71.16584
0.836                  0.9939497        70.75504
0.84                   0.9928422        70.38568
0.844                  0.9929383        70.03042
0.848                  0.9942383        69.65881
0.852                  0.9965222        69.24311
0.856                  0.9993884        68.76354
0.86                    1.002326        68.21191
0.864                   1.004807        67.59293
0.868                    1.00638        66.92317
0.872                   1.006749        66.22812
0.876                   1.005826          65.538
0.88                    1.003748        64.88265
0.884                   1.000862        64.28677
0.888                  0.9976675         63.7652
0.892                  0.9947315        63.31995
0.896                  0.9925907        62.93908
0.9                    0.9916502        62.59826
0.904                  0.9921033        62.26494
0.908                   0.993891        61.90446
0.912                  0.9967083        61.48671
0.916                   1.000059         60.9919
0.92                    1.003344        60.41419
0.924                    1.00597        59.76232
0.928                   1.007454        59.05803
0.932                   1.007508        58.33223
0.936                   1.006087        57.61994
0.94                     1.00341        56.95468
0.944                  0.9999208        56.36277
0.948                  0.9962235         55.8584
0.952                  0.9929792        55.44043
0.956                  0.9907872        55.09155
0.96                   0.9900714         54.7807
0.964                   0.990994        54.46853
0.968                   0.993418        54.11489
0.972                   0.996928        53.68671
0.976                   1.000904        53.16435
0.98                    1.004633        52.54492
0.984                   1.007439        51.84252
0.988                   1.008796        51.08557
0.992                   1.008424        50.31197
0.996                   1.006341        49.56311
1                       1.002865         48.8773
1.004                  0.9985722        48.28317
1.008                  0.9942067        47.79418
1.012                  0.9905544          47.405
1.016                  0.9883004        47.09109
1.02                    0.987895         46.8122
1.024                  0.9894585        46.51966
1.028                  0.9927483        46.16591
1.032                  0.9971988        45.71387
1.036                   1.002022        45.14402
1.04                    1.006351        44.45761
1.044                   1.009391         43.6759
1.048                   1.010561        42.83629
1.052                   1.009589         41.9862
1.056                   1.006572        41.17588
1.06                    1.001966        40.45042
1.064                  0.9965293        39.84215
1.068                  0.9912047        39.36382
1.072                  0.9869587        39.00445
1.076                  0.9846037        38.72923
1.08                   0.9846336        38.48456
1.084                  0.9871124        38.20809
1.088                  0.9916488        37.84116
1.092                  0.9974601         37.3407
1.096                   1.003515        36.68721
1.1                     1.008719        35.88761
1.104                   1.012103        34.97324
1.108                    1.01299        33.99425
1.112                   1.011115        33.01193
1.116                   1.006674        32.08974
1.12                    1.000325        31.28374
1.124                  0.9930935         30.6328
1.128                  0.9862295        30.14986
1.132                  0.9809905         29.8162
1.136                   0.978405        29.58121
1.14                   0.9790552        29.36994
1.144                  0.9829356         29.0973
1.148                  0.9894295        28.68591
1.152                  0.9974157        28.08201
1.156                   1.005472        27.26495
1.16                    1.012127        26.24955
1.164                    1.01611        25.08192
1.168                   1.016561        23.83164
1.172                   1.013178        22.58191
1.176                   1.006288        21.41848
1.18                   0.9968403        20.41772
1.184                  0.9863023         19.6332
1.188                  0.9764599        19.08236
1.192                  0.9691226        18.73621
1.196                  0.9657725        18.51734
1.2                    0.9672306        18.31017
1.204                  0.9734357        17.98385
1.208                  0.9834101        17.42096
1.212                  0.9954287        16.54186
1.216                   1.007333        15.31808
1.22                    1.016903        13.77272
1.224                   1.022213        11.97267
1.228                   1.021916        10.01715
1.232                   1.015462        8.025744
1.236                    1.00322        6.126129
1.24                   0.9865201        4.439801
1.244                   0.967583        3.063048
1.248                  0.9492986        2.041855
1.252                  0.9348185        1.344069
1.256                    0.92696       0.8400148
1.26                   0.9275274       0.3080209
1.264                  0.9367607      -0.5259273
1.268                  0.9531413       -1.926519
1.272                  0.9736352       -4.094961
1.276                  0.9942399       -7.145886
1.28                    1.010614       -11.11654
1.284                   1.018615       -15.99362
1.288                   1.014681       -21.74288
1.292                  0.9960792       -28.33461
1.296                  0.9610579       -35.76491
1.3                    0.9089525       -44.07744
1.304                  0.8402881       -53.39303
1.308                  0.7569406       -63.95946
1.312                  0.6624744       -76.24215
1.316                     0.5629       -91.08351
1.32                   0.4683278       -109.9027
1.324                  0.3956525       -134.4478
1.328                  0.3677557       -164.3978
1.332                  0.3972819        165.7303
1.336                  0.4711792        141.3184
1.34                    0.566632        122.5888
1.344                  0.6669011        107.7866
1.348                  0.7619339        95.50731
1.352                  0.8457042        84.92027
1.356                  0.9145976        75.56734
1.36                   0.9666755        67.20568
1.364                   1.001355        59.71868
1.368                   1.019261        53.06719
1.372                   1.022134        47.26066
1.376                   1.012742        42.33588
1.38                   0.9947371        38.33573
1.384                  0.9724202        35.28248
1.388                  0.9503506        33.14558
1.392                  0.9327821        31.81057
1.396                  0.9229752        31.06642
1.4                    0.9225754        30.62906
1.404                  0.9313223        30.20149
1.408                  0.9472437         29.5437
1.412                    0.96726        28.51736
1.416                  0.9879294        27.09125
1.42                    1.006098        25.31867
1.424                   1.019338        23.30634
1.428                   1.026183        21.18733
1.432                   1.026206        19.10131
1.436                   1.019986         17.1801
1.44                    1.008982         15.5351
1.444                  0.9953195        14.24423
1.448                  0.9814855         13.3382
1.452                  0.9699434        12.78966
1.456                  0.9627022        12.51136
1.46                   0.9609379        12.36937
1.464                  0.9647721        12.21127
1.468                  0.9732901        11.90078
1.472                  0.9847879        11.34591
1.476                  0.9971605        10.51175
1.48                    1.008313        9.417855
1.484                   1.016505        8.125911
1.488                   1.020585        6.724144
1.492                   1.020113        5.312414
1.496                   1.015387        3.988922
1.5                     1.007368        2.838099
1.504                  0.9975303        1.919093
1.508                  0.9876301        1.255462
1.512                  0.9794166       0.8283793
1.516                  0.9743205       0.5768632
1.52                    0.973185        0.407791
1.524                   0.976108       0.2149785
1.528                  0.9824429     -0.09787409
1.532                  0.9909576      -0.5977948
1.536                     1.0001       -1.312174
1.54                    1.008292       -2.228418
1.544                   1.014203       -3.300967
1.548                   1.016936       -4.461965
1.552                    1.01615       -5.632838
