! TOUCHSTONE file generated by CST MICROWAVE STUDIO
! Date and time: Thu Jun  9 08:55:02 2022
! Project name: AppElm_antenne_patch_Alumina.cst
! Parameters = {L=33.55; W=41.8; e=0.035; h=1.6; lambda=0.190476; ls=90; w0=1.12; w1=0.373; ws=90; y0=14; y1=10}
! Header version: 2018
! Port assignment regex: !\s*Touchstone port\s*([0-9]+)\s*=\s*(CST MWS port|CST DS port)\s*([0-9]+|Zmin|Zmax)\s*\(\"(.*)\"\)(\s*mode\s*([0-9]+))?.*
! Touchstone port assignment:
! Touchstone port 1 = CST MWS port 1 ("")
# GHz S MA R 50
0                      0.9768637              -0
0.004                  0.9782974       -11.28833
0.008                   0.982382        -22.4336
0.012                  0.9885071       -33.30359
0.016                  0.9957764       -43.78502
0.02                    1.003158       -53.78753
0.024                   1.009645       -63.24344
0.028                   1.014399       -72.10515
0.032                   1.016857       -80.34153
0.036                   1.016798       -87.93497
0.04                    1.014358       -94.87985
0.044                   1.010003       -101.1827
0.048                   1.004459       -106.8638
0.052                  0.9986026       -111.9588
0.056                  0.9933308         -116.52
0.06                   0.9894203       -120.6154
0.064                  0.9874048       -124.3246
0.068                  0.9874914       -127.7319
0.072                  0.9895372       -130.9173
0.076                  0.9930881       -133.9485
0.08                   0.9974724       -136.8745
0.084                   1.001925       -139.7231
0.088                   1.005717       -142.5017
0.092                   1.008272       -145.2012
0.096                   1.009244       -147.8011
0.1                      1.00856       -150.2758
0.104                   1.006417       -152.6004
0.108                   1.003244       -154.7566
0.112                  0.9996217       -156.7368
0.116                  0.9961883       -158.5471
0.12                   0.9935277       -160.2073
0.124                  0.9920708       -161.7493
0.128                  0.9920245       -163.2119
0.132                  0.9933411        -164.635
0.136                  0.9957351        -166.053
0.14                   0.9987453       -167.4896
0.144                   1.001823       -168.9549
0.148                   1.004431       -170.4455
0.152                   1.006135       -171.9461
0.156                   1.006672       -173.4335
0.16                    1.005988       -174.8812
0.164                   1.004239       -176.2641
0.168                   1.001761       -177.5629
0.172                    0.99901       -178.7678
0.176                  0.9964786       -179.8803
0.18                   0.9946122        179.0866
0.184                  0.9937289        178.1102
0.188                  0.9939636        177.1626
0.192                  0.9952479        176.2151
0.196                  0.9973266        175.2439
0.2                    0.9998097        174.2337
0.204                   1.002246        173.1802
0.208                   1.004206          172.09
0.212                   1.005353        170.9787
0.216                   1.005503        169.8681
0.22                    1.004647        168.7817
0.224                   1.002955        167.7415
0.228                   1.000739        166.7631
0.232                  0.9984016        165.8538
0.236                  0.9963621        165.0108
0.24                   0.9949829        164.2214
0.244                  0.9945033        163.4654
0.248                  0.9949976        162.7185
0.252                  0.9963627        161.9573
0.256                  0.9983403         161.163
0.26                    1.000567         160.325
0.264                   1.002641        159.4425
0.268                   1.004196         158.524
0.272                   1.004963        157.5856
0.276                   1.004814        156.6481
0.28                    1.003787        155.7331
0.284                   1.002071        154.8594
0.288                  0.9999785        154.0401
0.292                  0.9978861        153.2794
0.296                  0.9961698        152.5726
0.3                    0.9951363        151.9062
0.304                   0.994968        151.2605
0.308                  0.9956886        150.6132
0.312                  0.9971615        149.9435
0.316                  0.9991152        149.2361
0.32                    1.001196        148.4837
0.324                    1.00303         147.688
0.328                   1.004294        146.8594
0.332                   1.004768        146.0145
0.336                   1.004371        145.1737
0.34                     1.00318        144.3572
0.344                   1.001409        143.5817
0.348                  0.9993761        142.8576
0.352                  0.9974462        142.1869
0.356                   0.995966        141.5627
0.36                    0.995201        140.9706
0.364                  0.9952877        140.3905
0.368                  0.9962072        139.8013
0.372                  0.9977902        139.1842
0.376                  0.9997492        138.5263
0.38                    1.001731        137.8229
0.384                   1.003382         137.078
0.388                   1.004409        136.3036
0.392                   1.004633        135.5172
0.396                   1.004014        134.7388
0.4                     1.002663        133.9877
0.404                   1.000822         133.279
0.408                  0.9988188        132.6207
0.412                  0.9970117        132.0128
0.416                  0.9957262        131.4463
0.42                   0.9951941        130.9053
0.424                  0.9955115        130.3697
0.428                  0.9966204        129.8188
0.432                    0.99832        129.2353
0.436                   1.000304        128.6084
0.44                    1.002217        127.9357
0.444                   1.003717        127.2234
0.448                   1.004539         126.485
0.452                   1.004536        125.7388
0.456                   1.003708        125.0051
0.46                    1.002202        124.3022
0.464                   1.000282        123.6436
0.468                  0.9982925        123.0357
0.472                  0.9965879        122.4759
0.476                  0.9954765        121.9536
0.48                   0.9951602        121.4513
0.484                  0.9956972        120.9484
0.488                  0.9969922        120.4246
0.492                  0.9988122        119.8639
0.496                   1.000831        119.2574
0.5                     1.002687        118.6049
0.504                    1.00405        117.9146
0.508                   1.004676        117.2016
0.512                   1.004453        116.4853
0.516                   1.003418         115.786
0.52                     1.00175        115.1215
0.524                  0.9997446        114.5039
0.528                  0.9977573        113.9374
0.532                  0.9961448        113.4176
0.536                  0.9951991        112.9317
0.54                   0.9950933        112.4607
0.544                  0.9958495        111.9834
0.548                  0.9973335        111.4798
0.552                  0.9992799         110.935
0.556                   1.001341        110.3421
0.56                    1.003147        109.7029
0.564                   1.004378        109.0277
0.568                   1.004811        108.3334
0.572                   1.004368        107.6404
0.576                   1.003121        106.9692
0.58                    1.001288         106.337
0.584                  0.9991911        105.7546
0.588                  0.9972036        105.2243
0.592                  0.9956833        104.7392
0.596                  0.9949066        104.2846
0.6                    0.9950182        103.8399
0.604                   0.996002        103.3831
0.608                  0.9976844        102.8944
0.612                  0.9997654        102.3603
0.616                   1.001873        101.7755
0.62                    1.003632        101.1442
0.624                   1.004727        100.4788
0.628                   1.004961        99.79809
0.632                   1.004286        99.12351
0.636                   1.002816        98.47596
0.64                    1.000807          97.872
0.644                  0.9986107        97.32098
0.648                  0.9966199        96.82319
0.652                  0.9951937        96.36942
0.656                  0.9945932        95.94253
0.66                   0.9949325         95.5204
0.664                   0.996156        95.08007
0.668                  0.9980475        94.60209
0.672                    1.00027        94.07406
0.676                   1.002427        93.49281
0.68                    1.004133        92.86482
0.684                   1.005082        92.20493
0.688                     1.0051         91.5337
0.692                   1.004176        90.87393
0.696                   1.002466        90.24683
0.7                     1.000266        89.66836
0.704                   0.997964        89.14635
0.708                  0.9959706        88.67881
0.712                  0.9946475        88.25399
0.716                  0.9942393        87.85225
0.72                    0.994827        87.44963
0.724                  0.9963113        87.02227
0.728                  0.9984302        86.55102
0.732                   1.000807        86.02479
0.736                   1.003017        85.44262
0.74                    1.004664         84.8135
0.744                   1.005453        84.15485
0.748                   1.005235        83.48935
0.752                    1.00404        82.84111
0.756                   1.002067        82.23177
0.76                   0.9996608        81.67664
0.764                  0.9972444        81.18183
0.768                  0.9952513         80.7429
0.772                  0.9940451        80.34519
0.776                  0.9938516        79.96636
0.78                   0.9947147        79.58037
0.784                  0.9964875        79.16245
0.788                  0.9988566        78.69373
0.792                   1.001401        78.16469
0.796                   1.003665        77.57672
0.8                     1.005244        76.94173
0.804                   1.005851         76.2799
0.808                   1.005367        75.61623
0.812                   1.003866         74.9764
0.816                     1.0016        74.38248
0.82                   0.9989627          73.849
0.824                    0.99642         73.3802
0.828                  0.9944298        72.96879
0.832                  0.9933573        72.59692
0.836                  0.9934071        72.23912
0.84                   0.9945814         71.8671
0.844                  0.9966782        71.45499
0.848                  0.9993269        70.98437
0.852                   1.002056        70.44745
0.856                   1.004378        69.84836
0.86                    1.005875        69.20219
0.864                   1.006271         68.5323
0.868                   1.005483        67.86633
0.872                   1.003633        67.23172
0.876                   1.001033        66.65099
0.88                   0.9981345        66.13788
0.884                  0.9954515        65.69436
0.888                  0.9934689        65.30998
0.892                  0.9925549        64.96306
0.896                  0.9928884        64.62465
0.9                    0.9944234        64.26378
0.904                  0.9968946        63.85345
0.908                  0.9998652        63.37572
0.912                   1.002807        62.82483
0.916                   1.005192        62.20805
0.92                    1.006591        61.54418
0.924                   1.006741        60.86022
0.928                   1.005597         60.1869
0.932                    1.00334        59.55366
0.936                    1.00035        58.98363
0.94                   0.9971478        58.48957
0.944                   0.994302        58.07091
0.948                  0.9923307        57.71336
0.952                  0.9916046        57.39086
0.956                  0.9922732         57.0702
0.96                    0.994233        56.71736
0.964                  0.9971445        56.30396
0.968                   1.000493        55.81267
0.972                   1.003681        55.24013
0.976                   1.006138        54.59734
0.98                    1.007415        53.90744
0.984                   1.007266        53.20171
0.988                   1.005693         52.5146
0.992                   1.002944        51.87796
0.996                  0.9994818        51.31579
1                       0.995909        50.83969
1.004                  0.9928625         50.4461
1.008                  0.9909018         50.1161
1.012                  0.9904007        49.81822
1.016                  0.9914738        49.51415
1.02                   0.9939489        49.16603
1.024                  0.9973958        48.74383
1.028                   1.001205        48.23088
1.032                   1.004696        47.62675
1.036                   1.007242        46.94687
1.04                    1.008372        46.21965
1.044                   1.007858        45.48166
1.048                   1.005756        44.77185
1.052                   1.002397        44.12527
1.056                   0.998347        43.56708
1.06                   0.9943096        43.10767
1.064                  0.9910088        42.73978
1.068                  0.9890574        42.43876
1.072                  0.9888368        42.16631
1.076                  0.9904193        41.87755
1.08                   0.9935472         41.5297
1.084                  0.9976768        41.09048
1.088                   1.002078        40.54404
1.092                   1.005963        39.89344
1.096                   1.008631        39.15968
1.1                     1.009582        38.37774
1.104                   1.008604        37.59095
1.108                   1.005818        36.84422
1.112                   1.001663         36.1769
1.116                   0.996832        35.61606
1.12                   0.9921654        35.17083
1.124                  0.9885047        34.82944
1.128                  0.9865376        34.55979
1.132                  0.9866617        34.31447
1.136                  0.9888989        34.03971
1.14                   0.9928814        33.68593
1.144                  0.9979167         33.2176
1.148                   1.003113         32.6196
1.152                   1.007539         31.8994
1.156                   1.010387        31.08513
1.16                    1.011108        30.22046
1.164                   1.009509        29.35778
1.168                   1.005789        28.55029
1.172                   1.000525         27.8438
1.176                  0.9945871        27.26864
1.18                   0.9890065        26.83302
1.184                  0.9847963        26.51932
1.188                  0.9827622        26.28521
1.192                  0.9833374        26.07027
1.196                  0.9864833        25.80756
1.2                    0.9916839        25.43714
1.204                  0.9980366         24.9181
1.208                   1.004417        24.23571
1.212                   1.009679        23.40319
1.216                   1.012851         22.4582
1.22                    1.013296        21.45648
1.224                   1.010823        20.46365
1.228                   1.005733        19.54553
1.232                  0.9987878        18.75845
1.236                  0.9911173        18.13925
1.24                   0.9840451        17.69651
1.244                  0.9788645        17.40521
1.248                  0.9765896        17.20784
1.252                  0.9777399        17.02329
1.256                  0.9822103        16.76284
1.26                   0.9892718        16.34869
1.264                     0.9977        15.72966
1.268                   1.005999        14.88989
1.272                   1.012663        13.84976
1.276                   1.016429         12.6607
1.28                    1.016478        11.39666
1.284                   1.012573        10.14395
1.288                   1.005125        8.990044
1.292                  0.9951657        8.011415
1.296                  0.9842387         7.26004
1.3                    0.9741837        6.750052
1.304                  0.9668308        6.447828
1.308                  0.9636456        6.270764
1.312                  0.9653968        6.098997
1.316                  0.9719484        5.799464
1.32                   0.9822447        5.255117
1.324                  0.9944974        4.389037
1.328                   1.006511        3.176457
1.332                   1.016059        1.644321
1.336                   1.021233      -0.1373112
1.34                     1.02072       -2.066977
1.344                    1.01401       -4.023785
1.348                    1.00151       -5.879503
1.352                  0.9845799       -7.512667
1.356                  0.9654537       -8.827384
1.36                   0.9470174       -9.778138
1.364                   0.932401       -10.39717
1.368                  0.9243892       -10.81332
1.372                  0.9247522       -11.24607
1.376                  0.9337077       -11.96593
1.38                   0.9497346       -13.23331
1.384                  0.9698144       -15.24494
1.388                  0.9899711       -18.11095
1.392                   1.005888       -21.86364
1.396                    1.01343       -26.48357
1.4                     1.009017       -31.92823
1.404                  0.9898564       -38.15615
1.408                  0.9540799       -45.14659
1.412                  0.9008253       -52.91886
1.416                  0.8303028        -61.5587
1.42                   0.7438895       -71.26481
1.424                   0.644349       -82.44312
1.428                   0.536407        -95.9094
1.432                  0.4283238        -113.314
1.436                  0.3359518       -137.6934
1.44                   0.2883996        -171.494
1.444                  0.3121981        152.4069
1.448                  0.3927756        124.7205
1.452                  0.4977556        105.2708
1.456                  0.6070232        90.65938
1.46                   0.7102948        78.78998
1.464                  0.8018687        68.61565
1.468                  0.8783886        59.61713
1.472                   0.938024        51.53646
1.476                  0.9801614        44.25431
1.48                     1.00528        37.73078
1.484                   1.014879        31.97397
1.488                   1.011411        27.01936
1.492                  0.9981641         22.9112
1.496                  0.9790765        19.68062
1.5                    0.9584243        17.31869
1.504                  0.9403606        15.74837
1.508                  0.9283292        14.80719
1.512                  0.9244774        14.25651
1.516                  0.9292777        13.82416
1.52                   0.9415416        13.26539
1.524                  0.9588326        12.41327
1.528                  0.9781035        11.19773
1.532                  0.9963264        9.635055
1.536                   1.010973         7.80253
1.54                    1.020303        5.812221
1.544                   1.023495         3.79005
1.548                    1.02066        1.860439
1.552                   1.012755       0.1340917
