! TOUCHSTONE file generated by CST MICROWAVE STUDIO
! Date and time: Thu Jun  9 08:55:03 2022
! Project name: AppElm_antenne_patch_Alumina.cst
! Parameters = {L=35.075; W=41.8; e=0.035; h=1.6; lambda=0.190476; ls=90; w0=1.12; w1=0.373; ws=90; y0=14; y1=10}
! Header version: 2018
! Port assignment regex: !\s*Touchstone port\s*([0-9]+)\s*=\s*(CST MWS port|CST DS port)\s*([0-9]+|Zmin|Zmax)\s*\(\"(.*)\"\)(\s*mode\s*([0-9]+))?.*
! Touchstone port assignment:
! Touchstone port 1 = CST MWS port 1 ("")
# GHz S MA R 50
0                      0.9728216              -0
0.004                  0.9745153       -11.70541
0.008                  0.9793362       -23.25179
0.012                  0.9865533       -34.49344
0.016                  0.9950982        -45.3077
0.02                    1.003748       -55.59903
0.024                   1.011319       -65.29809
0.028                   1.016832       -74.35764
0.032                    1.01964       -82.74781
0.036                   1.019499        -90.4522
0.04                    1.016582       -97.46626
0.044                    1.01145       -103.7976
0.048                   1.004961       -109.4681
0.052                  0.9981506       -114.5168
0.056                  0.9920726       -119.0016
0.06                   0.9876324        -122.999
0.064                  0.9854416       -126.5991
0.068                  0.9857191       -129.8971
0.072                  0.9882671       -132.9834
0.076                  0.9925231       -135.9326
0.08                   0.9976774       -138.7969
0.084                   1.002824       -141.6035
0.088                   1.007117       -144.3559
0.092                   1.009902       -147.0391
0.096                   1.010804       -149.6258
0.1                     1.009774       -152.0836
0.104                   1.007078       -154.3822
0.108                   1.003248       -156.4993
0.112                  0.9989866       -158.4263
0.116                  0.9950458       -160.1708
0.12                   0.9921015       -161.7572
0.124                  0.9906346       -163.2234
0.128                  0.9908488       -164.6156
0.132                  0.9926424       -165.9798
0.136                  0.9956369       -167.3545
0.14                   0.9992576       -168.7647
0.144                   1.002844       -170.2189
0.148                   1.005769       -171.7096
0.152                   1.007547        -173.216
0.156                   1.007904       -174.7088
0.16                    1.006821       -176.1558
0.164                   1.004528       -177.5275
0.168                   1.001459       -178.8021
0.172                  0.9981755       -179.9697
0.176                  0.9952676        178.9658
0.18                   0.9932495        177.9865
0.184                  0.9924662        177.0637
0.188                   0.993033        176.1633
0.192                  0.9948179        175.2516
0.196                  0.9974722        174.3017
0.2                       1.0005        173.2981
0.204                   1.003351        172.2387
0.208                   1.005524        171.1345
0.212                   1.006647        170.0066
0.216                    1.00654        168.8823
0.22                    1.005243        167.7904
0.224                   1.003003        166.7562
0.228                   1.000231         165.797
0.232                  0.9974305        164.9193
0.236                  0.9951045         164.117
0.24                   0.9936685        163.3723
0.244                   0.993373        162.6591
0.248                  0.9942582        161.9473
0.252                  0.9961489        161.2092
0.256                  0.9986901        160.4239
0.26                    1.001417        159.5814
0.264                   1.003837        158.6836
0.268                   1.005525        157.7439
0.272                   1.006189        156.7837
0.276                   1.005721        155.8293
0.28                    1.004214         154.907
0.284                   1.001944        154.0383
0.288                  0.9993204        153.2372
0.292                  0.9968165        152.5063
0.296                  0.9948832        151.8371
0.3                    0.9938677        151.2107
0.304                   0.993949        150.6014
0.308                  0.9951057        149.9816
0.312                  0.9971208        149.3268
0.316                   0.999624        148.6204
0.32                    1.002162        147.8563
0.324                   1.004282        147.0397
0.328                   1.005608        146.1859
0.332                    1.00591         145.317
0.336                   1.005139        144.4587
0.34                    1.003437        143.6352
0.344                   1.001108        142.8658
0.348                  0.9985698        142.1608
0.352                  0.9962784        141.5199
0.356                  0.9946467        140.9321
0.36                   0.9939691         140.377
0.364                  0.9943665        139.8289
0.368                  0.9957637        139.2616
0.372                  0.9979046        138.6532
0.376                   1.000401        137.9903
0.38                    1.002803        137.2699
0.384                   1.004683        136.5001
0.388                   1.005709        135.6979
0.392                     1.0057        134.8866
0.396                    1.00466        134.0911
0.4                     1.002773        133.3344
0.404                   1.000375        132.6335
0.408                  0.9978936        131.9958
0.412                  0.9957739        131.4183
0.416                   0.994399        130.8874
0.42                   0.9940181        130.3812
0.424                  0.9947007        129.8739
0.428                  0.9963223          129.34
0.432                  0.9985889          128.76
0.436                   1.001092        128.1229
0.44                    1.003384         127.429
0.444                   1.005056        126.6887
0.448                   1.005812        125.9209
0.452                   1.005518        125.1497
0.456                   1.004225           124.4
0.46                    1.002159        123.6936
0.464                  0.9996861        123.0451
0.468                  0.9972467        122.4597
0.472                  0.9952789        121.9314
0.476                  0.9941394        121.4443
0.48                   0.9940361         120.975
0.484                  0.9949899        120.4971
0.488                  0.9968291        119.9861
0.492                  0.9992226        119.4241
0.496                   1.001741         118.803
0.5                     1.003935        118.1256
0.504                   1.005413        117.4049
0.508                   1.005913        116.6616
0.512                   1.005345        115.9207
0.516                   1.003804         115.207
0.52                    1.001561        114.5412
0.524                  0.9990095        113.9362
0.528                  0.9966059        113.3943
0.532                  0.9947823        112.9071
0.536                  0.9938705         112.456
0.54                   0.9940389        112.0161
0.544                  0.9952604        111.5605
0.548                  0.9973169        111.0655
0.552                  0.9998396        110.5149
0.556                   1.002377        109.9031
0.56                    1.004477        109.2357
0.564                   1.005766         108.528
0.568                   1.006012        107.8027
0.572                   1.005169        107.0857
0.576                   1.003379         106.402
0.58                    1.000954         105.771
0.584                  0.9983218        105.2037
0.588                  0.9959518           104.7
0.592                  0.9942721        104.2485
0.596                  0.9935899        103.8284
0.6                    0.9940338        103.4129
0.604                  0.9955282        102.9746
0.608                  0.9978072        102.4904
0.612                   1.000463        101.9462
0.616                   1.003022        101.3386
0.62                    1.005028        100.6759
0.624                   1.006123         99.9763
0.628                   1.006109         99.2642
0.632                   1.004983        98.56662
0.636                   1.002934        97.90848
0.64                    1.000321        97.30835
0.644                  0.9976026        96.77512
0.648                  0.9952661        96.30603
0.652                  0.9937344        95.88682
0.656                  0.9932901        95.49395
0.66                   0.9940203        95.09897
0.664                  0.9957992        94.67386
0.668                  0.9983105         94.1963
0.672                   1.001106        93.65384
0.676                   1.003688         93.0459
0.68                    1.005595        92.38362
0.684                   1.006486        91.68768
0.688                   1.006198        90.98471
0.692                   1.004772        90.30284
0.696                    1.00245        89.66706
0.7                    0.9996357        89.09491
0.704                  0.9968255        88.59316
0.708                  0.9945234        88.15622
0.712                  0.9931484        87.76674
0.716                   0.992957        87.39837
0.72                   0.9939923        87.02073
0.724                  0.9960747        86.60515
0.728                  0.9988347        86.13012
0.732                    1.00178        85.58507
0.736                   1.004387        84.97221
0.74                    1.006189        84.30574
0.744                   1.006863         83.6092
0.748                   1.006279        82.91146
0.752                    1.00453        82.24191
0.756                   1.001911        81.62567
0.76                   0.9988769         81.0792
0.764                   0.995965        80.60705
0.768                  0.9936981        80.20056
0.772                  0.9924921        79.83892
0.776                  0.9925749        79.49278
0.78                   0.9939424        79.12962
0.784                   0.996357        78.72004
0.788                  0.9993902         78.2433
0.792                   1.002502        77.69095
0.796                   1.005139        77.06818
0.8                     1.006829        76.39251
0.804                   1.007265         75.6906
0.808                   1.006358        74.99378
0.812                   1.004251        74.33298
0.816                   1.001301        73.73354
0.82                   0.9980215        73.21076
0.824                  0.9949922        72.76677
0.828                  0.9927608         72.3895
0.832                  0.9917392        72.05438
0.836                  0.9921259        71.72855
0.84                   0.9938642         71.3771
0.844                  0.9966516        70.96974
0.848                  0.9999944        70.48655
0.852                   1.003298        69.92139
0.856                   1.005975         69.2827
0.86                    1.007544        68.59169
0.864                   1.007717        67.87856
0.868                   1.006445        67.17752
0.872                   1.003932        66.52127
0.876                   1.000603        65.93554
0.88                   0.9970352        65.43448
0.884                  0.9938631        65.01751
0.888                  0.9916617        64.66879
0.892                  0.9908425        64.35932
0.896                  0.9915712        64.05224
0.9                    0.9937331        63.70972
0.904                  0.9969512         63.3004
0.908                   1.000657         62.8051
0.912                   1.004191        62.22027
0.916                   1.006924        61.55802
0.92                    1.008363        60.84377
0.924                   1.008237         60.1118
0.928                   1.006543        59.39981
0.932                   1.003553         58.7427
0.936                  0.9997693        58.16692
0.94                   0.9958494        57.68547
0.944                  0.9924907        57.29479
0.948                  0.9903068        56.97455
0.952                  0.9897112         56.6906
0.956                  0.9908351        56.40113
0.96                   0.9934965        56.06473
0.964                  0.9972321        55.64844
0.968                   1.001382        55.13391
0.972                   1.005209         54.5203
0.976                    1.00803        53.82403
0.98                    1.009331        53.07549
0.984                   1.008858        52.31397
0.988                   1.006659         51.5814
0.992                   1.003084        50.91578
0.996                  0.9987323        50.34473
1                      0.9943571         49.8802
1.004                  0.9907399        49.51531
1.008                   0.988547        49.22433
1.012                  0.9882018        48.96667
1.016                  0.9897983        48.69417
1.02                   0.9930755        48.36066
1.024                  0.9974642        47.93086
1.028                    1.00219        47.38698
1.032                   1.006414        46.73134
1.036                   1.009379        45.98545
1.04                    1.010539        45.18581
1.044                   1.009651        44.37806
1.048                   1.006821        43.60985
1.052                   1.002493        42.92349
1.056                  0.9973865        42.34875
1.06                   0.9923844        41.89687
1.064                  0.9883825        41.55712
1.068                  0.9861262        41.29705
1.072                  0.9860632        41.06753
1.076                   0.988249        40.81178
1.08                   0.9923267        40.47675
1.084                  0.9975896        40.02351
1.088                   1.003111        39.43433
1.092                   1.007911         38.7152
1.096                   1.011123         37.8939
1.1                     1.012145        37.01492
1.104                   1.010737        36.13243
1.108                   1.007066        35.30223
1.112                   1.001696        34.57323
1.116                  0.9955094        33.97914
1.12                    0.989569        33.53139
1.124                   0.984943        33.21481
1.128                  0.9825048        32.98802
1.132                   0.982757        32.78976
1.136                  0.9857193        32.55046
1.14                    0.990912        32.20619
1.144                  0.9974395        31.71171
1.148                   1.004155        31.04828
1.152                   1.009863        30.22603
1.156                   1.013527        29.28104
1.16                    1.014437         28.2688
1.164                   1.012328        27.25583
1.168                   1.007437        26.31045
1.172                   1.000483        25.49269
1.176                  0.9925808        24.84406
1.18                   0.9850746        24.37849
1.184                  0.9793152        24.07597
1.188                   0.976408        23.88237
1.192                  0.9769816        23.71744
1.196                  0.9810388        23.48999
1.2                     0.987934        23.11704
1.204                  0.9964864        22.54068
1.208                   1.005196         21.7383
1.212                   1.012507        20.72442
1.216                   1.017069         19.5464
1.22                    1.017952        18.27605
1.224                   1.014793        16.99932
1.228                    1.00788        15.80582
1.232                  0.9981408        14.77644
1.236                  0.9870517        13.97027
1.24                   0.9764406        13.41088
1.244                  0.9681988        13.07511
1.248                  0.9639265        12.88941
1.252                  0.9645852        12.73862
1.256                  0.9702514        12.48805
1.26                   0.9800566        12.01278
1.264                  0.9923348        11.22402
1.268                   1.004927        10.08414
1.272                   1.015558        8.608649
1.276                    1.02219        6.858693
1.28                    1.023331        4.929632
1.284                   1.018241        2.939016
1.288                   1.007083        1.014852
1.292                   0.990968      -0.7174449
1.296                  0.9719188        -2.15208
1.3                     0.952691       -3.225944
1.304                  0.9364224       -3.946117
1.308                  0.9260938       -4.413021
1.312                  0.9238652       -4.823541
1.316                   0.930473       -5.441136
1.32                   0.9449215       -6.538148
1.324                  0.9646056       -8.336475
1.328                  0.9857853       -10.97427
1.332                   1.004203       -14.50662
1.336                   1.015646       -18.92855
1.34                    1.016364       -24.20438
1.344                   1.003337       -30.29382
1.348                  0.9744439       -37.17297
1.352                  0.9285547       -44.85347
1.356                  0.8656109       -53.40575
1.36                   0.7867202        -62.9966
1.364                  0.6943496       -73.95932
1.368                   0.592786       -86.93173
1.372                  0.4892673       -103.1147
1.376                   0.396597       -124.5736
1.38                    0.336924       -153.3714
1.384                  0.3355934        173.3814
1.388                  0.3933717        144.2714
1.392                  0.4853583        122.5243
1.396                   0.588995        106.1545
1.4                     0.691145           93.06
1.404                  0.7843845        82.00807
1.408                  0.8643084         72.3428
1.412                  0.9283562        63.72095
1.416                  0.9753342        55.96988
1.42                    1.005216        49.01566
1.424                   1.019048        42.84466
1.428                   1.018871        37.48012
1.432                   1.007637        32.96351
1.436                  0.9890507        29.33407
1.44                   0.9673187        26.60324
1.444                  0.9467499         24.7249
1.448                  0.9312043        23.57032
1.452                   0.923466        22.92372
1.456                  0.9247327        22.51202
1.46                   0.9344412        22.06345
1.464                   0.950531        21.36828
1.468                  0.9700324        20.31314
1.472                  0.9897407        18.88107
1.476                    1.00678        17.12926
1.48                    1.018979        15.16103
1.484                   1.025065        13.10198
1.488                   1.024721        11.08244
1.492                   1.018552        9.224453
1.496                   1.007954        7.630239
1.5                     0.994924        6.370321
1.504                  0.9817714         5.47141
1.508                  0.9707717        4.907107
1.512                  0.9637822        4.596807
1.516                  0.9619046        4.417636
1.52                   0.9652871        4.229373
1.524                  0.9731333        3.905082
1.528                  0.9839137        3.356569
1.532                  0.9957048        2.546848
1.536                   1.006558        1.488968
1.54                    1.014814       0.2357885
1.544                   1.019327       -1.133715
1.548                    1.01959       -2.528001
1.552                   1.015767       -3.855158
