! TOUCHSTONE file generated by CST MICROWAVE STUDIO
! Date and time: Thu Jun  9 08:54:55 2022
! Project name: AppElm_antenne_patch_Alumina.cst
! Parameters = {L=22.875; W=41.8; e=0.035; h=1.6; lambda=0.190476; ls=90; w0=1.12; w1=0.373; ws=90; y0=14; y1=10}
! Header version: 2018
! Port assignment regex: !\s*Touchstone port\s*([0-9]+)\s*=\s*(CST MWS port|CST DS port)\s*([0-9]+|Zmin|Zmax)\s*\(\"(.*)\"\)(\s*mode\s*([0-9]+))?.*
! Touchstone port assignment:
! Touchstone port 1 = CST MWS port 1 ("")
# GHz S MA R 50
0                      0.9978366              -0
0.004                  0.9979968       -8.206915
0.008                  0.9984493       -16.35348
0.012                   0.999114       -24.38154
0.016                  0.9998739       -32.23714
0.02                    1.000595       -39.87211
0.024                   1.001151        -47.2454
0.028                   1.001444       -54.32382
0.032                   1.001423       -61.08253
0.036                   1.001089       -67.50519
0.04                    1.000501       -73.58385
0.044                   0.999759       -79.31867
0.048                  0.9989919       -84.71721
0.052                  0.9983318       -89.79358
0.056                  0.9978917       -94.56712
0.06                   0.9977461       -99.06068
0.064                  0.9979177       -103.2989
0.068                  0.9983727       -107.3062
0.072                  0.9990288       -111.1052
0.076                   0.999769       -114.7153
0.08                    1.000462        -118.152
0.084                   1.000988       -121.4269
0.088                   1.001256       -124.5479
0.092                   1.001223       -127.5206
0.096                   1.000898        -130.349
0.1                     1.000342       -133.0373
0.104                  0.9996586       -135.5906
0.108                   0.998971       -138.0163
0.112                  0.9984037       -140.3239
0.116                  0.9980598       -142.5252
0.12                   0.9980015       -144.6334
0.124                  0.9982399        -146.662
0.128                  0.9987324       -148.6235
0.132                  0.9993914       -150.5284
0.136                     1.0001       -152.3841
0.14                    1.000733       -154.1947
0.144                   1.001179       -155.9609
0.148                    1.00136       -157.6809
0.152                   1.001247       -159.3511
0.156                   1.000862       -160.9677
0.16                    1.000275       -162.5279
0.164                  0.9995937       -164.0305
0.168                  0.9989404       -165.4773
0.172                  0.9984338       -166.8727
0.176                   0.998166       -168.2235
0.18                   0.9981855       -169.5385
0.184                  0.9984901       -170.8264
0.188                  0.9990253       -172.0955
0.192                  0.9996958       -173.3518
0.196                   1.000382       -174.5987
0.2                     1.000962       -175.8363
0.204                   1.001334       -177.0619
0.208                   1.001431       -178.2709
0.212                   1.001238       -179.4574
0.216                   1.000789        179.3845
0.22                    1.000165        178.2589
0.224                  0.9994795        177.1681
0.228                  0.9988548        176.1111
0.232                  0.9984039        175.0843
0.236                  0.9982083        174.0815
0.24                   0.9983037        173.0954
0.244                  0.9986738        172.1181
0.248                  0.9992522        171.1431
0.252                  0.9999358        170.1658
0.256                   1.000602        169.1847
0.26                    1.001133        168.2011
0.264                   1.001434        167.2191
0.268                   1.001451        166.2446
0.272                   1.001181        165.2842
0.276                   1.000673        164.3439
0.28                    1.000017        163.4282
0.284                  0.9993315        162.5389
0.288                  0.9987391        161.6749
0.292                  0.9983463        160.8323
0.296                  0.9982248        160.0049
0.3                    0.9983966        159.1853
0.304                  0.9988315        158.3664
0.308                  0.9994517        157.5423
0.312                   1.000146        156.7094
0.316                   1.000792        155.8674
0.32                    1.001272        155.0186
0.324                   1.001501        154.1679
0.328                   1.001439        153.3219
0.332                   1.001096        152.4874
0.336                   1.000534        151.6703
0.34                   0.9998514        150.8748
0.344                  0.9991721        150.1022
0.348                  0.9986176        149.3506
0.352                  0.9982881        148.6158
0.356                  0.9982434        147.8911
0.36                    0.998492        147.1692
0.364                  0.9989901        146.4432
0.368                  0.9996486        145.7079
0.372                    1.00035        144.9606
0.376                   1.000968        144.2018
0.38                    1.001393        143.4346
0.384                   1.001548        142.6648
0.388                   1.001406        141.8993
0.392                   1.000991        141.1449
0.396                   1.000377        140.4074
0.4                    0.9996736        139.6904
0.404                  0.9990069        138.9944
0.408                  0.9984967         138.317
0.412                   0.998235         137.653
0.416                    0.99827        136.9958
0.42                   0.9985955        136.3377
0.424                   0.999154        135.6722
0.428                  0.9998457        134.9948
0.432                   1.000546        134.3035
0.436                   1.001131        133.5997
0.44                    1.001494        132.8874
0.444                   1.001571        132.1729
0.448                   1.001346        131.4633
0.452                   1.000861        130.7655
0.456                     1.0002         130.085
0.46                   0.9994823        129.4246
0.464                  0.9988359         128.784
0.468                  0.9983772        128.1602
0.472                    0.99819        127.5473
0.476                  0.9983081         126.938
0.48                   0.9987113        126.3251
0.484                  0.9993276        125.7022
0.488                   1.000047        125.0653
0.492                    1.00074        124.4135
0.496                   1.001282        123.7489
0.5                     1.001577        123.0764
0.504                    1.00157        122.4028
0.508                   1.001262        121.7354
0.512                   1.000708         121.081
0.516                   1.000005        120.4445
0.52                   0.9992794         119.828
0.524                  0.9986615        119.2306
0.528                  0.9982624         118.648
0.532                  0.9981549        118.0741
0.536                  0.9983593        117.5012
0.54                   0.9988392        116.9219
0.544                   0.999509        116.3304
0.548                   1.000248        115.7235
0.552                   1.000925        115.1011
0.556                   1.001416        114.4661
0.56                    1.001634        113.8243
0.564                   1.001539        113.1829
0.568                   1.001146        112.5494
0.572                   1.000525        111.9302
0.576                  0.9997856        111.3298
0.58                   0.9990606        110.7493
0.584                  0.9984802         110.187
0.588                  0.9981492        109.6379
0.592                  0.9981282         109.095
0.596                  0.9984217        108.5505
0.6                    0.9989773        107.9972
0.604                  0.9996957        107.4298
0.608                   1.000448        106.8457
0.612                   1.001098        106.2459
0.616                   1.001529        105.6343
0.62                    1.001664        105.0172
0.624                   1.001475        104.4022
0.628                   1.000997        103.7971
0.632                   1.000313        103.2078
0.636                  0.9995445         102.638
0.64                   0.9988299        102.0882
0.644                  0.9982979        101.5554
0.648                  0.9980447         101.034
0.652                  0.9981168        100.5164
0.656                  0.9985023        99.99451
0.66                   0.9991323        99.46147
0.664                  0.9998938        98.91251
0.668                    1.00065         98.3461
0.672                   1.001264          97.764
0.676                   1.001626        97.17109
0.68                    1.001668        96.57443
0.684                   1.001383        95.98198
0.688                    1.00082        95.40125
0.692                   1.000077        94.83792
0.696                  0.9992882        94.29484
0.7                    0.9985946        93.77149
0.704                  0.9981214        93.26396
0.708                  0.9979548        92.76573
0.712                  0.9981257        92.26871
0.716                  0.9986042        91.76486
0.72                   0.9993048        91.24748
0.724                   1.000101        90.71267
0.728                   1.000851        90.15976
0.732                   1.001417        89.59159
0.736                   1.001698        89.01396
0.74                    1.001641        88.43454
0.744                   1.001255        87.86154
0.748                   1.000607        87.30234
0.752                   0.999812        86.76202
0.756                   0.999012        86.24254
0.76                   0.9983505        85.74232
0.764                  0.9979475        85.25648
0.768                  0.9978765        84.77764
0.772                  0.9981514        84.29732
0.776                  0.9987237        83.80747
0.78                   0.9994904         83.3019
0.784                   1.000314        82.77749
0.788                   1.001045        82.23467
0.792                   1.001552        81.67735
0.796                   1.001742        81.11219
0.8                     1.001579        80.54745
0.804                    1.00109        79.99152
0.808                   1.000362        79.45145
0.812                  0.9995221        78.93164
0.816                  0.9987223        78.43309
0.82                   0.9981062        77.95304
0.824                  0.9977857        77.48561
0.828                  0.9978198        77.02266
0.832                  0.9982035        76.55536
0.836                  0.9988686        76.07583
0.84                   0.9996955        75.57848
0.844                   1.000535        75.06114
0.848                   1.001236        74.52538
0.852                   1.001671        73.97615
0.856                   1.001759        73.42102
0.86                    1.001484        72.86877
0.864                   1.000891        72.32782
0.868                   1.000085        71.80478
0.872                  0.9992099        71.30325
0.876                   0.998422        70.82309
0.88                   0.9978637        70.36044
0.884                  0.9976367        69.90833
0.888                  0.9977835        69.45794
0.892                  0.9982785        69.00023
0.896                  0.9990333        68.52757
0.9                    0.9999119        68.03514
0.904                   1.000756        67.52182
0.908                   1.001412        66.99037
0.912                   1.001761        66.44685
0.916                   1.001737        65.89967
0.92                    1.001343        65.35802
0.924                   1.000646        64.83023
0.928                  0.9997687        64.32236
0.932                  0.9988676        63.83706
0.936                   0.998105        63.37296
0.94                   0.9976184        62.92504
0.944                  0.9974971        62.48526
0.948                  0.9977643        62.04422
0.952                   0.998373        61.59274
0.956                  0.9992139        61.12363
0.96                    1.000136        60.63296
0.964                   1.000971        60.12078
0.968                   1.001569        59.59109
0.972                    1.00182        59.05106
0.976                   1.001676         58.5099
0.98                    1.001159        57.97706
0.984                    1.00036         57.4607
0.988                  0.9994197        56.96616
0.992                  0.9985059        56.49499
0.996                  0.9977833        56.04458
1                      0.9973834        55.60858
1.004                  0.9973796        55.17804
1.008                  0.9977745          54.743
1.012                  0.9984979        54.29433
1.016                    0.99942         53.8254
1.02                    1.000374        53.33332
1.024                   1.001188         52.8194
1.028                   1.001713        52.28895
1.032                   1.001853        51.75026
1.036                   1.001579        51.21317
1.04                    1.000936         50.6874
1.044                   1.000038        50.18071
1.048                  0.9990425        49.69761
1.052                  0.9981284        49.23841
1.056                  0.9974606        48.79916
1.06                   0.9971608        48.37223
1.064                  0.9972848        47.94776
1.068                  0.9978122        47.51533
1.072                  0.9986487        47.06602
1.076                  0.9996439        46.59393
1.08                    1.000618        46.09735
1.084                   1.001394        45.57894
1.088                   1.001831        45.04534
1.092                   1.001846         44.5059
1.096                   1.001434        43.97111
1.1                     1.000663        43.45071
1.104                  0.9996697        42.95199
1.108                  0.9986294        42.47844
1.112                  0.9977289        42.02904
1.116                  0.9971313         41.5984
1.12                    0.996946        41.17762
1.124                  0.9972084        40.75595
1.128                  0.9978732        40.32272
1.132                  0.9988212         39.8693
1.136                   0.999882         39.3907
1.14                    1.000864        38.88649
1.144                   1.001588        38.36084
1.148                   1.001922        37.82167
1.152                   1.001802        37.27938
1.156                   1.001245        36.74504
1.16                    1.000347        36.22821
1.164                  0.9992651        35.73562
1.168                  0.9981922        35.26953
1.172                  0.9973213         34.8275
1.176                  0.9968107        34.40264
1.18                   0.9967544         33.9848
1.184                  0.9971655        33.56244
1.188                  0.9979715        33.12468
1.192                  0.9990282        32.66346
1.196                   1.000145         32.1748
1.2                     1.001121        31.65972
1.204                   1.001778        31.12388
1.208                   1.001994        30.57659
1.212                   1.001727        30.02924
1.216                   1.001019        29.49324
1.22                   0.9999925        28.97805
1.224                  0.9988282         28.4895
1.228                  0.9977339         28.0286
1.232                  0.9969067        27.59133
1.236                  0.9964973        27.16925
1.24                   0.9965826        26.75097
1.244                  0.9971495        26.32425
1.248                  0.9980978        25.87821
1.252                  0.9992577        25.40537
1.256                    1.00042         24.9031
1.26                    1.001375        24.37385
1.264                   1.001947        23.82489
1.268                    1.00203        23.26692
1.272                   1.001603        22.71221
1.276                   1.000738        22.17251
1.28                   0.9995837        21.65693
1.284                   0.998344         21.1703
1.288                  0.9972403        20.71222
1.292                   0.996472        20.27698
1.296                  0.9961798        19.85456
1.3                    0.9964196        19.43234
1.304                  0.9971511        18.99747
1.308                  0.9982445        18.53922
1.312                   0.999504        18.05094
1.316                   1.000703        17.53128
1.32                    1.001623        16.98441
1.324                   1.002097        16.41919
1.328                   1.002034        15.84771
1.332                   1.001439        15.28311
1.336                   1.000413        14.73732
1.34                   0.9991332        14.21897
1.344                  0.9978266        13.73179
1.348                  0.9967268        13.27377
1.352                  0.9960332        12.83746
1.356                   0.995874         12.4112
1.36                   0.9962817        11.98118
1.364                  0.9971863        11.53404
1.368                  0.9984271         11.0593
1.372                  0.9997822        10.55129
1.376                   1.001007        10.01016
1.38                     1.00188          9.4418
1.384                    1.00224        8.856802
1.388                   1.002017        8.268595
1.392                   1.001243        7.691135
1.396                   1.000049        7.136481
1.4                    0.9986426         6.61265
1.404                  0.9972735        6.122096
1.408                  0.9961866        5.661125
1.412                  0.9955796        5.220421
1.416                  0.9955654        4.786639
1.42                   0.9961512         4.34482
1.424                  0.9972348        3.881161
1.428                   0.998624        3.385556
1.432                    1.00007        2.853441
1.436                   1.001312        2.286581
1.44                    1.002124        1.692716
1.444                   1.002355        1.084191
1.448                   1.001957       0.4758131
1.452                   1.000991       -0.117682
1.456                   0.999622      -0.6841894
1.46                   0.9980877       -1.216412
1.464                  0.9966599       -1.713281
1.468                  0.9955947       -2.180324
1.472                  0.9950867       -2.628823
1.476                  0.9952317       -3.073857
1.48                   0.9960089       -3.531554
1.484                  0.9972827       -4.016106
1.488                  0.9988269       -4.537153
1.492                   1.000365       -5.098045
1.496                   1.001621       -5.695285
1.5                     1.002365       -6.319188
1.504                   1.002458       -6.955585
1.508                   1.001874       -7.588245
1.512                   1.000707        -8.20165
1.516                  0.9991559       -8.783687
1.52                   0.9974902       -9.327848
1.524                  0.9960054       -9.834555
1.528                  0.9949685       -10.31129
1.532                  0.9945701       -10.77142
1.536                  0.9948876       -11.23183
1.54                   0.9958702       -11.70987
1.544                  0.9973464       -12.22012
1.548                  0.9990548       -12.77168
1.552                    1.00069       -13.36662
