! TOUCHSTONE file generated by CST MICROWAVE STUDIO
! Date and time: Thu Jun  9 08:54:59 2022
! Project name: AppElm_antenne_patch_Alumina.cst
! Parameters = {L=28.975; W=41.8; e=0.035; h=1.6; lambda=0.190476; ls=90; w0=1.12; w1=0.373; ws=90; y0=14; y1=10}
! Header version: 2018
! Port assignment regex: !\s*Touchstone port\s*([0-9]+)\s*=\s*(CST MWS port|CST DS port)\s*([0-9]+|Zmin|Zmax)\s*\(\"(.*)\"\)(\s*mode\s*([0-9]+))?.*
! Touchstone port assignment:
! Touchstone port 1 = CST MWS port 1 ("")
# GHz S MA R 50
0                      0.9850802              -0
0.004                  0.9859334        -9.96712
0.008                  0.9883761       -19.83495
0.012                   0.992077       -29.50968
0.016                  0.9965413       -38.90752
0.02                    1.001184       -47.95744
0.024                   1.005416       -56.60227
0.028                   1.008718       -64.79823
0.032                   1.010713       -72.51397
0.036                   1.011203       -79.72919
0.04                    1.010193       -86.43392
0.044                   1.007885       -92.62804
0.048                   1.004643       -98.32157
0.052                   1.000947       -103.5349
0.056                  0.9973202       -108.2992
0.06                   0.9942601       -112.6555
0.064                   0.992165       -116.6528
0.068                  0.9912787       -120.3451
0.072                  0.9916585        -123.787
0.076                  0.9931744       -127.0295
0.08                   0.9955355       -130.1152
0.084                  0.9983437       -133.0763
0.088                   1.001158       -135.9329
0.092                   1.003562       -138.6935
0.096                   1.005225       -141.3572
0.1                     1.005941       -143.9163
0.104                   1.005659       -146.3596
0.108                   1.004476       -148.6758
0.112                   1.002618       -150.8567
0.116                   1.000407       -152.8995
0.12                   0.9982028       -154.8083
0.124                  0.9963497       -156.5948
0.128                  0.9951243       -158.2772
0.132                  0.9946922        -159.878
0.136                  0.9950872       -161.4215
0.14                   0.9962093       -162.9302
0.144                  0.9978476        -164.422
0.148                  0.9997189       -165.9086
0.152                   1.001515       -167.3937
0.156                   1.002955       -168.8742
0.16                    1.003825       -170.3412
0.164                   1.004011       -171.7823
0.168                    1.00351       -173.1836
0.172                   1.002429       -174.5327
0.176                   1.000965       -175.8206
0.18                   0.9993661       -177.0435
0.184                  0.9978986       -178.2036
0.188                  0.9967975       -179.3087
0.192                  0.9962312        179.6285
0.196                  0.9962757        178.5929
0.2                    0.9969041        177.5689
0.204                  0.9979946        176.5431
0.208                  0.9993538        175.5062
0.212                   1.000751        174.4542
0.216                   1.001955        173.3887
0.22                    1.002777        172.3162
0.224                   1.003093        171.2466
0.228                   1.002867        170.1918
0.232                    1.00215        169.1633
0.236                   1.001074        168.1702
0.24                   0.9998252         167.218
0.244                  0.9986144        166.3074
0.248                  0.9976417        165.4345
0.252                  0.9970634        164.5907
0.256                  0.9969666         163.765
0.26                   0.9973562        162.9452
0.264                  0.9981562        162.1201
0.268                  0.9992236        161.2816
0.272                   1.000375        160.4252
0.276                   1.001417        159.5516
0.28                    1.002179        158.6651
0.284                   1.002541         157.774
0.288                   1.002452        156.8881
0.292                   1.001936        156.0175
0.296                   1.001087         155.171
0.3                     1.000053        154.3544
0.304                  0.9990104        153.5696
0.308                  0.9981335        152.8142
0.312                  0.9975672        152.0823
0.316                  0.9974016        151.3648
0.32                   0.9976582        150.6517
0.324                  0.9982862        149.9331
0.328                  0.9991741        149.2015
0.332                   1.000169        148.4524
0.336                   1.001101        147.6854
0.34                    1.001816         146.904
0.344                   1.002198        146.1147
0.348                   1.002188        145.3262
0.352                   1.001793        144.5476
0.356                   1.001086        143.7871
0.36                    1.000189        143.0504
0.364                  0.9992551        142.3401
0.368                  0.9984428         141.655
0.372                   0.997888        140.9904
0.376                  0.9976812        140.3386
0.38                   0.9978533        139.6907
0.384                  0.9983704         139.038
0.388                  0.9991406        138.3731
0.392                   1.000031        137.6917
0.396                   1.000889        136.9926
0.4                     1.001571        136.2786
0.404                   1.001963        135.5553
0.408                   1.002003        134.8303
0.412                   1.001687        134.1121
0.416                   1.001072        133.4084
0.42                    1.000265         132.725
0.424                  0.9994034        132.0648
0.428                  0.9986342        131.4273
0.432                  0.9980871        130.8084
0.436                  0.9978537        130.2017
0.44                   0.9979708         129.599
0.444                  0.9984156         128.992
0.448                  0.9991101        128.3737
0.452                  0.9999337        127.7395
0.456                   1.000746        127.0881
0.46                    1.001408        126.4215
0.464                    1.00181        125.7447
0.468                   1.001885        125.0648
0.472                   1.001623        124.3897
0.476                   1.001069        123.7269
0.48                    1.000321        123.0821
0.484                  0.9995049        122.4586
0.488                  0.9987614        121.8562
0.492                  0.9982165        121.2716
0.496                  0.9979625        120.6987
0.5                    0.9980416          120.13
0.504                  0.9984385        119.5575
0.508                  0.9990839        118.9743
0.512                  0.9998661        118.3757
0.516                   1.000651        117.7601
0.52                    1.001304        117.1292
0.524                   1.001716        116.4874
0.528                   1.001816        115.8414
0.532                   1.001588        115.1989
0.536                   1.001072        114.5672
0.54                    1.000357        113.9523
0.544                  0.9995643        113.3574
0.548                    0.99883        112.7828
0.552                  0.9982792        112.2255
0.556                  0.9980059        111.6799
0.56                   0.9980567        111.1386
0.564                  0.9984217        110.5939
0.568                  0.9990372        110.0389
0.572                  0.9997971        109.4687
0.576                    1.00057        108.8815
0.58                    1.001224        108.2786
0.584                   1.001647        107.6642
0.588                   1.001765        107.0448
0.592                    1.00156         106.428
0.596                   1.001065        105.8211
0.6                     1.000365        105.2302
0.604                  0.9995797        104.6586
0.608                   0.998843         104.107
0.612                  0.9982816        103.5726
0.616                   0.997992          103.05
0.62                   0.9980244         102.532
0.624                   0.998373        102.0106
0.628                  0.9989778         101.479
0.632                  0.9997345        100.9321
0.636                   1.000513        100.3679
0.64                    1.001178        99.78746
0.644                   1.001617         99.1949
0.648                   1.001752        98.59663
0.652                   1.001561        98.00022
0.656                   1.001074        97.41319
0.66                    1.000374        96.84171
0.664                  0.9995803         96.2895
0.668                  0.9988297        95.75728
0.672                   0.998251        95.24244
0.676                   0.997945        94.73962
0.68                   0.9979649        94.24148
0.684                  0.9983082        93.74011
0.688                  0.9989163        93.22827
0.692                  0.9996844        92.70078
0.696                    1.00048        92.15534
0.7                     1.001165        91.59293
0.704                   1.001622        91.01764
0.708                   1.001769        90.43598
0.712                    1.00158        89.85568
0.716                   1.001085        89.28456
0.72                    1.000368          88.729
0.724                    0.99955        88.19302
0.728                  0.9987714        87.67743
0.732                   0.998167         87.1797
0.736                  0.9978421        86.69436
0.74                    0.997854        86.21388
0.744                  0.9982022           85.73
0.748                  0.9988275         85.2352
0.752                  0.9996222          84.724
0.756                   1.000449        84.19389
0.76                    1.001164        83.64584
0.764                   1.001644        83.08399
0.768                   1.001802        82.51509
0.772                   1.001609        81.94723
0.776                   1.001095        81.38856
0.78                    1.000346        80.84587
0.784                  0.9994892        80.32339
0.788                  0.9986719        79.82211
0.792                   0.998036        79.33939
0.796                  0.9976929        78.86954
0.8                    0.9977043        78.40468
0.804                  0.9980705        77.93607
0.808                  0.9987299        77.45575
0.812                  0.9995693        76.95789
0.816                   1.000444        76.43981
0.82                    1.001201        75.90245
0.824                   1.001709        75.35022
0.828                   1.001876         74.7902
0.832                    1.00167        74.23102
0.836                   1.001123        73.68134
0.84                    1.000325        73.14841
0.844                  0.9994118        72.63678
0.848                  0.9985402        72.14751
0.852                  0.9978623        71.67785
0.856                  0.9974972         71.2217
0.86                   0.9975114        70.77061
0.864                  0.9979052        70.31526
0.868                  0.9986127        69.84709
0.872                  0.9995126        69.35984
0.876                   1.000449        68.85061
0.88                    1.001258        68.32045
0.884                   1.001796         67.7741
0.888                   1.001967        67.21926
0.892                   1.001735        66.66517
0.896                   1.001136        66.12124
0.9                     1.000266        65.59527
0.904                   0.999274         65.0922
0.908                  0.9983295        64.61311
0.912                   0.997597        64.15503
0.916                  0.9972063         63.7113
0.92                   0.9972287         63.2727
0.924                  0.9976642        62.82906
0.928                  0.9984397        62.37108
0.932                  0.9994226        61.89193
0.936                   1.000442        61.38857
0.94                    1.001319        60.86217
0.944                   1.001898        60.31798
0.948                   1.002072        59.76443
0.952                   1.001806        59.21174
0.956                   1.001138        58.67016
0.96                    1.000177        58.14823
0.964                   0.999086        57.65131
0.968                  0.9980521        57.18056
0.972                  0.9972567        56.73258
0.976                  0.9968416        56.29995
0.98                   0.9968843        55.87243
0.984                  0.9973827        55.43877
0.988                  0.9982544        54.98869
0.992                  0.9993505        54.51473
0.996                   1.000481         54.0136
1                       1.001447        53.48674
1.004                   1.002076        52.94012
1.008                   1.002254        52.38319
1.012                   1.001939        51.82733
1.016                   1.001179        51.28396
1.02                    1.000097        50.76255
1.024                  0.9988758          50.269
1.028                  0.9977256        49.80444
1.032                  0.9968487        49.36496
1.036                  0.9964026        48.94211
1.04                   0.9964719        48.52432
1.044                  0.9970514        48.09892
1.048                  0.9980457         47.6544
1.052                  0.9992847        47.18249
1.056                   1.000553        46.67966
1.06                    1.001626        46.14774
1.064                   1.002312        45.59365
1.068                   1.002483        45.02816
1.072                   1.002096        44.46424
1.076                   1.001207        43.91476
1.08                   0.9999604         43.3904
1.084                  0.9985648        42.89766
1.088                  0.9972604        42.43769
1.092                  0.9962767        42.00582
1.096                  0.9957916        41.59224
1.1                     0.995898        41.18361
1.104                  0.9965862        40.76539
1.108                  0.9977428        40.32449
1.112                  0.9991701         39.8516
1.116                   1.000619        39.34292
1.12                    1.001833        38.80081
1.124                   1.002592        38.23343
1.128                   1.002753        37.65337
1.132                   1.002272        37.07559
1.136                   1.001216        36.51492
1.14                   0.9997569        35.98353
1.144                   0.998138        35.48875
1.148                  0.9966387        35.03167
1.152                  0.9955241        34.60659
1.156                  0.9949981        34.20191
1.16                   0.9951645        33.80188
1.164                  0.9960065        33.38956
1.168                  0.9973865        32.94969
1.172                  0.9990692        32.47175
1.176                   1.000761         31.9515
1.18                    1.002163        31.39214
1.184                   1.003019        30.80346
1.188                   1.003165        30.20049
1.192                   1.002555        29.60082
1.196                   1.001274        29.02185
1.2                    0.9995278        28.47778
1.204                   0.997608        27.97707
1.208                  0.9958459        27.52068
1.212                  0.9945546        27.10161
1.216                  0.9939728         26.7057
1.22                   0.9942183        26.31406
1.224                  0.9952647        25.90646
1.228                  0.9969417        25.46485
1.232                  0.9989631        24.97679
1.236                   1.000976         24.4378
1.24                    1.002621        23.85202
1.244                   1.003596        23.23162
1.248                   1.003709        22.59486
1.252                    1.00291         21.9629
1.256                    1.00131        21.35665
1.26                   0.9991617        20.79315
1.264                  0.9968213         20.2823
1.268                  0.9946923          19.825
1.272                  0.9931546        19.41236
1.276                  0.9924948        19.02682
1.28                   0.9928515        18.64507
1.284                  0.9941847        18.24213
1.288                  0.9962786        17.79605
1.292                  0.9987761        17.29194
1.296                    1.00124        16.72469
1.3                      1.00323        16.09992
1.304                   1.004376        15.43302
1.308                   1.004446        14.74665
1.312                   1.003388        14.06716
1.316                   1.001342        13.42035
1.32                   0.9986288        12.82716
1.324                  0.9956967        12.29981
1.328                  0.9930519        11.83915
1.332                  0.9911698        11.43368
1.336                   0.990408        11.06094
1.34                   0.9909358        10.69114
1.344                  0.9926947        10.29252
1.348                  0.9954033        9.837302
1.352                  0.9986019        9.306907
1.356                   1.001731         8.69537
1.36                     1.00423        8.010352
1.364                   1.005628        7.271861
1.368                   1.005634        6.509039
1.372                   1.004185        5.755655
1.376                   1.001467        5.044827
1.38                   0.9978947         4.40357
1.384                   0.994053        3.847798
1.388                  0.9906027         3.37864
1.392                  0.9881677        2.980981
1.396                  0.9872174        2.625022
1.4                     0.987973        2.271041
1.404                  0.9903536         1.87663
1.408                  0.9939802        1.404804
1.412                  0.9982369       0.8310482
1.416                   1.002376       0.1477899
1.42                    1.005644      -0.6343955
1.424                   1.007416       -1.488626
1.428                   1.007296       -2.375917
1.432                   1.005198       -3.250987
1.436                   1.001367       -4.069009
1.44                   0.9963634        -4.79279
1.444                  0.9909854       -5.399663
1.448                  0.9861477       -5.887048
1.452                  0.9827246       -6.275204
1.456                  0.9813863       -6.605734
1.46                   0.9824566       -6.935166
1.464                  0.9858319       -7.324505
1.468                  0.9909809       -7.827234
1.472                  0.9970286       -8.478914
1.476                   1.002905       -9.290812
1.48                    1.007529       -10.24838
1.484                   1.009984       -11.31403
1.488                   1.009679       -12.43282
1.492                    1.00645        -13.5401
1.496                   1.000618        -14.5703
1.5                     0.992968       -15.46678
1.504                  0.9846637       -16.19214
1.508                  0.9770851       -16.73792
1.512                  0.9715993       -17.13112
1.516                  0.9693002       -17.43433
1.52                    0.970767        -17.7372
1.524                  0.9759074       -18.13965
1.528                  0.9839341       -18.73143
1.532                   0.993485       -19.57411
1.536                   1.002852       -20.69058
1.54                    1.010264       -22.06311
1.544                   1.014165        -23.6379
1.548                   1.013459       -25.33333
1.552                   1.007689       -27.04962
