! TOUCHSTONE file generated by CST MICROWAVE STUDIO
! Date and time: Thu Jun  9 08:55:05 2022
! Project name: AppElm_antenne_patch_Alumina.cst
! Parameters = {L=38.125; W=41.8; e=0.035; h=1.6; lambda=0.190476; ls=90; w0=1.12; w1=0.373; ws=90; y0=14; y1=10}
! Header version: 2018
! Port assignment regex: !\s*Touchstone port\s*([0-9]+)\s*=\s*(CST MWS port|CST DS port)\s*([0-9]+|Zmin|Zmax)\s*\(\"(.*)\"\)(\s*mode\s*([0-9]+))?.*
! Touchstone port assignment:
! Touchstone port 1 = CST MWS port 1 ("")
# GHz S MA R 50
0                      0.9526896              -0
0.004                  0.9552325       -12.37423
0.008                   0.962503       -24.56109
0.012                  0.9734943       -36.39302
0.016                  0.9867355       -47.73571
0.02                    1.000536       -58.49223
0.024                   1.013234       -68.59923
0.028                   1.023404       -78.01894
0.032                   1.030008       -86.73054
0.036                   1.032487       -94.72353
0.04                    1.030793       -101.9939
0.044                    1.02538       -108.5437
0.048                   1.017136       -114.3831
0.052                   1.007276       -119.5351
0.056                  0.9971958       -124.0409
0.06                   0.9882815        -127.964
0.064                   0.981715       -131.3908
0.068                  0.9782953       -134.4264
0.072                  0.9783173       -137.1844
0.076                  0.9815398       -139.7728
0.08                   0.9872522       -142.2813
0.084                  0.9944172       -144.7715
0.088                   1.001859       -147.2741
0.092                    1.00845       -149.7905
0.096                   1.013271        -152.299
0.1                     1.015722       -154.7622
0.104                   1.015581       -157.1352
0.108                   1.013017        -159.373
0.112                   1.008542       -161.4375
0.116                   1.002935       -163.3038
0.12                   0.9971181       -164.9647
0.124                  0.9920164       -166.4333
0.128                  0.9884134       -167.7425
0.132                  0.9868249       -168.9407
0.136                  0.9874196        -170.084
0.14                   0.9900017       -171.2265
0.144                  0.9940594        -172.412
0.148                  0.9988669       -173.6672
0.152                   1.003615       -174.9992
0.156                   1.007547       -176.3966
0.16                    1.010069       -177.8333
0.164                   1.010838       -179.2734
0.168                   1.009795        179.3223
0.172                   1.007172        177.9908
0.176                    1.00344        176.7608
0.18                   0.9992375        175.6489
0.184                  0.9952671        174.6561
0.188                  0.9921786        173.7672
0.192                  0.9904626        172.9532
0.196                   0.990368         172.176
0.2                    0.9918646        171.3952
0.204                  0.9946548        170.5751
0.208                   0.998234         169.691
0.212                   1.001984        168.7326
0.216                    1.00528        167.7046
0.22                    1.007592         166.625
0.224                   1.008569        165.5214
0.228                   1.008082        164.4263
0.232                   1.006245         163.372
0.236                    1.00339        162.3855
0.24                    1.000009        161.4844
0.244                   0.996676        160.6739
0.248                   0.993952        159.9455
0.252                  0.9922877        159.2784
0.256                  0.9919477        158.6427
0.26                   0.9929656        158.0049
0.264                  0.9951421        157.3341
0.268                  0.9980844        156.6072
0.272                   1.001279        155.8126
0.276                   1.004184        154.9519
0.28                    1.006317        154.0385
0.284                   1.007336        153.0955
0.288                   1.007088        152.1509
0.292                   1.005633        151.2336
0.296                   1.003231        150.3691
0.3                     1.000296        149.5746
0.304                  0.9973311        148.8569
0.308                   0.994842        148.2105
0.312                  0.9932502        147.6186
0.316                  0.9928204        147.0555
0.32                   0.9936137        146.4916
0.324                  0.9954787        145.8985
0.328                   0.998081        145.2544
0.332                   1.000966        144.5475
0.336                   1.003637        143.7777
0.34                    1.005645        142.9562
0.344                   1.006656        142.1033
0.348                   1.006511        141.2446
0.352                   1.005244        140.4072
0.356                   1.003077        139.6151
0.36                    1.000385        138.8852
0.364                  0.9976309         138.225
0.368                  0.9952896        137.6303
0.372                  0.9937638        137.0861
0.376                  0.9933141         136.569
0.38                   0.9940125        136.0514
0.384                  0.9957293        135.5064
0.388                  0.9981592         134.913
0.392                   1.000876        134.2595
0.396                   1.003411         133.545
0.4                      1.00533        132.7798
0.404                   1.006309        131.9828
0.408                   1.006186        131.1786
0.412                   1.004987         130.393
0.416                    1.00292        129.6495
0.42                    1.000341        128.9647
0.424                  0.9976949         128.346
0.428                  0.9954409        127.7897
0.432                  0.9939718        127.2816
0.436                  0.9935432        126.7991
0.44                   0.9942278        126.3154
0.444                  0.9959024        125.8044
0.448                  0.9982706        125.2456
0.452                   1.000916        124.6272
0.456                    1.00338        123.9488
0.46                    1.005237        123.2202
0.464                   1.006168        122.4601
0.468                   1.006016        121.6927
0.472                   1.004807        120.9436
0.476                   1.002748        120.2358
0.48                    1.000194        119.5857
0.484                  0.9975879        119.0006
0.488                  0.9953844        118.4765
0.492                   0.993971        117.9989
0.496                  0.9935987        117.5454
0.5                    0.9943336        117.0891
0.504                  0.9960466        116.6041
0.508                  0.9984357          116.07
0.512                   1.001081        115.4756
0.516                   1.003521        114.8208
0.52                    1.005331        114.1159
0.524                   1.006197        113.3802
0.528                   1.005969        112.6381
0.532                   1.004682        111.9157
0.536                   1.002557        111.2357
0.54                   0.9999572        110.6146
0.544                  0.9973362        110.0588
0.548                  0.9951542        109.5639
0.552                  0.9937983        109.1144
0.556                  0.9935128        108.6871
0.56                   0.9943517        108.2544
0.564                  0.9961693        107.7901
0.568                  0.9986455         107.274
0.572                   1.001345        106.6955
0.576                   1.003793        106.0552
0.58                    1.005563        105.3648
0.584                   1.006343        104.6445
0.588                   1.005994        103.9197
0.592                   1.004569        103.2172
0.596                    1.00231        102.5601
0.6                    0.9996067        101.9645
0.604                  0.9969295        101.4361
0.608                  0.9947522        100.9691
0.612                  0.9934653        100.5468
0.616                  0.9933042         100.144
0.62                   0.9943042         99.7323
0.624                  0.9962927        99.28468
0.628                  0.9989198        98.78098
0.632                   1.001723        98.21138
0.636                   1.004208         97.5779
0.64                    1.005938        96.89381
0.644                   1.006605        96.18115
0.648                   1.006086        95.46701
0.652                   1.004462        94.77908
0.656                   1.002006        94.14109
0.66                   0.9991425        93.56877
0.664                  0.9963725        93.06679
0.668                  0.9941897        92.62751
0.672                  0.9929895        92.23189
0.676                  0.9929959        91.85272
0.68                   0.9942173        91.45958
0.684                  0.9964433         91.0246
0.688                  0.9992822        90.52769
0.692                   1.002232         89.9601
0.696                   1.004773        89.32574
0.7                     1.006452        88.64024
0.704                   1.006968        87.92804
0.708                   1.006219        87.21842
0.712                   1.004323        86.54058
0.716                   1.001598        85.91895
0.72                   0.9985153         85.3688
0.724                  0.9956175        84.89328
0.728                  0.9934243        84.48229
0.732                  0.9923383        84.11376
0.736                  0.9925671         83.7575
0.74                   0.9940828        83.38066
0.744                  0.9966239        82.95413
0.748                  0.9997427        82.45799
0.752                   1.002887        81.88493
0.756                   1.005498        81.24142
0.76                     1.00711        80.54619
0.764                   1.007426        79.82687
0.768                   1.006376        79.11557
0.772                   1.004124        78.44345
0.776                   1.001051        77.83578
0.78                   0.9976868        77.30719
0.784                  0.9946288        76.85883
0.788                  0.9924304        76.47727
0.792                  0.9915013        76.13646
0.796                  0.9920269        75.80221
0.8                    0.9939296        75.43868
0.804                  0.9968808        75.01523
0.808                    1.00036        74.51218
0.812                   1.003748        73.92435
0.816                   1.006442        73.26149
0.82                    1.007954        72.54639
0.824                   1.008001        71.81087
0.828                   1.006551        71.09059
0.832                   1.003833         70.4193
0.836                   1.000305        69.82318
0.84                   0.9965799        69.31608
0.844                   0.993321         68.8963
0.848                  0.9911255        68.54607
0.852                  0.9904103        68.23406
0.856                  0.9913293        67.92091
0.86                   0.9937389        67.56686
0.864                  0.9972209        67.13946
0.868                   1.001159        66.61963
0.872                   1.004852        66.00494
0.876                   1.007635        65.30961
0.88                       1.009        64.56172
0.884                   1.008679        63.79845
0.888                   1.006695        63.06009
0.892                   1.003362        62.38365
0.896                  0.9992405        61.79652
0.9                    0.9950498        61.31131
0.904                  0.9915429        60.92258
0.908                  0.9893716        60.60657
0.912                  0.9889602        60.32485
0.916                   0.990417        60.03128
0.92                   0.9935079          59.681
0.924                   0.997695        59.23933
0.928                   1.002235        58.68816
0.932                   1.006316        58.02899
0.936                   1.009199        57.28198
0.94                    1.010345        56.48226
0.944                   1.009512        55.67408
0.948                   1.006796        54.90392
0.952                   1.002627        54.21306
0.956                  0.9977049        53.63057
0.96                   0.9928928        53.16732
0.964                  0.9890645        52.81262
0.968                  0.9869453        52.53446
0.972                  0.9869668        52.28457
0.976                  0.9891727        52.00741
0.98                   0.9932023        51.65127
0.984                  0.9983512         51.1786
0.988                   1.003703        50.57292
0.992                   1.008293        49.84115
0.996                    1.01128        49.01174
1                       1.012088        48.12945
1.004                   1.010508        47.24828
1.008                   1.006739        46.42325
1.012                   1.001372        45.70184
1.016                  0.9953062        45.11558
1.02                   0.9896085        44.67307
1.024                  0.9853281         44.3561
1.028                  0.9832978         44.1206
1.032                  0.9839605        43.90375
1.036                  0.9872661        43.63618
1.04                   0.9926673        43.25614
1.044                  0.9992178        42.72201
1.048                   1.005746        42.01969
1.052                   1.011067        41.16405
1.056                   1.014185        40.19534
1.06                    1.014465        39.17221
1.064                   1.011739        38.16287
1.068                   1.006353        37.23534
1.072                  0.9991339        36.44695
1.076                  0.9912814         35.8339
1.08                   0.9841812        35.40213
1.084                  0.9791644         35.1222
1.088                   0.977245          34.931
1.092                  0.9788966         34.7421
1.096                  0.9839295        34.46321
1.1                    0.9915066        34.01589
1.104                   1.000296        33.35139
1.108                   1.008715        32.45873
1.112                   1.015215        31.36452
1.116                   1.018535        30.12679
1.12                    1.017913        28.82556
1.124                   1.013217        27.55191
1.128                   1.004998         26.3961
1.132                  0.9944539        25.43425
1.136                  0.9832855        24.71396
1.14                   0.9734522        24.24033
1.144                  0.9668287        23.96644
1.148                  0.9648196        23.79481
1.152                  0.9680237        23.59318
1.156                  0.9760534        23.22261
1.16                   0.9875732        22.56852
1.164                   1.000548        21.56391
1.168                   1.012616        20.19806
1.172                   1.021491        18.51313
1.176                   1.025316        16.59336
1.18                    1.022944        14.55231
1.184                   1.014125        12.52025
1.188                  0.9996063        10.63099
1.192                  0.9811431        9.005735
1.196                  0.9613676        7.730658
1.2                    0.9434925        6.828249
1.204                  0.9307989        6.228613
1.208                  0.9259469        5.756124
1.212                  0.9302678        5.148971
1.216                  0.9432998         4.11421
1.22                   0.9627715        2.395305
1.224                  0.9850276      -0.1814988
1.228                   1.005684       -3.698518
1.232                   1.020272       -8.167408
1.236                    1.02474       -13.56111
1.24                    1.015789         -19.844
1.244                  0.9910781       -26.99647
1.248                  0.9493591       -35.03657
1.252                  0.8905835       -44.04469
1.256                  0.8160363       -54.20024
1.26                    0.728582       -65.84404
1.264                  0.6331817       -79.58392
1.268                  0.5379801       -96.43783
1.272                  0.4562085       -117.8126
1.276                   0.407222       -144.4276
1.28                   0.4088956       -173.5926
1.284                  0.4605733        160.0643
1.288                  0.5438515        138.9792
1.292                   0.639653        122.3257
1.296                  0.7350702        108.7075
1.3                    0.8221429        97.13442
1.304                   0.896002        87.01889
1.308                  0.9538342         78.0329
1.312                  0.9943926        70.00584
1.316                    1.01777        62.86414
1.32                    1.025273        56.59561
1.324                   1.019326        51.22567
1.328                   1.003343        46.79522
1.332                  0.9815146        43.33513
1.336                   0.958461        40.83405
1.34                   0.9387036        39.20399
1.344                  0.9259732        38.25853
1.348                  0.9225129        37.72394
1.352                  0.9286399        37.29157
1.356                  0.9427936        36.69149
1.36                    0.962061        35.74956
1.364                  0.9829433        34.40444
1.368                   1.002076        32.69024
1.372                   1.016751        30.70478
1.376                   1.025212        28.57958
1.38                    1.026769         26.4574
1.384                   1.021791        24.47598
1.388                   1.011595        22.75476
1.392                  0.9982383        21.38133
1.396                  0.9842225        20.39715
1.4                     0.972101        19.78529
1.404                  0.9640358        19.46649
1.408                  0.9613847        19.31002
1.412                  0.9644387        19.16094
1.416                  0.9724012        18.87587
1.42                   0.9836166        18.35393
1.424                  0.9959623        17.55234
1.428                    1.00728        16.48546
1.432                   1.015745        15.21275
1.436                   1.020127        13.82265
1.44                    1.019925        12.41683
1.444                   1.015401        11.09607
1.448                   1.007512        9.947423
1.452                  0.9977483        9.032122
1.456                  0.9879017        8.374735
1.46                   0.9797566        7.956076
1.464                  0.9747676        7.713524
1.468                  0.9737785        7.551647
1.472                  0.9768617        7.362234
1.476                  0.9833252        7.048188
1.48                   0.9918846        6.543372
1.484                   1.000944        5.822844
1.488                   1.008905        4.902646
1.492                   1.014443        3.832078
1.496                   1.016706        2.682351
1.5                     1.015423        1.534408
1.504                   1.010922       0.4671116
1.508                   1.004072      -0.4539247
1.512                  0.9961335       -1.186571
1.516                  0.9885509       -1.720359
1.52                   0.9826991       -2.080425
1.524                  0.9796258       -2.324705
1.528                   0.979849       -2.533236
1.532                  0.9832591       -2.791353
1.536                  0.9891559       -3.171509
1.54                   0.9964059       -3.719171
1.544                   1.003677       -4.446216
1.548                   1.009687       -5.331986
1.552                   1.013424       -6.329871
