! TOUCHSTONE file generated by CST MICROWAVE STUDIO
! Date and time: Thu Jun  9 08:55:01 2022
! Project name: AppElm_antenne_patch_Alumina.cst
! Parameters = {L=32.025; W=41.8; e=0.035; h=1.6; lambda=0.190476; ls=90; w0=1.12; w1=0.373; ws=90; y0=14; y1=10}
! Header version: 2018
! Port assignment regex: !\s*Touchstone port\s*([0-9]+)\s*=\s*(CST MWS port|CST DS port)\s*([0-9]+|Zmin|Zmax)\s*\(\"(.*)\"\)(\s*mode\s*([0-9]+))?.*
! Touchstone port assignment:
! Touchstone port 1 = CST MWS port 1 ("")
# GHz S MA R 50
0                      0.9789966              -0
0.004                  0.9802411       -10.84176
0.008                  0.9837953       -21.55675
0.012                  0.9891526       -32.02692
0.016                  0.9955637       -42.14968
0.02                    1.002156       -51.84143
0.024                   1.008064       -61.03799
0.028                    1.01255       -69.69288
0.032                   1.015096       -77.77459
0.036                   1.015462       -85.26433
0.04                    1.013709       -92.15453
0.044                    1.01018       -98.44872
0.048                   1.005451       -104.1623
0.052                   1.000244       -109.3239
0.056                  0.9953295       -113.9763
0.06                   0.9914059       -118.1758
0.064                  0.9889985       -121.9896
0.068                  0.9883795       -125.4906
0.072                  0.9895338       -128.7506
0.076                  0.9921713       -131.8336
0.08                   0.9957887       -134.7895
0.084                  0.9997621       -137.6514
0.088                   1.003451       -140.4347
0.092                   1.006299       -143.1394
0.096                   1.007914       -145.7537
0.1                     1.008114       -148.2589
0.104                   1.006947       -150.6342
0.108                   1.004671       -152.8619
0.112                   1.001708       -154.9312
0.116                  0.9985738        -156.841
0.12                   0.9957903       -158.6019
0.124                  0.9938033       -160.2353
0.128                  0.9929095       -161.7706
0.132                  0.9932113       -163.2414
0.136                  0.9946055       -164.6803
0.14                   0.9968099       -166.1138
0.144                  0.9994195        -167.559
0.148                   1.001979        -169.022
0.152                   1.004064       -170.4979
0.156                   1.005345       -171.9731
0.16                    1.005639       -173.4282
0.164                   1.004935       -174.8418
0.168                   1.003387       -176.1943
0.172                   1.001284       -177.4716
0.176                  0.9990003       -178.6671
0.18                   0.9969331       -179.7835
0.184                  0.9954309        179.1675
0.188                  0.9947367        178.1673
0.192                  0.9949476         177.193
0.196                  0.9960008         176.222
0.2                    0.9976897        175.2353
0.204                  0.9997044        174.2207
0.208                   1.001688        173.1747
0.212                   1.003302        172.1021
0.216                   1.004277        171.0149
0.22                    1.004465        169.9301
0.224                   1.003851         168.866
0.228                   1.002559        167.8397
0.232                   1.000828        166.8639
0.236                  0.9989651        165.9448
0.24                   0.9972978        165.0806
0.244                  0.9961139        164.2624
0.248                  0.9956117        163.4749
0.252                  0.9958669        162.6998
0.256                  0.9968204        161.9186
0.26                   0.9982921        161.1161
0.264                   1.000015        160.2829
0.268                   1.001683        159.4168
0.272                   1.003007        158.5228
0.276                   1.003763        157.6121
0.28                     1.00383        156.6999
0.284                   1.003205        155.8027
0.288                   1.002008        154.9355
0.292                   1.000456        154.1092
0.296                  0.9988234        153.3289
0.3                    0.9973995        152.5926
0.304                  0.9964329        151.8919
0.308                   0.996089         151.213
0.312                   0.996422        150.5395
0.316                  0.9973652        149.8553
0.32                    0.998745        149.1473
0.324                   1.000313        148.4081
0.328                   1.001791        147.6365
0.332                   1.002921        146.8381
0.336                   1.003509         146.024
0.34                    1.003456        145.2083
0.344                    1.00278        144.4065
0.348                   1.001601        143.6321
0.352                   1.000132        142.8947
0.356                  0.9986332        142.1981
0.36                   0.9973696        141.5397
0.364                  0.9965642        140.9107
0.368                  0.9963575         140.298
0.372                  0.9967828         139.686
0.376                  0.9977607          139.06
0.38                   0.9991136        138.4085
0.384                     1.0006        137.7252
0.388                   1.001955        137.0105
0.392                   1.002942        136.2704
0.396                   1.003389        135.5162
0.4                     1.003219        134.7619
0.404                   1.002466        134.0222
0.408                   1.001263        133.3097
0.412                  0.9998232        132.6327
0.416                  0.9984031        131.9939
0.42                   0.9972547        131.3898
0.424                   0.996582         130.811
0.428                  0.9965042        130.2443
0.432                  0.9970338        129.6745
0.436                  0.9980753        129.0877
0.44                   0.9994414        128.4735
0.444                   1.000888        127.8271
0.448                   1.002159        127.1496
0.452                    1.00303        126.4483
0.456                   1.003347        125.7348
0.46                    1.003055        125.0233
0.464                   1.002204        124.3282
0.468                   1.000946        123.6612
0.472                  0.9995023        123.0297
0.476                  0.9981292        122.4353
0.48                   0.9970718        121.8732
0.484                  0.9965192        121.3333
0.488                  0.9965713        120.8017
0.492                  0.9972193        120.2635
0.496                  0.9983474        119.7052
0.5                    0.9997543        119.1174
0.504                   1.001189        118.4964
0.508                   1.002397        117.8448
0.512                   1.003164        117.1706
0.516                   1.003351        116.4866
0.52                    1.002926        115.8071
0.524                   1.001961        115.1463
0.528                   1.000624        114.5156
0.532                   0.999153        113.9212
0.536                   0.997808        113.3634
0.54                   0.9968305        112.8363
0.544                  0.9963971        112.3286
0.548                  0.9965875        111.8257
0.552                  0.9973695        111.3124
0.556                  0.9986049        110.7758
0.56                    1.000073        110.2071
0.564                   1.001513        109.6041
0.568                   1.002668        108.9705
0.572                   1.003332        108.3159
0.576                   1.003383        107.6538
0.58                    1.002811        106.9994
0.584                   1.001712        106.3667
0.588                   1.000279        105.7665
0.592                  0.9987642        105.2041
0.596                  0.9974384        104.6783
0.6                    0.9965402        104.1818
0.604                  0.9962335         103.702
0.608                   0.996577        103.2233
0.612                  0.9975122        102.7301
0.616                  0.9988739        102.2098
0.62                     1.00042        101.6548
0.624                   1.001875        101.0638
0.628                   1.002978        100.4425
0.632                   1.003531        99.80175
0.636                   1.003431        99.15638
0.64                    1.002692        98.52216
0.644                   1.001439        97.91328
0.648                   0.999891        97.33993
0.652                  0.9983218        96.80625
0.656                  0.9970123        96.30964
0.66                   0.9961996        95.84087
0.664                  0.9960342        95.38577
0.668                  0.9965507        94.92773
0.672                  0.9976606        94.45073
0.676                  0.9991681        93.94238
0.68                    1.000805        93.39611
0.684                   1.002279        92.81235
0.688                   1.003325        92.19833
0.692                   1.003754        91.56686
0.696                   1.003483        90.93399
0.7                     1.002554        90.31637
0.704                   1.001126        89.72834
0.708                  0.9994476        89.17939
0.712                  0.9978173        88.67237
0.716                  0.9965278        88.20285
0.72                   0.9958147        87.75961
0.724                  0.9958124        87.32666
0.728                  0.9965273        86.88611
0.732                  0.9978365        86.42146
0.736                  0.9995086        85.92074
0.74                    1.001246        85.37858
0.744                   1.002737        84.79719
0.748                   1.003713        84.18592
0.752                   1.003994        83.55948
0.756                   1.003523        82.93553
0.76                    1.002375        82.33167
0.764                   1.000746        81.76229
0.768                    0.99892        81.23613
0.772                  0.9972229        80.75448
0.776                  0.9959608        80.31075
0.78                   0.9953666        79.89142
0.784                  0.9955545        79.47841
0.788                  0.9964985         79.0524
0.792                  0.9980347        78.59642
0.796                  0.9998916        78.09901
0.8                     1.001737        77.55629
0.804                   1.003241        76.97258
0.808                   1.004129        76.35958
0.812                   1.004235        75.73429
0.816                   1.003531        75.11613
0.82                    1.002131        74.52368
0.824                   1.000274        73.97139
0.828                  0.9982868          73.467
0.832                  0.9965239         73.0099
0.836                  0.9953057          72.591
0.84                   0.9948595        72.19407
0.844                  0.9952752        71.79867
0.848                  0.9964873        71.38393
0.852                  0.9982847         70.9324
0.856                   1.000348        70.43341
0.86                    1.002309        69.88485
0.864                   1.003814        69.29356
0.868                   1.004587        68.67398
0.872                    1.00448        68.04571
0.876                   1.003498        67.43018
0.88                    1.001804        66.84702
0.884                  0.9996867         66.3106
0.888                  0.9975197        65.82743
0.892                  0.9956915         65.3946
0.896                   0.994537        64.99999
0.9                    0.9942749        64.62423
0.904                  0.9949643        64.24418
0.908                  0.9964919        63.83724
0.912                  0.9985905        63.38561
0.916                   1.000887         62.8796
0.92                    1.002971        62.31938
0.924                   1.004463        61.71469
0.928                   1.005089        61.08325
0.932                   1.004722        60.44762
0.936                   1.003412        59.83147
0.94                    1.001375        59.25556
0.944                  0.9989619        58.73406
0.948                  0.9965984        58.27187
0.952                  0.9947119        57.86324
0.956                  0.9936513        57.49248
0.96                   0.9936219        57.13648
0.964                  0.9946445        56.76897
0.968                  0.9965473         56.3655
0.972                  0.9989964        55.90803
0.976                   1.001556        55.38827
0.98                    1.003765        54.80908
0.984                   1.005222        54.18383
0.988                   1.005653        53.53406
0.992                   1.004962        52.88579
0.996                    1.00325        52.26526
1                       1.000801        51.69446
1.004                  0.9980373        51.18719
1.008                  0.9954488        50.74629
1.012                  0.9935055        50.36252
1.016                  0.9925712        50.01579
1.02                    0.992833        49.67851
1.024                  0.9942618        49.32079
1.028                  0.9966145        48.91607
1.032                  0.9994769        48.44621
1.036                   1.002338        47.90476
1.04                    1.004681        47.29801
1.044                   1.006076        46.64368
1.048                   1.006256        45.96787
1.052                   1.005161         45.3007
1.056                   1.002957        44.67144
1.06                    1.000013        44.10344
1.064                  0.9968359        43.60993
1.068                  0.9939922        43.19112
1.072                  0.9920031        42.83334
1.076                  0.9912473        42.51106
1.08                   0.9918857        42.19122
1.084                  0.9938263        41.83952
1.088                  0.9967362        41.42703
1.092                   1.000102        40.93569
1.096                    1.00332        40.36154
1.1                     1.005808        39.71515
1.104                   1.007104        39.01966
1.108                   1.006949         38.3068
1.112                   1.005332        37.61173
1.116                   1.002504        36.96738
1.12                   0.9989329         36.3988
1.124                  0.9952378        35.91844
1.128                  0.9920798        35.52309
1.132                  0.9900431        35.19352
1.136                  0.9895238        34.89709
1.14                   0.9906482        34.59383
1.144                  0.9932421        34.24394
1.148                  0.9968583        33.81554
1.152                   1.000856        33.29088
1.156                   1.004519        32.66917
1.16                    1.007177        31.96656
1.164                   1.008332        31.21305
1.168                   1.007733        30.44741
1.172                   1.005437        29.71137
1.176                   1.001796         29.0425
1.18                   0.9974156        28.46816
1.184                  0.9930553        27.99983
1.188                  0.9895012        27.62983
1.192                  0.9874215        27.33143
1.196                   0.987235        27.06267
1.2                    0.9890214        26.77422
1.204                  0.9924967        26.41891
1.208                    0.99706        25.96113
1.212                   1.001903        25.38348
1.216                   1.006152        24.68962
1.22                    1.009028        23.90289
1.224                   1.009973        23.06242
1.228                   1.008754        22.21657
1.232                   1.005506         21.4158
1.236                   1.000724        20.70445
1.24                   0.9951948        20.11337
1.244                  0.9898773        19.65315
1.248                  0.9857358        19.31027
1.252                   0.983562        19.04759
1.256                  0.9838136        18.80982
1.26                   0.9865105        18.53406
1.264                  0.9912175        18.16238
1.268                  0.9971183        17.65348
1.272                   1.003163        16.99025
1.276                   1.008258        16.18211
1.28                    1.011451        15.26253
1.284                   1.012098         14.2832
1.288                   1.009972        13.30615
1.292                   1.005312        12.39477
1.296                  0.9988107        11.60417
1.3                    0.9915219        10.97146
1.304                  0.9847042         10.5072
1.308                  0.9796051           10.19
1.312                  0.9772249        9.966979
1.316                   0.978102        9.761793
1.32                   0.9821827        9.489407
1.324                  0.9888078        9.073853
1.328                  0.9968276        8.463667
1.332                   1.004811        7.640978
1.336                   1.011298        6.623082
1.34                    1.015045         5.45802
1.344                   1.015232        4.216481
1.348                   1.011596        2.981929
1.352                   1.004505        1.839652
1.356                  0.9949369       0.8646758
1.36                   0.9843752       0.1085685
1.364                  0.9746004      -0.4136637
1.368                  0.9673962       -0.733318
1.372                  0.9642006      -0.9294123
1.376                  0.9657818       -1.117636
1.38                   0.9720297       -1.427286
1.384                  0.9819338       -1.972942
1.388                    0.99376       -2.830692
1.392                   1.005365       -4.025854
1.396                   1.014567       -5.532848
1.4                     1.019486       -7.283236
1.404                   1.018831       -9.177101
1.408                   1.012101       -11.09495
1.412                  0.9997063        -12.9099
1.416                  0.9829987       -14.50202
1.42                   0.9641973       -15.77729
1.424                  0.9461594       -16.69248
1.428                  0.9319698       -17.28209
1.432                  0.9243509       -17.67628
1.436                  0.9249993       -18.09388
1.44                    0.934059       -18.80219
1.444                  0.9499483       -20.05648
1.448                  0.9696079        -22.0477
1.452                  0.9890401       -24.88071
1.456                   1.003918       -28.58335
1.46                    1.010102       -33.13215
1.464                   1.004007       -38.48021
1.468                  0.9828276       -44.58052
1.472                  0.9446737       -51.40479
1.476                   0.888642       -58.96175
1.48                   0.8148662       -67.32274
1.484                  0.7245864        -76.6685
1.488                  0.6203191       -87.39016
1.492                  0.5063619       -100.3294
1.496                  0.3903819       -117.3854
1.5                    0.2885592         -142.81
1.504                  0.2368942        178.3328
1.508                  0.2716629        137.1748
1.512                  0.3667855        109.1249
1.516                  0.4817978        90.73473
1.52                   0.5973143        77.11492
1.524                  0.7044731        65.99302
1.528                  0.7984364        56.37144
1.532                  0.8763467        47.78987
1.536                   0.936685        40.03337
1.54                    0.979057        33.01174
1.544                   1.004113         26.7049
1.548                   1.013502        21.13455
1.552                   1.009801        16.34537
