! TOUCHSTONE file generated by CST MICROWAVE STUDIO
! Date and time: Tue Jun 14 12:12:52 2022
! Project name: AppElm_antenne_patch_FR4.cst
! Parameters = {L=45; W=58.5; e=0.035; h=1.6; lambda=0.190476; ls=120; w0=3.175; w1=0.847; ws=120; y0=18; y1=23.8}
! Header version: 2018
! Port assignment regex: !\s*Touchstone port\s*([0-9]+)\s*=\s*(CST MWS port|CST DS port)\s*([0-9]+|Zmin|Zmax)\s*\(\"(.*)\"\)(\s*mode\s*([0-9]+))?.*
! Touchstone port assignment:
! Touchstone port 1 = CST MWS port 1 ("")
# GHz S MA R 50
0                      0.9856067              -0
0.004                  0.9864322       -9.993013
0.008                  0.9887979       -19.89072
0.012                  0.9923895       -29.60294
0.016                  0.9967361       -39.04883
0.02                    1.001279       -48.15955
0.024                   1.005449       -56.87928
0.028                   1.008744       -65.16497
0.032                   1.010788       -72.98532
0.036                   1.011377       -80.31967
0.04                    1.010497       -87.15714
0.044                   1.008325       -93.49631
0.048                   1.005199       -99.34538
0.052                   1.001571       -104.7226
0.056                   0.997951       -109.6564
0.06                   0.9948293       -114.1851
0.064                  0.9926127       -118.3551
0.068                   0.991566       -122.2183
0.072                  0.9917762       -125.8282
0.076                  0.9931458       -129.2352
0.08                   0.9954137       -132.4827
0.084                  0.9982014       -135.6042
0.088                   1.001074       -138.6214
0.092                   1.003607       -141.5449
0.096                   1.005448       -144.3749
0.1                     1.006361       -147.1047
0.104                   1.006256        -149.723
0.108                   1.005199       -152.2178
0.112                   1.003392       -154.5794
0.116                   1.001143       -156.8029
0.12                   0.9988143       -158.8904
0.124                  0.9967719       -160.8515
0.128                  0.9953241       -162.7031
0.132                  0.9946769       -164.4673
0.136                  0.9949035       -166.1689
0.14                   0.9959364       -167.8321
0.144                  0.9975821       -169.4772
0.148                  0.9995572       -171.1181
0.152                   1.001536       -172.7608
0.156                   1.003205       -174.4039
0.16                    1.004308       -176.0391
0.164                   1.004689       -177.6536
0.168                   1.004308       -179.2322
0.172                   1.003248        179.2395
0.176                   1.001697         177.773
0.18                   0.9999181        176.3746
0.184                  0.9982058        175.0442
0.188                  0.9968378        173.7751
0.192                  0.9960305        172.5548
0.196                  0.9959041        171.3668
0.2                    0.9964634        170.1935
0.204                  0.9976005        169.0187
0.208                  0.9991139        167.8302
0.212                   1.000745        166.6218
0.216                   1.002222        165.3934
0.22                    1.003303        164.1512
0.224                   1.003818        162.9061
0.228                   1.003692        161.6718
0.232                   1.002957        160.4623
0.236                   1.001742        159.2899
0.24                    1.000257        158.1627
0.244                  0.9987519        157.0834
0.248                  0.9974797        156.0489
0.252                  0.9966501        155.0503
0.256                  0.9963971        154.0749
0.26                   0.9967551        153.1076
0.264                  0.9976551        152.1342
0.268                  0.9989374        151.1431
0.272                    1.00038        150.1277
0.276                   1.001737        149.0872
0.28                     1.00278        148.0263
0.284                   1.003338        146.9544
0.288                   1.003322         145.884
0.292                   1.002739        144.8284
0.296                   1.001694        143.7997
0.3                     1.000365        142.8064
0.304                  0.9989813        141.8526
0.308                  0.9977776        140.9363
0.312                  0.9969588        140.0504
0.316                  0.9966619        139.1838
0.32                   0.9969343        138.3228
0.324                  0.9977247        137.4539
0.328                  0.9988936        136.5662
0.332                   1.000238        135.6529
0.336                   1.001526        134.7127
0.34                    1.002538        133.7495
0.344                   1.003104        132.7721
0.348                   1.003129        131.7923
0.352                   1.002612         130.823
0.356                   1.001644        129.8759
0.36                    1.000392        128.9599
0.364                  0.9990719         128.079
0.368                  0.9979115        127.2323
0.372                  0.9971108        126.4131
0.376                  0.9968075        125.6111
0.38                   0.9970527        124.8131
0.384                  0.9978023        124.0062
0.388                  0.9989244        123.1795
0.392                   1.000223        122.3265
0.396                   1.001474        121.4456
0.4                     1.002461        120.5406
0.404                   1.003016          119.62
0.408                   1.003043        118.6953
0.412                   1.002539        117.7793
0.416                   1.001592        116.8836
0.42                    1.000365         116.017
0.424                  0.9990711        115.1837
0.428                  0.9979348        114.3827
0.432                  0.9971542        113.6076
0.436                  0.9968654        112.8481
0.44                   0.9971188        112.0913
0.444                  0.9978697        111.3244
0.448                  0.9989866        110.5367
0.452                   1.000274        109.7217
0.456                   1.001508         108.878
0.46                    1.002473        108.0095
0.464                   1.003003        107.1248
0.468                   1.003005        106.2357
0.472                   1.002478        105.3547
0.476                   1.001512        104.4936
0.48                    1.000276        103.6611
0.484                  0.9989819        102.8613
0.488                   0.997857        102.0929
0.492                  0.9970981        101.3493
0.496                  0.9968391          100.62
0.5                    0.9971261        99.89185
0.504                   0.997909        99.15213
0.508                  0.9990504         98.3902
0.512                    1.00035        97.59972
0.516                   1.001581        96.77966
0.52                    1.002527        95.93436
0.524                   1.003022        95.07277
0.528                   1.002979        94.20686
0.532                   1.002403        93.34963
0.536                   1.001392        92.51282
0.54                    1.000121        91.70498
0.544                  0.9988111        90.92991
0.548                  0.9976913        90.18588
0.552                  0.9969592         89.4659
0.556                  0.9967449        88.75878
0.56                   0.9970879        88.05121
0.564                  0.9979287        87.33012
0.568                  0.9991198        86.58501
0.572                   1.000452        85.80979
0.576                   1.001691        85.00395
0.58                     1.00262        84.17245
0.584                   1.003073        83.32482
0.588                   1.002969        82.47362
0.592                   1.002324        81.63214
0.596                   1.001248        80.81229
0.6                    0.9999251        80.02248
0.604                  0.9985876        79.26602
0.608                  0.9974703         78.5406
0.612                  0.9967715        77.83846
0.616                  0.9966167        77.14773
0.62                   0.9970358        76.45455
0.624                  0.9979566        75.74554
0.628                   0.999218        75.01027
0.632                   1.000598        74.24307
0.636                   1.001854        73.44402
0.64                    1.002764        72.61892
0.644                   1.003165        71.77811
0.648                   1.002986        70.93483
0.652                   1.002253        70.10288
0.656                   1.001091         69.2943
0.66                   0.9997007         68.5173
0.664                  0.9983255        67.77466
0.668                  0.9972082        67.06327
0.672                  0.9965482        66.37442
0.676                  0.9964653        65.69534
0.68                   0.9969775        65.01144
0.684                  0.9979966        64.30905
0.688                   0.999344        63.57778
0.692                   1.000783        62.81244
0.696                   1.002059        62.01392
0.7                     1.002946        61.18893
0.704                   1.003285        60.34888
0.708                   1.003012        59.50784
0.712                   1.002171         58.6802
0.716                   1.000903        57.87818
0.72                   0.9994293        57.10971
0.724                  0.9980064        56.37697
0.728                  0.9968866        55.67583
0.732                  0.9962709        54.99644
0.736                  0.9962718        54.32498
0.74                   0.9968931        53.64602
0.744                  0.9980276        52.94546
0.748                  0.9994761        52.21301
0.752                   1.000983        51.44401
0.756                   1.002282        50.64034
0.76                    1.003141        49.80987
0.764                   1.003405        48.96517
0.768                   1.003022        48.12133
0.772                   1.002053        47.29338
0.776                   1.000661        46.49377
0.78                    0.999088        45.73015
0.784                  0.9976088        45.00389
0.788                  0.9964863        44.30972
0.792                  0.9959222        43.63647
0.796                  0.9960215        42.96901
0.8                    0.9967706        42.29098
0.804                    0.99804        41.58779
0.808                  0.9996068        40.84924
0.812                   1.001194        40.07139
0.816                    1.00252        39.25716
0.82                    1.003348        38.41581
0.824                   1.003526        37.56126
0.828                   1.003015        36.70976
0.832                   1.001898        35.87711
0.836                   1.000364        35.07602
0.84                   0.9986774        34.31377
0.844                  0.9971346        33.59085
0.848                  0.9960104        32.90062
0.852                  0.9955084        32.23037
0.856                  0.9957231         31.5635
0.86                   0.9966217        30.88253
0.864                  0.9980491         30.1723
0.868                  0.9997543        29.42278
0.872                   1.001436        28.63079
0.876                   1.002795        27.80053
0.88                    1.003588        26.94279
0.884                   1.003668        26.07309
0.888                   1.003012          25.209
0.892                   1.001726        24.36724
0.896                   1.000028        23.56078
0.9                    0.9982108        22.79654
0.904                  0.9965953        22.07393
0.908                  0.9954698        21.38477
0.912                  0.9950398        20.71457
0.916                  0.9953888          20.045
0.92                   0.9964613        19.35728
0.924                  0.9980722        18.63564
0.928                  0.9999388        17.87017
0.932                   1.001731         17.0586
0.936                    1.00313        16.20659
0.94                    1.003884        15.32672
0.944                   1.003851        14.43632
0.948                   1.003026        13.55453
0.952                   1.001543        12.69912
0.956                  0.9996532        11.88343
0.96                    0.997683        11.11393
0.964                  0.9959803        10.38885
0.968                  0.9948504        9.698224
0.972                  0.9945013         9.02545
0.976                  0.9950041        8.350205
0.98                   0.9962774        7.652183
0.984                  0.9981013        6.914842
0.988                   1.000156        6.128432
0.992                   1.002078        5.291685
0.996                   1.003524        4.411963
1                       1.004233        3.503913
1.004                   1.004068        2.586977
1.008                   1.003046        1.682148
1.012                   1.001329       0.8084725
1.016                  0.9992105      -0.0202325
1.02                   0.9970549      -0.7979447
1.024                   0.995243       -1.527794
1.028                  0.9941013       -2.221844
1.032                  0.9938418       -2.899165
1.036                  0.9945214       -3.582466
1.04                   0.9960289       -4.293907
1.044                  0.9981038       -5.050974
1.048                   1.000382       -5.863304
1.052                    1.00246       -6.731011
1.056                   1.003966       -7.644783
1.06                    1.004625       -8.587539
1.064                   1.004307       -9.537313
1.068                   1.003049       -10.47089
1.072                   1.001054       -11.36758
1.076                  0.9986566         -12.213
1.08                   0.9962724       -13.00147
1.084                  0.9943219       -13.73774
1.088                  0.9931579       -14.43633
1.092                  0.9929988        -15.1193
1.096                  0.9938864       -15.81226
1.1                    0.9956749       -16.53967
1.104                  0.9980547       -17.32028
1.108                   1.000608       -18.16367
1.112                   1.002883       -19.06867
1.116                   1.004472       -20.02365
1.12                     1.00508       -21.00861
1.124                   1.004583       -21.99852
1.128                   1.003042       -22.96737
1.132                   1.000705       -23.89246
1.136                  0.9979642       -24.75835
1.14                   0.9952914       -25.55987
1.144                    0.99316       -26.30349
1.148                  0.9919576       -27.00673
1.152                  0.9919135       -27.69534
1.156                  0.9930529       -28.39864
1.16                   0.9951886        -29.1441
1.164                  0.9979519       -29.95213
1.168                   1.000858       -30.83239
1.172                   1.003392       -31.78223
1.176                   1.005098       -32.78726
1.18                    1.005658       -33.82391
1.184                   1.004946       -34.86326
1.188                   1.003056        -35.8757
1.192                   1.000287       -36.83577
1.196                  0.9971017       -37.72661
1.2                    0.9940485       -38.54327
1.204                  0.9916685       -39.29435
1.208                  0.9903981       -40.00108
1.212                  0.9904845       -40.69394
1.216                  0.9919359       -41.40716
1.22                    0.994514       -42.17222
1.224                  0.9977749       -43.01196
1.228                   1.001147       -43.93637
1.232                   1.004033       -44.94108
1.236                   1.005909        -46.0083
1.24                     1.00642       -47.10985
1.244                   1.005439       -48.21175
1.248                   1.003093       -49.27955
1.252                  0.9997476       -50.28386
1.256                  0.9959567       -51.20559
1.26                   0.9923708       -52.03975
1.264                  0.9896263       -52.79742
1.268                  0.9882301       -53.50468
1.272                  0.9884606       -54.19839
1.276                  0.9903085       -54.91958
1.28                   0.9934719       -55.70551
1.284                  0.9974067       -56.58263
1.288                   1.001422       -57.56181
1.292                   1.004804       -58.63665
1.296                   1.006933        -59.7849
1.3                     1.007396       -60.97229
1.304                   1.006053       -62.15784
1.308                   1.003071       -63.30019
1.312                  0.9989026       -64.36413
1.316                  0.9942272       -65.32681
1.32                   0.9898408       -66.18255
1.324                  0.9865212       -66.94545
1.328                  0.9848862       -67.64817
1.332                  0.9852694       -68.33687
1.336                  0.9876472        -69.0627
1.34                   0.9916325        -69.8719
1.344                  0.9965392        -70.7968
1.348                   1.001503        -71.8501
1.352                   1.005633       -73.02305
1.356                   1.008161       -74.28738
1.36                    1.008574       -75.60011
1.364                     1.0067       -76.90999
1.368                   1.002749        -78.1651
1.372                  0.9972957        -79.3207
1.376                  0.9912025        -80.3472
1.38                   0.9854909       -81.23667
1.384                  0.9811687       -82.00673
1.388                  0.9790446       -82.69986
1.392                  0.9795613       -83.37692
1.396                  0.9826927       -84.10603
1.4                    0.9879315       -84.94888
1.404                   0.994372       -85.94865
1.408                   1.000869       -87.12235
1.412                   1.006235       -88.45866
1.416                   1.009442       -89.92073
1.42                    1.009784       -91.45225
1.424                   1.007004       -92.98556
1.428                    1.00135       -94.45073
1.432                  0.9935676       -95.78574
1.436                  0.9848147       -96.94692
1.44                   0.9765037        -97.9193
1.444                  0.9700718       -98.72389
1.448                  0.9667137       -99.41911
1.452                  0.9671275       -100.0932
1.456                  0.9713395       -100.8481
1.46                   0.9786623       -101.7784
1.464                  0.9878012       -102.9523
1.468                  0.9970783       -104.3996
1.472                   1.004716        -106.109
1.476                    1.00912       -108.0321
1.48                    1.009128       -110.0917
1.484                   1.004188        -112.192
1.488                  0.9944753       -114.2289
1.492                   0.980932       -116.1029
1.496                  0.9652085       -117.7335
1.5                    0.9494952       -119.0787
1.504                  0.9362173        -120.154
1.508                  0.9275988       -121.0465
1.512                  0.9251633       -121.9133
1.516                  0.9293005       -122.9576
1.52                    0.939052       -124.3878
1.524                  0.9521967       -126.3751
1.528                  0.9655866       -129.0288
1.532                  0.9756039        -132.392
1.536                  0.9786011       -136.4549
1.54                   0.9712483       -141.1734
1.544                  0.9507741       -146.4867
1.548                  0.9151107         -152.33
1.552                  0.8629718       -158.6445
