! TOUCHSTONE file generated by CST MICROWAVE STUDIO
! Date and time: Tue Jun 14 12:12:46 2022
! Project name: AppElm_antenne_patch_FR4.cst
! Parameters = {L=45; W=58.5; e=0.035; h=1.6; lambda=0.190476; ls=120; w0=2.413; w1=0.847; ws=120; y0=18; y1=23.8}
! Header version: 2018
! Port assignment regex: !\s*Touchstone port\s*([0-9]+)\s*=\s*(CST MWS port|CST DS port)\s*([0-9]+|Zmin|Zmax)\s*\(\"(.*)\"\)(\s*mode\s*([0-9]+))?.*
! Touchstone port assignment:
! Touchstone port 1 = CST MWS port 1 ("")
# GHz S MA R 50
0                       0.987856              -0
0.004                  0.9885793       -9.973926
0.008                  0.9906494       -19.85543
0.012                  0.9937822       -29.55684
0.016                  0.9975534       -38.99919
0.02                    1.001462       -48.11481
0.024                   1.005001       -56.84848
0.028                   1.007729       -65.15734
0.032                   1.009325       -73.01025
0.036                   1.009629       -80.38688
0.04                    1.008654       -87.27703
0.044                   1.006587       -93.68034
0.048                   1.003755       -99.60643
0.052                   1.000577        -105.075
0.056                  0.9975096       -110.1155
0.06                   0.9949777       -114.7666
0.064                  0.9933142       -119.0738
0.068                  0.9927131       -123.0866
0.072                   0.993204       -126.8548
0.076                  0.9946536       -130.4241
0.08                   0.9967931       -133.8332
0.084                  0.9992647       -137.1106
0.088                   1.001681       -140.2746
0.092                   1.003682        -143.333
0.096                    1.00499       -146.2856
0.1                     1.005446       -149.1261
0.104                   1.005025       -151.8457
0.108                   1.003835       -154.4357
0.112                   1.002098       -156.8907
0.116                   1.000112         -159.21
0.12                   0.9982003       -161.3997
0.124                  0.9966641       -163.4723
0.128                   0.995734       -165.4458
0.132                  0.9955348        -167.342
0.136                  0.9960693        -169.183
0.14                   0.9972219       -170.9892
0.144                  0.9987819        -172.776
0.148                   1.000481       -174.5528
0.152                   1.002039       -176.3218
0.156                    1.00321        -178.079
0.16                    1.003819       -179.8155
0.164                   1.003786        178.4806
0.168                   1.003139        176.8218
0.172                   1.002002        175.2187
0.176                   1.000578        173.6782
0.18                   0.9991074        172.2021
0.184                  0.9978363        170.7865
0.188                  0.9969694        169.4223
0.192                  0.9966399        168.0964
0.196                  0.9968885         166.794
0.2                    0.9976575        165.5007
0.204                  0.9988045        164.2046
0.208                   1.000127        162.8986
0.212                     1.0014        161.5807
0.216                   1.002411         160.254
0.22                    1.002997        158.9263
0.224                    1.00307        157.6083
0.228                   1.002627        156.3114
0.232                   1.001754        155.0461
0.236                   1.000604        153.8201
0.24                   0.9993748         152.637
0.244                  0.9982759        151.4953
0.248                  0.9974904         150.389
0.252                   0.997146        149.3083
0.256                  0.9972935        148.2413
0.26                   0.9978991         147.176
0.264                  0.9988517        146.1023
0.268                   0.999983        145.0136
0.272                   1.001097         143.908
0.276                   1.002005        142.7881
0.28                    1.002555        141.6605
0.284                   1.002658        140.5347
0.288                   1.002303        139.4213
0.292                   1.001555        138.3302
0.296                   1.000546        137.2691
0.3                    0.9994498        136.2417
0.304                  0.9984557        135.2477
0.308                   0.997733         134.282
0.312                  0.9974032        133.3365
0.316                  0.9975192        132.4005
0.32                    0.998057        131.4633
0.324                  0.9989193        130.5157
0.328                  0.9999542        129.5514
0.332                   1.000983        128.5686
0.336                   1.001827        127.5694
0.34                    1.002344        126.5602
0.344                   1.002448        125.5497
0.348                   1.002123         124.548
0.352                   1.001429        123.5646
0.356                   1.000486        122.6068
0.36                   0.9994584        121.6786
0.364                  0.9985249        120.7798
0.368                  0.9978463        119.9058
0.372                  0.9975398        119.0491
0.376                  0.9976571        118.1995
0.38                   0.9981762         117.347
0.384                  0.9990047        116.4827
0.388                  0.9999974        115.6009
0.392                   1.000982        114.6995
0.396                   1.001786        113.7809
0.4                     1.002274        112.8512
0.404                    1.00236         111.919
0.408                   1.002031        110.9941
0.412                   1.001345        110.0859
0.416                   1.000422        109.2015
0.42                   0.9994214        108.3446
0.424                  0.9985187        107.5151
0.428                  0.9978712        106.7085
0.432                  0.9975921        105.9172
0.436                  0.9977304        105.1314
0.44                   0.9982614        104.3411
0.444                  0.9990919        103.5377
0.448                   1.000076        102.7156
0.452                   1.001042        101.8732
0.456                   1.001821        101.0129
0.46                    1.002278         100.141
0.464                   1.002332        99.26629
0.468                   1.001973         98.3985
0.472                   1.001264        97.54697
0.476                   1.000327        96.71871
0.48                   0.9993246        95.91734
0.484                  0.9984332        95.14236
0.488                  0.9978092        94.38911
0.492                  0.9975626        93.64966
0.496                  0.9977376        92.91411
0.5                    0.9983043        92.17237
0.504                  0.9991631        91.41596
0.508                   1.000163        90.63952
0.512                   1.001129        89.84172
0.516                   1.001891        89.02546
0.52                    1.002314        88.19731
0.524                   1.002323        87.36645
0.528                   1.001915        86.54293
0.532                   1.001158         85.7361
0.536                   1.000183        84.95289
0.54                    0.999161        84.19665
0.544                  0.9982703        83.46644
0.548                  0.9976687        82.75712
0.552                  0.9974635        82.06028
0.556                  0.9976926        81.36559
0.56                   0.9983172        80.66277
0.564                  0.9992277        79.94333
0.568                   1.000264        79.20217
0.572                   1.001244        78.43842
0.576                   1.001995        77.65552
0.58                    1.002381         76.8607
0.584                   1.002334        76.06365
0.588                   1.001859        75.27484
0.592                   1.001035         74.5038
0.596                   1.000006        73.75736
0.6                    0.9989507         73.0385
0.604                  0.9980555        72.34567
0.608                  0.9974799        71.67308
0.612                   0.997328        71.01155
0.616                  0.9976292        70.35021
0.62                   0.9983327         69.6784
0.624                  0.9993156        68.98768
0.628                   1.000405        68.27317
0.632                   1.001409        67.53461
0.636                   1.002149        66.77623
0.64                    1.002492        66.00604
0.644                   1.002375        65.23448
0.648                   1.001815        64.47254
0.652                   1.000906        63.72996
0.656                  0.9998054        63.01351
0.66                   0.9987063        62.32562
0.664                  0.9978034        61.66408
0.668                  0.9972588         61.0221
0.672                   0.997172        60.38964
0.676                  0.9975622        59.75508
0.68                   0.9983631        59.10734
0.684                  0.9994353        58.43791
0.688                    1.00059        57.74237
0.692                   1.001622        57.02113
0.696                   1.002348         56.2794
0.7                     1.002636         55.5262
0.704                   1.002432        54.77284
0.708                   1.001766        54.03098
0.712                    1.00075        53.31063
0.716                  0.9995622        52.61834
0.72                   0.9984092        51.95601
0.724                  0.9974966        51.32044
0.728                   0.996989        50.70377
0.732                  0.9969808        50.09481
0.736                  0.9974775        49.48107
0.74                   0.9983946        48.85097
0.744                  0.9995715        48.19602
0.748                     1.0008        47.51229
0.752                   1.001863        46.80108
0.756                   1.002569        46.06875
0.76                    1.002788        45.32553
0.764                   1.002477        44.58378
0.768                   1.001683        43.85591
0.772                   1.000542         43.1522
0.776                  0.9992498        42.47897
0.78                   0.9980351        41.83737
0.784                  0.9971141        41.22307
0.788                   0.996654        40.62684
0.792                  0.9967412        40.03621
0.796                  0.9973654        39.43765
0.8                    0.9984197        38.81906
0.804                   0.999719        38.17197
0.808                   1.001033        37.49308
0.812                   1.002128         36.7848
0.816                   1.002806        36.05484
0.82                    1.002942        35.31484
0.824                   1.002503        34.57841
0.828                    1.00156        33.85877
0.832                   1.000272        33.16648
0.836                  0.9988631        32.50753
0.84                   0.9975814        31.88217
0.844                  0.9966566        31.28468
0.848                  0.9962577        30.70428
0.852                  0.9964621        30.12693
0.856                  0.9972391        29.53796
0.86                   0.9984553        28.92469
0.864                  0.9998972        28.27875
0.868                   1.001309        27.59762
0.872                   1.002438        26.88504
0.876                   1.003081        26.15031
0.88                    1.003115        25.40672
0.884                   1.002526        24.66927
0.888                   1.001408        23.95211
0.892                  0.9999525        23.26609
0.896                   0.998411        22.61678
0.9                    0.9970568        22.00331
0.904                  0.9961339        21.41834
0.908                   0.995813        20.84919
0.912                  0.9961588         20.2801
0.916                   0.997117        19.69505
0.92                   0.9985229        19.08072
0.924                   1.000129        18.42895
0.928                   1.001652        17.73819
0.932                   1.002816        17.01371
0.936                   1.003412        16.26673
0.94                    1.003324        15.51243
0.944                   1.002556         14.7674
0.948                   1.001233        14.04687
0.952                  0.9995814        13.36197
0.956                  0.9978873        12.71772
0.96                   0.9964518        12.11193
0.964                  0.9955354         11.5353
0.968                  0.9953094        10.97298
0.972                  0.9958236        10.40714
0.976                  0.9969951        9.820243
0.98                   0.9986219        9.198286
0.984                   1.000418        8.533383
0.988                   1.002064        7.825141
0.992                   1.003265        7.080701
0.996                     1.0038         6.31348
1                       1.003562        5.540881
1.004                   1.002579         4.78138
1.008                   1.001013        4.051392
1.012                  0.9991279        3.362391
1.016                  0.9972536        2.718736
1.02                   0.9957233        2.116624
1.024                  0.9948158        1.544475
1.028                  0.9947033       0.9848167
1.032                  0.9954173       0.4173898
1.036                  0.9968408      -0.1771197
1.04                   0.9987277      -0.8134912
1.044                   1.000746       -1.499268
1.048                   1.002536       -2.233438
1.052                   1.003775       -3.006661
1.056                   1.004233       -3.802902
1.06                    1.003813       -4.602129
1.064                   1.002572        -5.38365
1.068                   1.000711       -6.129599
1.072                  0.9985458       -6.828095
1.076                  0.9964543       -7.475558
1.08                   0.9948095       -8.077699
1.084                  0.9939125       -8.648867
1.088                  0.9939364       -9.209652
1.092                  0.9948911       -9.783307
1.096                  0.9966188       -10.39128
1.1                    0.9988202       -11.04921
1.104                   1.001108       -11.76442
1.108                   1.003073       -12.53404
1.112                    1.00436       -13.34621
1.116                   1.004726        -14.1817
1.12                    1.004086       -15.01731
1.124                    1.00253       -15.82966
1.128                   1.000309         -16.599
1.132                  0.9977997       -17.31294
1.136                  0.9954394       -17.96875
1.14                   0.9936501       -18.57443
1.144                  0.9927627        -19.1477
1.148                  0.9929521       -19.71307
1.152                   0.994203        -20.2974
1.156                  0.9963076       -20.92489
1.16                   0.9989017       -21.61253
1.164                   1.001528       -22.36701
1.168                   1.003719       -23.18365
1.172                   1.005074        -24.0473
1.176                   1.005334        -24.9349
1.18                    1.004425       -25.81927
1.184                   1.002476       -26.67354
1.188                  0.9998013       -27.47558
1.192                  0.9968516       -28.21208
1.196                   0.994141       -28.88123
1.2                    0.9921559        -29.4938
1.204                  0.9912669       -30.07173
1.208                  0.9916556       -30.64453
1.212                  0.9932768       -31.24385
1.216                  0.9958615       -31.89749
1.22                   0.9989629       -32.62426
1.224                   1.002035       -33.43047
1.228                   1.004529       -34.30908
1.232                   1.005986       -35.24093
1.236                   1.006122       -36.19807
1.24                    1.004872       -37.14812
1.244                   1.002412       -38.05959
1.248                  0.9991333        -38.9069
1.252                  0.9955858       -39.67522
1.256                  0.9923854        -40.3636
1.26                   0.9901084       -40.98615
1.264                  0.9891836       -41.57035
1.268                  0.9898084       -42.15238
1.272                  0.9919035       -42.77054
1.276                  0.9951222       -43.45782
1.28                   0.9989083       -44.23579
1.284                   1.002595       -45.11067
1.288                    1.00552       -46.07253
1.292                   1.007141       -47.09711
1.296                   1.007127       -48.14989
1.3                      1.00542       -49.19145
1.304                   1.002253       -50.18358
1.308                  0.9981166        -51.0955
1.312                  0.9936957       -51.90954
1.316                  0.9897528       -52.62528
1.32                   0.9869976       -53.26102
1.324                  0.9859545       -53.85173
1.328                  0.9868548        -54.4433
1.332                  0.9895831       -55.08392
1.336                  0.9936887       -55.81473
1.34                   0.9984618       -56.66203
1.344                   1.003059       -57.63262
1.348                   1.006648       -58.71308
1.352                   1.008549       -59.87227
1.356                   1.008352       -61.06646
1.36                    1.005988       -62.24579
1.364                   1.001754       -63.36168
1.368                   0.996283       -64.37457
1.372                  0.9904548       -65.26124
1.376                  0.9852605       -66.02056
1.38                   0.9816316       -66.67604
1.384                  0.9802624       -67.27386
1.388                  0.9814654       -67.87526
1.392                  0.9850921       -68.54508
1.396                  0.9905454       -69.33885
1.4                    0.9968795       -70.29203
1.404                   1.002965       -71.41405
1.408                   1.007681       -72.68744
1.412                   1.010104       -74.07138
1.416                   1.009653       -75.50805
1.42                    1.006204       -76.93082
1.424                    1.00012       -78.27324
1.428                  0.9922339       -79.47904
1.432                   0.983742       -80.51239
1.436                  0.9760368       -81.36729
1.44                   0.9704721       -82.07328
1.444                   0.968104       -82.69491
1.448                  0.9694592       -83.32222
1.452                  0.9743956       -84.05377
1.456                  0.9820943       -84.97635
1.46                    0.991193       -86.14798
1.464                   1.000018       -87.58842
1.468                   1.006864       -89.27804
1.472                   1.010259       -91.16293
1.476                   1.009192       -93.16333
1.48                    1.003278       -95.18338
1.484                  0.9928534       -97.12191
1.488                  0.9789912       -98.88491
1.492                  0.9634299        -100.401
1.496                  0.9483785       -101.6399
1.5                    0.9361936        -102.631
1.504                  0.9289387        -103.474
1.508                  0.9279036        -104.333
1.512                  0.9332185       -105.4099
1.516                  0.9437001       -106.9034
1.52                   0.9569845       -108.9704
1.524                  0.9698818       -111.7057
1.528                  0.9788215       -115.1416
1.532                  0.9802647       -119.2619
1.536                  0.9710243       -124.0201
1.54                    0.948482       -129.3553
1.544                  0.9107194        -135.204
1.548                  0.8565848       -141.5093
1.552                  0.7857128       -148.2267
