! TOUCHSTONE file generated by CST MICROWAVE STUDIO
! Date and time: Tue Jun 14 12:12:50 2022
! Project name: AppElm_antenne_patch_FR4.cst
! Parameters = {L=45; W=58.5; e=0.035; h=1.6; lambda=0.190476; ls=120; w0=2.921; w1=0.847; ws=120; y0=18; y1=23.8}
! Header version: 2018
! Port assignment regex: !\s*Touchstone port\s*([0-9]+)\s*=\s*(CST MWS port|CST DS port)\s*([0-9]+|Zmin|Zmax)\s*\(\"(.*)\"\)(\s*mode\s*([0-9]+))?.*
! Touchstone port assignment:
! Touchstone port 1 = CST MWS port 1 ("")
# GHz S MA R 50
0                      0.9862452              -0
0.004                  0.9870409        -9.98489
0.008                   0.989321       -19.87545
0.012                  0.9927802       -29.58234
0.016                  0.9969615       -39.02537
0.02                    1.001323       -48.13612
0.024                   1.005316       -56.85897
0.028                   1.008452       -65.15097
0.032                   1.010374       -72.98084
0.036                   1.010888       -80.32801
0.04                    1.009989       -87.18173
0.044                   1.007853       -93.54086
0.048                   1.004814       -99.41391
0.052                   1.001316       -104.8194
0.056                  0.9978505        -109.786
0.06                   0.9948912        -114.352
0.064                  0.9928235       -118.5634
0.068                  0.9918932       -122.4715
0.072                  0.9921727       -126.1285
0.076                  0.9935558       -129.5835
0.08                   0.9957808       -132.8786
0.084                  0.9984766        -136.046
0.088                   1.001222       -139.1065
0.092                   1.003611         -142.07
0.096                   1.005311       -144.9367
0.1                     1.006107       -147.7001
0.104                   1.005925       -150.3496
0.108                   1.004842       -152.8742
0.112                   1.003062       -155.2652
0.116                   1.000889        -157.519
0.12                   0.9986761       -159.6386
0.124                  0.9967693       -161.6342
0.128                  0.9954561       -163.5231
0.132                  0.9949217       -165.3272
0.136                  0.9952217       -167.0705
0.14                    0.996277       -168.7761
0.144                  0.9978909       -170.4629
0.148                   0.999786       -172.1438
0.152                    1.00165       -173.8239
0.156                   1.003187        -175.501
0.16                    1.004163       -177.1669
0.164                   1.004441        -178.809
0.168                   1.003998         179.587
0.172                   1.002927        178.0345
0.176                   1.001417        176.5439
0.18                   0.9997256        175.1203
0.184                  0.9981314        173.7625
0.188                  0.9968935        172.4635
0.192                  0.9962066        171.2106
0.196                  0.9961703        169.9879
0.2                    0.9967751        168.7786
0.204                  0.9979049        167.5678
0.208                  0.9993601        166.3445
0.212                   1.000892        165.1035
0.216                   1.002245        163.8457
0.22                    1.003199        162.5773
0.224                   1.003605        161.3093
0.228                   1.003405        160.0546
0.232                   1.002643        158.8264
0.236                   1.001454        157.6355
0.24                    1.000043        156.4891
0.244                  0.9986475        155.3888
0.248                  0.9975019        154.3308
0.252                  0.9967947        153.3062
0.256                  0.9966386        152.3023
0.26                   0.9970519        151.3052
0.264                  0.9979558        150.3016
0.268                  0.9991903        149.2814
0.272                   1.000542        148.2389
0.276                    1.00178        147.1743
0.28                    1.002697        146.0926
0.284                   1.003143        145.0031
0.288                   1.003048        143.9179
0.292                   1.002432        142.8493
0.296                   1.001405        141.8081
0.3                     1.000145        140.8018
0.304                  0.9988663        139.8331
0.308                  0.9977879        138.8997
0.312                  0.9970924        137.9941
0.316                  0.9968957        137.1054
0.32                   0.9972278        136.2207
0.324                  0.9980271        135.3279
0.328                  0.9991532         134.417
0.332                    1.00041        133.4826
0.336                   1.001581        132.5241
0.34                    1.002467        131.5461
0.344                   1.002919        130.5572
0.348                   1.002862        129.5686
0.352                   1.002309        128.5924
0.356                   1.001357        127.6391
0.36                     1.00017        126.7164
0.364                   0.998954        125.8272
0.368                  0.9979184        124.9698
0.372                  0.9972419        124.1374
0.376                  0.9970407        123.3196
0.38                   0.9973479        122.5045
0.384                  0.9981086        121.6799
0.388                  0.9991894        120.8364
0.392                   1.000402        119.9685
0.396                   1.001536        119.0757
0.4                     1.002396        118.1622
0.404                   1.002835        117.2364
0.408                   1.002778        116.3094
0.412                   1.002235        115.3929
0.416                   1.001303        114.4976
0.42                     1.00014        113.6309
0.424                  0.9989504        112.7958
0.428                  0.9979398        111.9907
0.432                  0.9972847         111.209
0.436                  0.9970996        110.4403
0.44                   0.9974166        109.6728
0.444                    0.99818        108.8947
0.448                  0.9992558        108.0966
0.452                   1.000456        107.2732
0.456                   1.001571         106.424
0.46                    1.002408        105.5535
0.464                   1.002819        104.6702
0.468                   1.002735        103.7853
0.472                   1.002168        102.9106
0.476                   1.001216        102.0565
0.48                    1.000045        101.2306
0.484                  0.9988564        100.4357
0.488                  0.9978594        99.66982
0.492                  0.9972288        98.92609
0.496                   0.997076        98.19412
0.5                    0.9974285        97.46173
0.504                   0.998225        96.71716
0.508                  0.9993253        95.95116
0.512                   1.000537        95.15864
0.516                   1.001647        94.33951
0.52                     1.00246        93.49865
0.524                   1.002834        92.64497
0.528                   1.002702        91.78997
0.532                   1.002085        90.94562
0.536                   1.001087        90.12254
0.54                   0.9998829        89.32793
0.544                  0.9986812        88.56441
0.548                  0.9976933        87.82945
0.552                  0.9970938        87.11571
0.556                  0.9969901        86.41227
0.56                   0.9974017        85.70659
0.564                  0.9982574         84.9868
0.568                  0.9994071         84.2437
0.572                   1.000648        83.47257
0.576                   1.001763        82.67385
0.58                    1.002554        81.85302
0.584                   1.002882         81.0197
0.588                   1.002685        80.18586
0.592                   1.001996        79.36383
0.596                   1.000933        78.56429
0.6                    0.9996791        77.79421
0.604                  0.9984542        77.05577
0.608                  0.9974745        76.34575
0.612                  0.9969148        75.65601
0.616                  0.9968763        74.97494
0.62                   0.9973682        74.28949
0.624                  0.9983059        73.58751
0.628                  0.9995247        72.85999
0.632                    1.00081         72.1026
0.636                   1.001935        71.31653
0.64                    1.002701        70.50808
0.644                    1.00297        69.68769
0.648                   1.002692        68.86803
0.652                   1.001911        68.06189
0.656                   1.000762        67.28001
0.66                   0.9994431        66.52912
0.664                  0.9981864        65.81075
0.668                  0.9972147        65.12081
0.672                  0.9967023        64.45019
0.676                  0.9967436        63.78638
0.68                   0.9973342        63.11563
0.684                  0.9983724        62.42553
0.688                  0.9996758        61.70724
0.692                   1.001015        60.95699
0.696                   1.002152        60.17683
0.7                     1.002884        59.37412
0.704                   1.003081         58.5603
0.708                   1.002701        57.74889
0.712                   1.001807        56.95323
0.716                   1.000552         56.1841
0.72                   0.9991534        55.44792
0.724                  0.9978572        54.74543
0.728                  0.9968941        54.07147
0.732                  0.9964379        53.41576
0.736                  0.9965738        52.76467
0.74                   0.9972812        52.10371
0.744                  0.9984378        51.42013
0.748                    0.99984        50.70528
0.752                    1.00124        49.95612
0.756                   1.002389        49.17573
0.76                     1.00308         48.3727
0.764                   1.003189        47.55969
0.768                   1.002688         46.7512
0.772                    1.00166        45.96114
0.776                    1.00028        45.20042
0.78                   0.9987884          44.475
0.784                  0.9974473        43.78468
0.788                  0.9964963        43.12304
0.792                   0.996108        42.47839
0.796                  0.9963564        41.83583
0.8                    0.9972016        41.17998
0.804                  0.9984968        40.49774
0.808                   1.000014        39.78074
0.812                   1.001484        39.02675
0.816                   1.002645        38.24012
0.82                    1.003288        37.43088
0.824                   1.003293        36.61308
0.828                   1.002652        35.80233
0.832                   1.001469        35.01323
0.836                  0.9999469        34.25675
0.84                     0.99835        33.53833
0.844                  0.9969605        32.85666
0.848                  0.9960276        32.20383
0.852                   0.995722        31.56651
0.856                  0.9961041        30.92834
0.86                   0.9971113        30.27291
0.864                  0.9985685        29.58678
0.868                   1.000219        28.86189
0.872                    1.00177        28.09704
0.876                   1.002944        27.29801
0.88                     1.00353        26.47649
0.884                   1.003415        25.64814
0.888                   1.002611        24.82987
0.892                    1.00125          24.037
0.896                  0.9995641        23.28063
0.9                    0.9978483        22.56549
0.904                  0.9964059        21.88905
0.908                  0.9954971        21.24159
0.912                  0.9952899        20.60792
0.916                   0.995829           19.97
0.92                   0.9970248        19.31025
0.924                  0.9986695        18.61483
0.928                   1.000473        17.87612
0.932                   1.002117        17.09407
0.936                   1.003304        16.27614
0.94                    1.003821        15.43596
0.944                   1.003565        14.59103
0.948                   1.002571        13.75974
0.952                   1.001002        12.95828
0.956                  0.9991271        12.19782
0.96                    0.997273        11.48238
0.964                  0.9957691        10.80787
0.968                  0.9948882        10.16258
0.972                  0.9947956        9.529106
0.976                  0.9955166        8.887434
0.98                   0.9969311         8.21866
0.984                  0.9987928         7.50848
0.988                   1.000774        6.749781
0.992                   1.002522        5.943864
0.996                   1.003724        5.100149
1                       1.004158        4.234507
1.004                   1.003736        3.366575
1.008                   1.002517        2.516484
1.012                   1.000702        1.701461
1.016                  0.9986021        0.932789
1.02                   0.9965828       0.2136325
1.024                  0.9950038      -0.4618427
1.028                   0.994153       -1.107737
1.032                  0.9941923       -1.744065
1.036                  0.9951256       -2.393155
1.04                   0.9967962       -3.075502
1.044                  0.9989131       -3.805968
1.048                   1.001103       -4.591095
1.052                   1.002976       -5.428007
1.056                   1.004195       -6.304999
1.06                    1.004532       -7.203573
1.064                   1.003913       -8.101542
1.068                   1.002426       -8.976692
1.072                   1.000318       -9.810519
1.076                  0.9979461       -10.59154
1.08                   0.9957252       -11.31753
1.084                  0.9940516       -11.99637
1.088                   0.993232       -12.64505
1.092                  0.9934257       -13.28667
1.096                  0.9946116       -13.94642
1.1                    0.9965899       -14.64673
1.104                  0.9990161       -15.40321
1.108                   1.001462       -16.22174
1.112                   1.003492        -17.0977
1.116                   1.004738       -18.01658
1.12                    1.004965       -18.95677
1.124                    1.00411         -19.893
1.128                   1.002301       -20.80045
1.132                  0.9998332       -21.65898
1.136                  0.9971257       -22.45668
1.14                   0.9946513       -23.19242
1.144                   0.992853        -23.8765
1.148                  0.9920633       -24.52933
1.152                  0.9924404       -25.17795
1.156                  0.9939342       -25.85106
1.16                   0.9962929       -26.57367
1.164                  0.9991065       -27.36241
1.168                   1.001879       -28.22253
1.172                   1.004115       -29.14717
1.176                   1.005407       -30.11864
1.18                    1.005507       -31.11143
1.184                   1.004367       -32.09633
1.188                   1.002156       -33.04519
1.192                   0.999233       -33.93559
1.196                  0.9960924       -34.75494
1.2                    0.9932823       -35.50321
1.204                  0.9913081       -36.19361
1.208                  0.9905387        -36.8509
1.212                  0.9911343       -37.50713
1.216                  0.9930118       -38.19571
1.22                   0.9958555       -38.94506
1.224                  0.9991713       -39.77337
1.228                   1.002375       -40.68529
1.232                   1.004892       -41.67137
1.236                   1.006262       -42.70984
1.24                    1.006212       -43.77021
1.244                   1.004709       -44.81816
1.248                   1.001972         -45.821
1.252                  0.9984407       -46.75302
1.256                  0.9947076       -47.60032
1.26                   0.9914233       -48.36393
1.264                  0.9891802       -49.06072
1.268                  0.9884024       -49.72111
1.272                  0.9892602       -50.38392
1.276                  0.9916317       -51.08915
1.28                    0.995119       -51.87021
1.284                  0.9991161       -52.74775
1.288                   1.002917       -53.72597
1.292                   1.005839       -54.79228
1.296                   1.007337       -55.91954
1.3                     1.007101       -57.07069
1.304                   1.005108       -58.20426
1.308                   1.001638       -59.28098
1.312                  0.9972362        -60.2701
1.316                  0.9926331        -61.1552
1.32                   0.9886262       -61.93817
1.324                  0.9859394        -62.6405
1.328                  0.9850861       -63.30051
1.332                  0.9862638       -63.96694
1.336                  0.9893053       -64.68966
1.34                   0.9937008       -65.50992
1.344                  0.9986857       -66.45265
1.348                   1.003376       -67.52211
1.352                   1.006919       -68.70166
1.356                    1.00864       -69.95696
1.36                    1.008155       -71.24139
1.364                   1.005442       -72.50299
1.368                   1.000855       -73.69215
1.372                  0.9950892       -74.76963
1.376                  0.9890784       -75.71387
1.38                   0.9838518       -76.52683
1.384                  0.9803519       -77.23606
1.388                   0.979254       -77.89187
1.392                  0.9808215       -78.55899
1.396                  0.9848374       -79.30392
1.4                    0.9906286       -80.18189
1.404                  0.9971822       -81.22615
1.408                   1.003323       -82.44248
1.412                   1.007911       -83.80922
1.416                   1.010035       -85.28141
1.42                     1.00916       -86.79781
1.424                   1.005223       -88.28925
1.428                  0.9986678       -89.68828
1.432                  0.9904089       -90.93921
1.436                  0.9817168       -92.00886
1.44                   0.9740321       -92.89575
1.444                  0.9687183       -93.63554
1.448                  0.9667955       -94.29905
1.452                  0.9687109       -94.98139
1.456                  0.9742124       -95.78335
1.46                   0.9823649       -96.79052
1.464                  0.9917062       -98.05683
1.468                   1.000499       -99.59602
1.472                   1.007018        -101.382
1.476                   1.009819       -103.3547
1.48                    1.007964       -105.4293
1.484                    1.00117       -107.5064
1.488                  0.9899036       -109.4829
1.492                  0.9753783       -111.2653
1.496                  0.9594619       -112.7863
1.5                    0.9444578       -114.0237
1.504                   0.932751       -115.0187
1.508                  0.9263425       -115.8855
1.512                   0.926362       -116.8008
1.516                  0.9327049       -117.9733
1.52                   0.9439293       -119.6004
1.524                   0.957443        -121.831
1.528                  0.9698971       -124.7491
1.532                  0.9776444       -128.3767
1.536                  0.9771471       -132.6902
1.54                   0.9652805       -137.6385
1.544                  0.9395358       -143.1597
1.548                  0.8981368        -149.192
1.552                  0.8400956       -155.6825
