! TOUCHSTONE file generated by CST MICROWAVE STUDIO
! Date and time: Thu Jun  9 07:40:00 2022
! Project name: AppElm_antenne_patch_Alumina.cst
! Parameters = {L=30.5; W=43.89; e=0.035; h=1.6; lambda=0.190476; ls=90; w0=1.12; w1=0.373; ws=90; y0=14; y1=10}
! Header version: 2018
! Port assignment regex: !\s*Touchstone port\s*([0-9]+)\s*=\s*(CST MWS port|CST DS port)\s*([0-9]+|Zmin|Zmax)\s*\(\"(.*)\"\)(\s*mode\s*([0-9]+))?.*
! Touchstone port assignment:
! Touchstone port 1 = CST MWS port 1 ("")
# GHz S MA R 50
0                      0.9747895              -0
0.004                  0.9761669       -10.78704
0.008                   0.980116       -21.45072
0.012                  0.9861173       -31.87636
0.016                  0.9933966       -41.96465
0.02                    1.001041       -51.63504
0.024                   1.008126       -60.82601
0.028                   1.013832       -69.49304
0.032                   1.017543       -77.60566
0.036                   1.018905       -85.14459
0.04                    1.017863       -92.09996
0.044                   1.014658       -98.47076
0.048                   1.009791       -104.2656
0.052                   1.003958        -109.504
0.056                  0.9979653       -114.2187
0.06                   0.9926189       -118.4562
0.064                  0.9886138       -122.2764
0.068                  0.9864366        -125.749
0.072                  0.9862955       -128.9484
0.076                  0.9880957       -131.9464
0.08                   0.9914667       -134.8053
0.084                  0.9958282       -137.5721
0.088                    1.00049       -140.2762
0.092                   1.004756       -142.9286
0.096                   1.008027       -145.5249
0.1                     1.009879       -148.0488
0.104                    1.01011       -150.4772
0.108                   1.008763       -152.7847
0.112                   1.006106       -154.9488
0.116                   1.002594        -156.954
0.12                   0.9987945       -158.7955
0.124                  0.9953049       -160.4806
0.128                  0.9926593       -162.0294
0.132                  0.9912457        -163.472
0.136                  0.9912467       -164.8453
0.14                   0.9926136       -166.1863
0.144                  0.9950811       -167.5278
0.148                  0.9982175       -168.8929
0.152                   1.001501       -170.2925
0.156                   1.004405       -171.7249
0.16                    1.006482       -173.1774
0.164                   1.007428       -174.6286
0.168                   1.007125       -176.0529
0.172                   1.005653       -177.4247
0.176                   1.003277       -178.7219
0.18                    1.000399       -179.9302
0.184                  0.9974977        178.9549
0.188                  0.9950485        177.9267
0.192                  0.9934471         176.968
0.196                  0.9929429        176.0539
0.2                    0.9935988        175.1558
0.204                  0.9952828        174.2462
0.208                  0.9976944        173.3035
0.212                   1.000418        172.3151
0.216                   1.002998        171.2793
0.22                    1.005009        170.2046
0.224                   1.006133        169.1081
0.228                   1.006197        168.0124
0.232                   1.005208        166.9416
0.236                   1.003344        165.9179
0.24                    1.000924        164.9576
0.244                   0.998359        164.0685
0.248                  0.9960831        163.2485
0.252                   0.994478        162.4855
0.256                  0.9938101        161.7594
0.26                   0.9941835        161.0455
0.264                  0.9955233         160.319
0.268                  0.9975896        159.5589
0.272                   1.000023        158.7521
0.276                   1.002405        157.8953
0.28                    1.004336        156.9946
0.284                   1.005494        156.0651
0.288                   1.005691        155.1271
0.292                   1.004903        154.2037
0.296                    1.00327        153.3164
0.3                     1.001073        152.4819
0.304                    0.99869         151.709
0.308                  0.9965294        150.9975
0.312                  0.9949623        150.3372
0.316                  0.9942571        149.7101
0.32                   0.9945311        149.0934
0.324                  0.9957314        148.4635
0.328                  0.9976442           147.8
0.332                   0.999934        147.0899
0.336                   1.002204        146.3291
0.34                    1.004065        145.5232
0.344                     1.0052        144.6861
0.348                    1.00542        143.8373
0.352                   1.004692        142.9993
0.356                   1.003141        142.1931
0.36                    1.001038        141.4352
0.364                  0.9987448        140.7348
0.368                  0.9966595        140.0919
0.372                  0.9951453        139.4969
0.376                  0.9944662        138.9326
0.38                   0.9947395        138.3767
0.384                   0.995915        137.8062
0.388                  0.9977839        137.2014
0.392                   1.000017        136.5493
0.396                   1.002225        135.8463
0.4                     1.004024        135.0978
0.404                   1.005105        134.3177
0.408                   1.005283        133.5256
0.412                   1.004529        132.7434
0.416                   1.002973        131.9922
0.42                    1.000884        131.2881
0.424                  0.9986269        130.6399
0.428                  0.9965947        130.0471
0.432                  0.9951454        129.5001
0.436                   0.994535        128.9813
0.44                   0.9948718        128.4684
0.444                  0.9960959        127.9387
0.448                    0.99799        127.3727
0.452                    1.00022        126.7583
0.456                   1.002393        126.0923
0.46                    1.004131        125.3811
0.464                   1.005131        124.6389
0.468                   1.005219        123.8857
0.472                   1.004379        123.1439
0.476                   1.002757         122.434
0.48                    1.000632        121.7719
0.484                  0.9983769        121.1656
0.488                  0.9963878        120.6138
0.492                  0.9950178        120.1058
0.496                  0.9945113        119.6232
0.5                      0.99496        119.1435
0.504                  0.9962854        118.6436
0.508                  0.9982523        118.1049
0.512                   1.000512        117.5157
0.516                   1.002666        116.8743
0.52                    1.004337        116.1879
0.524                    1.00523        115.4721
0.528                   1.005188        114.7475
0.532                   1.004217        114.0369
0.536                   1.002483        113.3607
0.54                    1.000288        112.7342
0.544                  0.9980168        112.1643
0.548                  0.9960709        111.6482
0.552                  0.9947982        111.1741
0.556                  0.9944283        110.7222
0.56                   0.9950301        110.2692
0.564                  0.9964979         109.792
0.568                  0.9985713        109.2724
0.572                   1.000882        108.7001
0.576                   1.003021        108.0746
0.58                     1.00461        107.4048
0.584                   1.005368        106.7078
0.588                   1.005161        106.0053
0.592                    1.00402        105.3203
0.596                   1.002141        104.6733
0.6                    0.9998526        104.0787
0.604                  0.9975569         103.542
0.608                  0.9956627        103.0588
0.612                  0.9945109        102.6151
0.616                  0.9943115          102.19
0.62                   0.9951039        101.7589
0.624                   0.996749        101.2989
0.628                   0.998954        100.7922
0.632                   1.001327        100.2302
0.636                   1.003446        99.61408
0.64                    1.004935        98.95486
0.644                    1.00553        98.27116
0.648                   1.005121        97.58606
0.652                   1.003775        96.92317
0.656                   1.001725        96.30266
0.66                   0.9993281        95.73783
0.664                  0.9970089        95.23249
0.668                  0.9951825        94.78009
0.672                  0.9941801        94.36446
0.676                  0.9941867        93.96279
0.68                   0.9952059        93.54959
0.684                  0.9970582        93.10176
0.688                  0.9994133        92.60266
0.692                   1.001852        92.04525
0.696                   1.003939        91.43305
0.7                     1.005303        90.77936
0.704                     1.0057        90.10482
0.708                   1.005053        89.43388
0.712                   1.003471        88.79067
0.716                   1.001226        88.19496
0.72                    0.998713         87.6587
0.724                   0.996378        87.18359
0.728                  0.9946421        86.76049
0.732                  0.9938222        86.37074
0.736                  0.9940727        85.98948
0.74                   0.9953539         85.5902
0.744                  0.9974393        85.14986
0.748                  0.9999567        84.65313
0.752                   1.002456        84.09507
0.756                   1.004492        83.48187
0.76                    1.005699        82.82944
0.764                   1.005859        82.16064
0.768                   1.004936        81.50136
0.772                   1.003085        80.87624
0.776                   1.000626         80.3044
0.78                   0.9979933         79.7961
0.784                  0.9956564         79.3505
0.788                   0.994039        78.95549
0.792                  0.9934394        78.58957
0.796                  0.9939738        78.22565
0.8                    0.9955518        77.83624
0.804                  0.9978932        77.39862
0.808                   1.000579        76.89911
0.812                   1.003129        76.33535
0.816                   1.005085        75.71653
0.82                    1.006097        75.06152
0.824                   1.005977        74.39559
0.828                   1.004736        73.74616
0.832                   1.002585        73.13818
0.836                  0.9998967         72.5899
0.84                    0.997147        72.10946
0.844                  0.9948297        71.69301
0.848                  0.9933679        71.32501
0.852                  0.9930341        70.98077
0.856                   0.993898         70.6309
0.86                   0.9958102          70.247
0.864                    0.99843        69.80704
0.868                   1.001288        69.29935
0.872                   1.003871        68.72466
0.876                   1.005716         68.0956
0.88                    1.006487        67.43431
0.884                   1.006038        66.76869
0.888                   1.004437        66.12762
0.892                   1.001954        65.53626
0.896                  0.9990247        65.01162
0.9                    0.9961678         64.5592
0.904                  0.9939002        64.17166
0.908                  0.9926396        63.82949
0.912                   0.992625        63.50451
0.916                  0.9938698        63.16493
0.92                   0.9961563        62.78163
0.924                  0.9990762         62.3336
0.928                   1.002105        61.81181
0.932                   1.004699        61.22054
0.936                    1.00639        60.57634
0.94                    1.006867          59.905
0.944                   1.006034        59.23717
0.948                   1.004023        58.60325
0.952                   1.001177        58.02833
0.956                  0.9979946        57.52771
0.96                   0.9950446        57.10378
0.964                  0.9928642        56.74495
0.968                  0.9918589        56.42732
0.972                  0.9922253        56.11875
0.976                  0.9939089         55.7851
0.98                    0.996613        55.39672
0.984                  0.9998535        54.93415
0.988                   1.003048        54.39156
0.992                   1.005621        53.77742
0.996                   1.007105        53.11276
1                       1.007224        52.42736
1.004                    1.00594        51.75482
1.008                   1.003461        51.12701
1.012                   1.000213        50.56866
1.016                   0.996767        50.09289
1.02                   0.9937423        49.69821
1.024                  0.9916945        49.36812
1.028                  0.9910101        49.07358
1.032                  0.9918304        48.77823
1.036                  0.9940198        48.44542
1.04                   0.9971907        48.04535
1.044                   1.000774        47.56071
1.048                   1.004123        46.98957
1.052                   1.006635        46.34536
1.056                   1.007847        45.65417
1.06                    1.007528        44.95022
1.064                   1.005711        44.27032
1.068                   1.002695        43.64771
1.072                  0.9989998        43.10649
1.076                  0.9952775        42.65691
1.08                   0.9922021        42.29279
1.084                  0.9903447        41.99173
1.088                  0.9900628        41.71877
1.092                  0.9914279        41.43284
1.096                  0.9942073        41.09478
1.1                    0.9979063        40.67506
1.104                   1.001859         40.1592
1.108                   1.005353         39.5501
1.112                   1.007753        38.86699
1.116                   1.008613        38.14182
1.12                    1.007756        37.41386
1.124                   1.005304        36.72337
1.128                   1.001663        36.10502
1.132                  0.9974612        35.58183
1.136                  0.9934464        35.16038
1.14                   0.9903513        34.82865
1.144                  0.9887586        34.55725
1.148                  0.9889851        34.30418
1.152                   0.991014        34.02293
1.156                  0.9944941        33.67194
1.16                   0.9988036        33.22236
1.164                   1.003166        32.66345
1.168                   1.006791         32.0041
1.172                   1.009016        31.27043
1.176                    1.00942        30.50132
1.18                    1.007893        29.74186
1.184                   1.004667         29.0363
1.188                   1.000278        28.42073
1.192                  0.9954873        27.91667
1.196                  0.9911522        27.52603
1.2                    0.9880738        27.22949
1.204                  0.9868429        26.98877
1.208                    0.98772        26.75348
1.212                  0.9905758        26.47085
1.216                   0.994911         26.0965
1.22                   0.9999488        25.60301
1.224                    1.00478        24.98463
1.228                   1.008526         24.2576
1.232                   1.010493        23.45661
1.236                   1.010293        22.62884
1.24                    1.007908        21.82654
1.244                   1.003705        21.09869
1.248                  0.9983832        20.48321
1.252                  0.9928696        19.99946
1.256                  0.9881596        19.64334
1.26                   0.9851371        19.38599
1.264                  0.9843991        19.17781
1.268                  0.9861294        18.95756
1.272                  0.9900513        18.66464
1.276                  0.9954742        18.25161
1.28                    1.001424        17.69316
1.284                   1.006823        16.99012
1.288                   1.010683        16.16823
1.292                   1.012274        15.27304
1.296                   1.011248        14.36239
1.3                     1.007708        13.49764
1.304                   1.002197         12.7343
1.308                    0.99563        12.11272
1.312                  0.9891544        11.64974
1.316                   0.983952        11.33312
1.32                   0.9810197        11.12104
1.324                  0.9809638        10.94823
1.328                  0.9838634        10.73848
1.332                  0.9892395        10.42057
1.336                  0.9961403        9.942934
1.34                    1.003322        9.283291
1.344                   1.009475         8.45137
1.348                   1.013457        7.485718
1.352                   1.014483        6.446508
1.356                   1.012256        5.406245
1.36                    1.007032        4.439391
1.364                  0.9996024        3.611308
1.368                  0.9911874        2.966946
1.372                   0.983258        2.520465
1.376                  0.9772808        2.248371
1.38                   0.9744351        2.089547
1.384                  0.9753561        1.954668
1.388                  0.9799781        1.744167
1.392                  0.9875243        1.369851
1.396                  0.9966508       0.7733037
1.4                     1.005701      -0.0639957
1.404                   1.013003       -1.119811
1.408                   1.017159        -2.33726
1.412                   1.017266       -3.634691
1.416                   1.013071       -4.917091
1.42                    1.005037       -6.088389
1.424                  0.9943163        -7.06499
1.428                  0.9826205       -7.790748
1.432                  0.9719748       -8.252015
1.436                  0.9643719       -8.488644
1.44                   0.9613687       -8.594728
1.444                  0.9637202       -8.704084
1.448                  0.9711628       -8.961804
1.452                  0.9824285       -9.491058
1.456                  0.9954836       -10.36735
1.46                    1.007912       -11.60744
1.464                   1.017336       -13.17226
1.468                   1.021792       -14.97778
1.472                   1.020023       -16.90853
1.476                   1.011678       -18.83073
1.48                   0.9974257       -20.60562
1.484                  0.9789612       -22.10568
1.488                  0.9588871       -23.23681
1.492                  0.9404196       -23.96707
1.496                  0.9268794        -24.3563
1.5                    0.9209951       -24.57118
1.504                  0.9241749       -24.86747
1.508                  0.9360117       -25.53517
1.512                  0.9542404        -26.8289
1.516                   0.975152       -28.91817
1.52                   0.9942521       -31.87593
1.524                   1.006915       -35.69765
1.528                   1.008891       -40.33195
1.532                  0.9966305       -45.70885
1.536                  0.9674768       -51.76073
1.54                   0.9197558       -58.43779
1.544                    0.85281       -65.72288
1.548                  0.7670007       -73.65338
1.552                  0.6637044       -82.36731
