! TOUCHSTONE file generated by CST MICROWAVE STUDIO
! Date and time: Thu Jun  9 07:39:56 2022
! Project name: AppElm_antenne_patch_Alumina.cst
! Parameters = {L=30.5; W=35.53; e=0.035; h=1.6; lambda=0.190476; ls=90; w0=1.12; w1=0.373; ws=90; y0=14; y1=10}
! Header version: 2018
! Port assignment regex: !\s*Touchstone port\s*([0-9]+)\s*=\s*(CST MWS port|CST DS port)\s*([0-9]+|Zmin|Zmax)\s*\(\"(.*)\"\)(\s*mode\s*([0-9]+))?.*
! Touchstone port assignment:
! Touchstone port 1 = CST MWS port 1 ("")
# GHz S MA R 50
0                      0.9901456              -0
0.004                  0.9906893       -9.045829
0.008                  0.9922501       -18.01686
0.012                  0.9946274       -26.84158
0.016                  0.9975186       -35.45451
0.02                    1.000561       -43.79821
0.024                    1.00338       -51.82444
0.028                   1.005638       -59.49437
0.032                   1.007077       -66.77848
0.036                   1.007545       -73.65605
0.04                    1.007019        -80.1148
0.044                     1.0056       -86.15069
0.048                   1.003499       -91.76778
0.052                   1.001012       -96.97831
0.056                  0.9984765       -101.8026
0.06                   0.9962284       -106.2682
0.064                  0.9945558       -110.4092
0.068                  0.9936601       -114.2638
0.072                  0.9936296        -117.872
0.076                  0.9944295       -121.2727
0.08                   0.9959102       -124.5009
0.084                  0.9978326       -127.5852
0.088                  0.9999054       -130.5465
0.092                   1.001828       -133.3979
0.096                   1.003335        -136.145
0.1                     1.004228       -138.7871
0.104                   1.004407       -141.3198
0.108                   1.003874       -143.7368
0.112                   1.002737       -146.0324
0.116                   1.001188       -148.2035
0.12                   0.9994711       -150.2511
0.124                  0.9978527       -152.1814
0.128                  0.9965757       -154.0057
0.132                  0.9958252       -155.7398
0.136                  0.9957014       -157.4019
0.14                   0.9962055       -159.0113
0.144                   0.997242       -160.5852
0.148                  0.9986356       -162.1373
0.152                   1.000161        -163.676
0.156                   1.001577       -165.2042
0.16                    1.002669       -166.7192
0.164                   1.003275       -168.2139
0.168                   1.003315       -169.6783
0.172                   1.002794       -171.1017
0.176                   1.001808       -172.4745
0.18                    1.000523       -173.7898
0.184                  0.9991502        -175.045
0.188                  0.9979097       -176.2424
0.192                  0.9969995       -177.3892
0.196                  0.9965611       -178.4964
0.2                    0.9966579       -179.5772
0.204                   0.997266        179.3547
0.208                  0.9982787        178.2875
0.212                  0.9995257        177.2127
0.216                   1.000801        176.1266
0.22                    1.001899        175.0304
0.224                   1.002643        173.9298
0.228                   1.002919        172.8336
0.232                   1.002687        171.7528
0.236                   1.001993        170.6979
0.24                    1.000953        169.6778
0.244                  0.9997437        168.6979
0.248                  0.9985645        167.7592
0.252                  0.9976103        166.8582
0.256                  0.9970376         165.987
0.26                   0.9969387        165.1347
0.264                  0.9973263        164.2895
0.268                  0.9981321        163.4401
0.272                  0.9992184        162.5778
0.276                   1.000403        161.6977
0.28                    1.001487        160.7999
0.284                   1.002293        159.8885
0.288                   1.002689        158.9716
0.292                   1.002611        158.0594
0.296                   1.002076        157.1627
0.3                     1.001176        156.2909
0.304                   1.000061        155.4507
0.308                  0.9989214        154.6448
0.312                  0.9979479        153.8713
0.316                  0.9973046        153.1239
0.32                   0.9970995        152.3931
0.324                   0.997366        151.6678
0.328                  0.9980578        150.9369
0.332                   0.999056        150.1913
0.336                   1.000191        149.4258
0.34                     1.00127        148.6391
0.344                   1.002112        147.8348
0.348                   1.002576        147.0201
0.352                   1.002584         146.205
0.356                   1.002135        145.4002
0.36                    1.001307        144.6156
0.364                   1.000239        143.8584
0.368                  0.9991136        143.1324
0.372                   0.998122        142.4364
0.376                  0.9974335        141.7651
0.38                   0.9971662        141.1097
0.384                  0.9973659        140.4593
0.388                  0.9979984        139.8027
0.392                  0.9989555        139.1306
0.396                   1.000073        138.4373
0.4                     1.001159        137.7209
0.404                   1.002029        136.9847
0.408                   1.002534        136.2354
0.412                   1.002588        135.4828
0.416                   1.002182        134.7379
0.42                    1.001384        134.0108
0.424                   1.000329        133.3093
0.428                  0.9991978        132.6375
0.432                  0.9981849        131.9949
0.436                  0.9974649        131.3766
0.44                   0.9971632        130.7738
0.444                  0.9973329        130.1757
0.448                  0.9979456        129.5709
0.452                  0.9988965          128.95
0.456                   1.000022        128.3065
0.46                    1.001128        127.6387
0.464                   1.002024        126.9492
0.468                   1.002556         126.245
0.472                   1.002632         125.536
0.476                   1.002236        124.8333
0.48                    1.001436        124.1475
0.484                   1.000367        123.4866
0.488                  0.9992124        122.8552
0.492                  0.9981723        122.2529
0.496                  0.9974271        121.6749
0.5                    0.9971078        121.1123
0.504                   0.997272         120.554
0.508                  0.9978923        119.9883
0.512                  0.9988627        119.4055
0.516                   1.000016        118.7989
0.52                    1.001151        118.1665
0.524                   1.002072         117.511
0.528                   1.002618        116.8397
0.532                   1.002694        116.1628
0.536                   1.002283        115.4916
0.54                    1.001453        114.8373
0.544                   1.000347        114.2083
0.548                  0.9991531        113.6092
0.552                  0.9980795        113.0397
0.556                  0.9973137        112.4946
0.56                   0.9969913         111.965
0.564                  0.9971712         111.439
0.568                  0.9978242        110.9047
0.572                   0.998838        110.3518
0.576                   1.000037        109.7735
0.58                    1.001213        109.1679
0.584                    1.00216        108.5379
0.588                   1.002713        107.8912
0.592                   1.002773        107.2385
0.596                   1.002325        106.5918
0.6                     1.001445        105.9626
0.604                   1.000282        105.3597
0.608                  0.9990369        104.7877
0.612                  0.9979263        104.2462
0.616                  0.9971459        103.7295
0.62                   0.9968355        103.2279
0.624                  0.9970526        102.7292
0.628                  0.9977623        102.2208
0.632                   0.998843        101.6918
0.636                   1.000107        101.1356
0.64                    1.001334        100.5502
0.644                   1.002308        99.93917
0.648                   1.002858        99.31074
0.652                   1.002886        98.67633
0.656                   1.002381        98.04871
0.66                    1.001427         97.4399
0.664                   1.000187        96.85889
0.668                  0.9988748        96.31032
0.672                  0.9977209        95.79336
0.676                   0.996929        95.30176
0.68                   0.9966418        94.82496
0.684                  0.9969139        94.34981
0.688                  0.9977012        93.86301
0.692                   0.998868        93.35342
0.696                   1.000211        92.81417
0.7                     1.001496        92.24379
0.704                   1.002495        91.64644
0.708                   1.003031        91.03116
0.712                   1.003007        90.41036
0.716                    1.00242        89.79767
0.72                    1.001367        89.20564
0.724                   1.000029        88.64361
0.728                  0.9986365        88.11601
0.732                  0.9974342        87.62139
0.736                  0.9966359         87.1527
0.74                   0.9963867        86.69828
0.744                  0.9967352        86.24391
0.748                  0.9976245        85.77544
0.752                  0.9989012        85.28137
0.756                   1.000342        84.75479
0.76                    1.001695        84.19477
0.764                   1.002719        83.60633
0.768                   1.003232        82.99968
0.772                   1.003138        82.38829
0.776                   1.002447        81.78685
0.78                    1.001273        81.20855
0.784                  0.9998175        80.66299
0.788                  0.9983323         80.1543
0.792                  0.9970796        79.68027
0.796                  0.9962837        79.23266
0.8                    0.9960906        78.79848
0.804                  0.9965405        78.36228
0.808                  0.9975593        77.90894
0.812                  0.9989711        77.42651
0.816                   1.000529        76.90824
0.82                    1.001957        76.35387
0.824                   1.003004        75.76959
0.828                   1.003479        75.16696
0.832                   1.003292        74.56087
0.836                   1.002468        73.96713
0.84                    1.001144        73.39976
0.844                  0.9995447        72.86851
0.848                  0.9979496        72.37704
0.852                  0.9966406         71.9222
0.856                  0.9958533        71.49427
0.86                   0.9957337        71.07863
0.864                  0.9963099        70.65832
0.868                  0.9974862        70.21714
0.872                  0.9990583        69.74267
0.876                    1.00075        69.22847
0.88                    1.002263        68.67517
0.884                   1.003325         68.0904
0.888                   1.003745        67.48736
0.892                   1.003438        66.88264
0.896                   1.002449        66.29343
0.9                     1.000941        65.73454
0.904                  0.9991716        65.21587
0.908                  0.9974505        64.74053
0.912                  0.9960831          64.304
0.916                  0.9953173        63.89479
0.92                   0.9952972        63.49627
0.924                  0.9960349        63.08973
0.928                  0.9974068         62.6577
0.932                  0.9991748        62.18732
0.936                   1.001028        61.67254
0.94                    1.002637        61.11522
0.944                   1.003713        60.52475
0.948                    1.00406        59.91637
0.952                   1.003603        59.30867
0.956                   1.002412        58.72037
0.96                    1.000684        58.16729
0.964                  0.9987153         57.6594
0.968                  0.9968506        57.19899
0.972                  0.9954237        56.77986
0.976                  0.9946952        56.38833
0.98                   0.9948053        56.00536
0.984                  0.9957453        55.61007
0.988                  0.9973568        55.18362
0.992                  0.9993592        54.71269
0.996                     1.0014        54.19183
1                       1.003115        53.62448
1.004                   1.004196        53.02221
1.008                    1.00444        52.40275
1.012                    1.00379        51.78705
1.016                   1.002345        51.19573
1.02                    1.000344        50.64566
1.024                  0.9981309        50.14685
1.028                  0.9960939        49.70051
1.032                  0.9945988        49.29839
1.036                  0.9939214        48.92398
1.04                   0.9941951        48.55533
1.044                  0.9953842        48.16899
1.048                  0.9972864        47.74449
1.052                  0.9995696        47.26804
1.056                    1.00183        46.73508
1.06                    1.003663        46.15099
1.064                   1.004735        45.53009
1.068                   1.004842        44.89313
1.072                   1.003945        44.26394
1.076                   1.002182        43.66541
1.08                   0.9998453        43.11564
1.084                  0.9973358        42.62462
1.088                  0.9950958        42.19211
1.092                  0.9935299        41.80721
1.096                  0.9929305        41.44994
1.1                    0.9934212        41.09467
1.104                  0.9949306         40.7148
1.108                  0.9972018         40.2879
1.112                  0.9998372        39.79975
1.116                    1.00237        39.24695
1.12                    1.004345         38.6374
1.124                   1.005401        37.98883
1.128                   1.005332        37.32579
1.132                   1.004123         36.6757
1.136                   1.001962        36.06415
1.14                   0.9992065        35.51082
1.144                  0.9963316        35.02561
1.148                  0.9938458        34.60634
1.152                  0.9922021        34.23882
1.156                   0.991713        33.89857
1.16                    0.992488        33.55526
1.164                  0.9944093        33.17839
1.168                   0.997149         32.7431
1.172                   1.000227        32.23474
1.176                   1.003096        31.65147
1.18                     1.00524        31.00443
1.184                   1.006259        30.31581
1.188                   1.005946        29.61489
1.192                   1.004321        28.93363
1.196                   1.001633        28.30123
1.2                    0.9983284        27.73933
1.204                  0.9949741        27.25763
1.208                  0.9921663        26.85168
1.212                  0.9904208        26.50271
1.216                  0.9900759        26.18041
1.22                   0.9912227        25.84827
1.224                  0.9936821        25.47067
1.228                  0.9970329         25.0196
1.232                   1.000686        24.47985
1.236                   1.003991        23.85172
1.24                    1.006345        23.15064
1.244                   1.007306        22.40449
1.248                   1.006662         21.6489
1.252                   1.004476        20.92179
1.256                   1.001082        20.25719
1.26                    0.997038        19.67939
1.264                  0.9930403        19.19814
1.268                  0.9898026        18.80579
1.272                  0.9879278        18.47749
1.276                  0.9877908        18.17483
1.28                   0.9894583        17.85287
1.284                  0.9926679        17.46874
1.288                  0.9968706        16.99003
1.292                   1.001328         16.4008
1.296                   1.005243        15.70416
1.3                     1.007899        14.92137
1.304                   1.008786        14.08808
1.308                   1.007682        13.24864
1.312                   1.004708        12.44932
1.316                    1.00031        11.73107
1.32                   0.9952062        11.12242
1.324                  0.9902726        10.63351
1.328                  0.9863957        10.25253
1.332                  0.9843091        9.946044
1.336                   0.984447        9.663923
1.34                   0.9868472        9.348573
1.344                  0.9911306        8.946329
1.348                  0.9965637        8.418061
1.352                   1.002189        7.746389
1.356                   1.006994        6.938245
1.36                    1.010086        6.023033
1.364                   1.010845        5.047538
1.368                   1.009027        4.068791
1.372                   1.004821        3.145781
1.376                  0.9988352        2.330518
1.38                   0.9920229        1.659029
1.384                  0.9855396        1.143341
1.388                  0.9805508       0.7663067
1.392                   0.978014       0.4815404
1.396                  0.9784793       0.2200791
1.4                    0.9819594     -0.09670121
1.404                  0.9879043      -0.5410307
1.408                  0.9952929       -1.164162
1.412                   1.002815       -1.987106
1.416                     1.0091       -2.998112
1.42                    1.012951       -4.155943
1.424                   1.013538       -5.396897
1.428                   1.010541       -6.643863
1.432                   1.004222       -7.816523
1.436                  0.9954214        -8.84263
1.44                   0.9854715       -9.670302
1.444                  0.9760143        -10.2803
1.448                  0.9687388       -10.69563
1.452                  0.9650616       -10.98412
1.456                  0.9658182       -11.24999
1.46                   0.9710472       -11.61423
1.464                   0.979938       -12.18873
1.468                  0.9909623       -13.05313
1.472                   1.002147         -14.241
1.476                   1.011412       -15.73758
1.48                    1.016904       -17.48579
1.484                   1.017275       -19.39639
1.488                   1.011891       -21.35926
1.492                   1.000964       -23.25491
1.496                  0.9855994       -24.96783
1.5                    0.9677428       -26.40356
1.504                  0.9499972       -27.51096
1.508                  0.9352706       -28.30737
1.512                  0.9262556        -28.8978
1.516                  0.9248131       -29.47421
1.52                   0.9314366       -30.28521
1.524                  0.9450029       -31.58273
1.528                  0.9629108       -33.56983
1.532                  0.9815303       -36.37247
1.536                   0.996774       -40.04124
1.54                    1.004617       -44.57241
1.544                   1.001488        -49.9347
1.548                  0.9845295       -56.09353
1.552                  0.9517552       -63.03145
