! TOUCHSTONE file generated by CST MICROWAVE STUDIO
! Date and time: Thu Jun  9 07:40:01 2022
! Project name: AppElm_antenne_patch_Alumina.cst
! Parameters = {L=30.5; W=45.98; e=0.035; h=1.6; lambda=0.190476; ls=90; w0=1.12; w1=0.373; ws=90; y0=14; y1=10}
! Header version: 2018
! Port assignment regex: !\s*Touchstone port\s*([0-9]+)\s*=\s*(CST MWS port|CST DS port)\s*([0-9]+|Zmin|Zmax)\s*\(\"(.*)\"\)(\s*mode\s*([0-9]+))?.*
! Touchstone port assignment:
! Touchstone port 1 = CST MWS port 1 ("")
# GHz S MA R 50
0                       0.974474              -0
0.004                  0.9759841       -11.26774
0.008                  0.9802953       -22.39372
0.012                  0.9867893        -33.2471
0.016                  0.9945555       -43.71609
0.02                    1.002539       -53.71181
0.024                   1.009698       -63.16813
0.028                   1.015151       -72.03867
0.032                   1.018279       -80.29314
0.036                   1.018797       -87.91402
0.04                    1.016775       -94.89483
0.044                   1.012621       -101.2399
0.048                   1.007014       -106.9657
0.052                   1.000814       -112.1029
0.056                  0.9949374       -116.6982
0.06                   0.9902187       -120.8139
0.064                  0.9872887       -124.5251
0.068                  0.9864757       -127.9144
0.072                  0.9877651       -131.0634
0.076                  0.9908144       -134.0441
0.08                    0.995028       -136.9124
0.084                  0.9996684        -139.704
0.088                   1.003983       -142.4338
0.092                   1.007321       -145.0991
0.096                   1.009224       -147.6838
0.1                     1.009484       -150.1641
0.104                   1.008157       -152.5141
0.108                   1.005544       -154.7117
0.112                   1.002136        -156.743
0.116                  0.9985281       -158.6057
0.12                   0.9953231       -160.3107
0.124                   0.993034       -161.8817
0.128                  0.9919998       -163.3518
0.132                  0.9923338       -164.7588
0.136                  0.9939133       -166.1393
0.14                    0.996411       -167.5227
0.144                  0.9993619       -168.9277
0.148                   1.002249       -170.3602
0.152                   1.004591       -171.8137
0.156                   1.006022       -173.2721
0.16                    1.006343       -174.7131
0.164                   1.005548       -176.1122
0.168                   1.003814       -177.4475
0.172                   1.001472        -178.703
0.176                  0.9989402       -179.8716
0.18                     0.99666        179.0435
0.184                  0.9950147        178.0294
0.188                  0.9942669         177.065
0.192                  0.9945153        176.1255
0.196                  0.9956823        175.1859
0.2                    0.9975337         174.226
0.204                  0.9997255        173.2331
0.208                   1.001868        172.2039
0.212                   1.003595        171.1443
0.216                   1.004623         170.068
0.22                    1.004799        168.9933
0.224                   1.004118        167.9402
0.228                   1.002723         166.927
0.232                   1.000873        165.9667
0.236                  0.9989018        165.0655
0.24                   0.9971551        164.2211
0.244                  0.9959324        163.4235
0.248                   0.995435        162.6562
0.252                   0.995732        161.8999
0.256                  0.9967506        161.1353
0.26                   0.9982937        160.3471
0.264                   1.000078        159.5259
0.268                   1.001785        158.6702
0.272                   1.003121        157.7858
0.276                   1.003861        156.8848
0.28                    1.003893        155.9829
0.284                   1.003225        155.0971
0.288                   1.001989        154.2423
0.292                   1.000412        153.4291
0.296                  0.9987774        152.6621
0.3                    0.9973726        151.9386
0.304                  0.9964413        151.2494
0.308                  0.9961387        150.5806
0.312                  0.9965064        149.9156
0.316                  0.9974669        149.2388
0.32                    0.998839        148.5376
0.324                   1.000373        147.8053
0.328                   1.001796        147.0416
0.332                   1.002861        146.2525
0.336                   1.003389        145.4493
0.34                    1.003296        144.6459
0.344                   1.002609        143.8572
0.348                   1.001457        143.0958
0.352                    1.00005        142.3703
0.356                  0.9986399        141.6837
0.36                   0.9974751        141.0326
0.364                  0.9967587        140.4083
0.368                  0.9966114         139.798
0.372                  0.9970514         139.187
0.376                  0.9979924        138.5619
0.38                   0.9992601        137.9125
0.384                   1.000626        137.2337
0.388                   1.001847        136.5264
0.392                   1.002711        135.7971
0.396                   1.003071        135.0563
0.4                      1.00287        134.3171
0.404                    1.00215        133.5927
0.408                   1.001044        132.8939
0.412                  0.9997513        132.2277
0.416                   0.998502        131.5958
0.42                    0.997517        130.9942
0.424                  0.9969687         130.414
0.428                  0.9969505        129.8432
0.432                  0.9974599        129.2684
0.436                  0.9984002        128.6778
0.44                   0.9996004        128.0629
0.444                   1.000844        127.4202
0.448                   1.001912        126.7515
0.452                   1.002616        126.0636
0.456                   1.002836        125.3669
0.46                    1.002538        124.6738
0.464                   1.001778        123.9962
0.468                   1.000695        123.3436
0.472                  0.9994814        122.7216
0.476                  0.9983537        122.1307
0.48                   0.9975115        121.5661
0.484                   0.997103         121.019
0.488                  0.9971976        120.4775
0.492                  0.9977746        119.9294
0.496                  0.9987275         119.364
0.5                    0.9998837        118.7742
0.504                   1.001036        118.1577
0.508                   1.001981        117.5174
0.512                   1.002553        116.8604
0.516                   1.002652        116.1972
0.52                    1.002264        115.5394
0.524                    1.00146        114.8982
0.528                   1.000384         114.282
0.532                  0.9992278        113.6951
0.536                  0.9981966        113.1369
0.54                   0.9974736         112.602
0.544                  0.9971861        112.0812
0.548                  0.9973833         111.563
0.552                  0.9980278        111.0357
0.556                  0.9990018        110.4898
0.56                     1.00013        109.9193
0.564                   1.001212        109.3229
0.568                   1.002055        108.7044
0.572                    1.00251        108.0715
0.576                   1.002499        107.4347
0.58                    1.002024        106.8054
0.584                   1.001171        106.1939
0.588                   1.000091        105.6076
0.592                  0.9989753        105.0499
0.596                  0.9980228        104.5191
0.6                    0.9974027        104.0091
0.604                  0.9972245        103.5103
0.608                   0.997519        103.0113
0.612                   0.998232         102.501
0.616                   0.999235        101.9706
0.62                    1.000348        101.4151
0.624                   1.001373        100.8345
0.628                   1.002128        100.2333
0.632                   1.002479        99.61963
0.636                   1.002364        99.00429
0.64                    1.001804        98.39845
0.644                   1.000896         97.8118
0.648                  0.9998027        97.25095
0.652                  0.9987169        96.71819
0.656                  0.9978317        96.21098
0.66                   0.9973049        95.72242
0.664                  0.9972306        95.24244
0.668                  0.9976218        94.75957
0.672                  0.9984083        94.26315
0.676                  0.9994494        93.74507
0.68                    1.000559        93.20138
0.684                    1.00154        92.63292
0.688                   1.002217        92.04503
0.692                   1.002471        91.44667
0.696                   1.002255        90.84877
0.7                     1.001606        90.26237
0.704                   1.000639        89.69676
0.708                  0.9995229        89.15775
0.712                  0.9984564        88.64666
0.716                  0.9976292        88.16002
0.72                   0.9971892        87.69008
0.724                  0.9972161        87.22625
0.728                  0.9977057        86.75694
0.732                  0.9985712        86.27169
0.736                  0.9996583        85.76309
0.74                    1.000774        85.22809
0.744                   1.001718        84.66847
0.748                   1.002324        84.09051
0.752                   1.002481        83.50383
0.756                   1.002161        82.91978
0.76                    1.001416        82.34943
0.764                   1.000378        81.80163
0.768                  0.9992268        81.28153
0.772                  0.9981677        80.78949
0.776                   0.997389        80.32104
0.78                   0.9970305        79.86751
0.784                  0.9971578        79.41768
0.788                  0.9977495         78.9597
0.792                  0.9987013        78.48328
0.796                  0.9998439        77.98156
0.8                     1.000974        77.45239
0.804                   1.001889        76.89851
0.808                   1.002426        76.32724
0.812                   1.002486        75.74897
0.816                   1.002055        75.17558
0.82                    1.001205        74.61827
0.824                   1.000083        74.08557
0.828                  0.9988854        73.58194
0.832                  0.9978242        73.10683
0.836                   0.997089        72.65462
0.84                   0.9968124        72.21571
0.844                  0.9970465          71.778
0.848                  0.9977521        71.32926
0.852                  0.9988049        70.85929
0.856                   1.000019        70.36172
0.86                    1.001177        69.83525
0.864                   1.002073        69.28377
0.868                   1.002545        68.71563
0.872                   1.002505        68.14226
0.876                   1.001955        67.57615
0.88                    1.000987        67.02873
0.884                  0.9997664        66.50839
0.888                  0.9985082         66.0189
0.892                  0.9974352        65.55865
0.896                  0.9967394        65.12092
0.9                    0.9965484        64.69478
0.904                  0.9969001        64.26725
0.908                  0.9977353         63.8255
0.912                  0.9989082        63.35927
0.916                   1.000212        62.86269
0.92                    1.001413        62.33535
0.924                   1.002298        61.78232
0.928                   1.002704        61.21326
0.932                   1.002554        60.64078
0.936                   1.001866        60.07824
0.94                    1.000756        59.53748
0.944                  0.9994134        59.02677
0.948                  0.9980725        58.54921
0.952                  0.9969715        58.10216
0.956                  0.9963091        57.67738
0.96                   0.9962073        57.26259
0.964                  0.9966903        56.84351
0.968                  0.9976765        56.40655
0.972                  0.9989938        55.94125
0.976                    1.00041        55.44217
0.98                    1.001672        54.90991
0.984                   1.002552        54.35091
0.988                   1.002888         53.7764
0.992                   1.002612        53.20041
0.996                   1.001761        52.63745
1                       1.000477        52.10002
1.004                  0.9989787        51.59636
1.008                  0.9975276        51.12893
1.012                  0.9963816        50.69377
1.016                  0.9957488        50.28096
1.02                   0.9957483        49.87643
1.024                   0.996388        49.46429
1.028                  0.9975607        49.02984
1.032                  0.9990621        48.56223
1.036                   1.000627        48.05648
1.04                    1.001976        47.51429
1.044                   1.002865        46.94376
1.048                   1.003127        46.35804
1.052                   1.002703        45.77304
1.056                   1.001654         45.2048
1.06                    1.000152        44.66674
1.064                  0.9984537        44.16725
1.068                  0.9968554        43.70805
1.072                  0.9956425        43.28364
1.076                  0.9950372        42.88204
1.08                   0.9951573        42.48676
1.084                  0.9959918        42.07986
1.088                  0.9974015        41.64508
1.092                  0.9991416        41.17099
1.096                   1.000905        40.65298
1.1                     1.002376        40.09412
1.104                   1.003285        39.50462
1.108                   1.003458        38.90007
1.112                   1.002846        38.29886
1.116                   1.001538        37.71911
1.12                   0.9997474        37.17562
1.124                  0.9977777         36.6771
1.128                  0.9959728        36.22447
1.132                   0.994656        35.81026
1.136                  0.9940715        35.41982
1.14                    0.994337        35.03353
1.144                  0.9954197        34.63047
1.148                  0.9971389        34.19227
1.152                   0.999196        33.70656
1.156                   1.001227        33.16913
1.16                    1.002866        32.58477
1.164                   1.003809        31.96639
1.168                    1.00387        31.33285
1.172                   1.003009        30.70595
1.176                   1.001352        30.10678
1.18                   0.9991663        29.55203
1.184                  0.9968199        29.05108
1.188                  0.9947233        28.60395
1.192                  0.9932545        28.20058
1.196                  0.9926898         27.8226
1.2                    0.9931506        27.44596
1.204                  0.9945755        27.04565
1.208                  0.9967278        26.60019
1.212                  0.9992349        26.09568
1.216                   1.001652         25.5284
1.22                    1.003543        24.90532
1.224                   1.004552        24.24306
1.228                    1.00447        23.56515
1.232                   1.003272        22.89812
1.236                    1.00113        22.26723
1.24                   0.9983858        21.69229
1.244                  0.9955016        21.18382
1.248                  0.9929829        20.74059
1.252                  0.9912888        20.34917
1.256                  0.9907464        19.98568
1.26                   0.9914856        19.61973
1.264                   0.993406        19.22013
1.268                  0.9961917        18.76067
1.272                  0.9993611        18.22512
1.276                   1.002352         17.6102
1.28                     1.00462        16.92608
1.284                   1.005731        16.19468
1.288                   1.005439        15.44618
1.292                   1.003734        14.71425
1.296                   1.000852        14.03074
1.3                    0.9972465        13.42024
1.304                  0.9935191        12.89538
1.308                  0.9903227        12.45361
1.312                  0.9882458        12.07642
1.316                  0.9876997        11.73165
1.32                   0.9888329        11.37893
1.324                  0.9914917        10.97718
1.328                  0.9952387        10.49253
1.332                  0.9994252        9.904773
1.336                   1.003303        9.211016
1.34                    1.006154        8.426046
1.344                   1.007413        7.579871
1.348                    1.00677        6.713035
1.352                   1.004226        5.870563
1.356                   1.000113        5.095063
1.36                   0.9950569        4.419615
1.364                  0.9898851        3.861219
1.368                  0.9854998        3.415975
1.372                  0.9827149        3.057511
1.376                  0.9820983        2.739899
1.38                   0.9838465        2.405321
1.384                  0.9877271        1.995086
1.388                  0.9931043        1.461254
1.392                  0.9990442       0.7758583
1.396                   1.004475     -0.06423544
1.4                     1.008368       -1.037202
1.404                   1.009913       -2.099994
1.408                   1.008657       -3.194695
1.412                   1.004596       -4.256512
1.416                  0.9982006        -5.22293
1.42                    0.990382       -6.043708
1.424                  0.9823771        -6.69109
1.428                   0.975563       -7.168552
1.432                  0.9712157       -7.515339
1.436                   0.970253       -7.803699
1.44                    0.973019       -8.127333
1.444                  0.9791718       -8.582998
1.448                  0.9877128        -9.25057
1.452                  0.9971468       -10.17757
1.456                   1.005736       -11.37181
1.46                    1.011784       -12.80194
1.464                   1.013901        -14.4036
1.468                   1.011229       -16.08818
1.472                   1.003598       -17.75292
1.476                  0.9916124       -19.29235
1.48                   0.9766579       -20.61251
1.484                  0.9607923       -21.64905
1.488                  0.9465046       -22.38865
1.492                  0.9363173       -22.88857
1.496                  0.9322694       -23.28449
1.5                    0.9353894       -23.77609
1.504                  0.9453293        -24.5891
1.508                  0.9603019        -25.9275
1.512                  0.9773332       -27.93668
1.516                  0.9927168       -30.69048
1.52                    1.002507       -34.19986
1.524                   1.002935       -38.43255
1.528                  0.9907202       -43.33357
1.532                  0.9632583        -48.8419
1.536                  0.9187429       -54.90294
1.54                   0.8562202       -61.47881
1.544                  0.7756061       -68.56104
1.548                  0.6776779       -76.19372
1.552                  0.5640602       -84.52988
