! TOUCHSTONE file generated by CST MICROWAVE STUDIO
! Date and time: Thu Jun  9 07:39:57 2022
! Project name: AppElm_antenne_patch_Alumina.cst
! Parameters = {L=30.5; W=37.62; e=0.035; h=1.6; lambda=0.190476; ls=90; w0=1.12; w1=0.373; ws=90; y0=14; y1=10}
! Header version: 2018
! Port assignment regex: !\s*Touchstone port\s*([0-9]+)\s*=\s*(CST MWS port|CST DS port)\s*([0-9]+|Zmin|Zmax)\s*\(\"(.*)\"\)(\s*mode\s*([0-9]+))?.*
! Touchstone port assignment:
! Touchstone port 1 = CST MWS port 1 ("")
# GHz S MA R 50
0                      0.9870989              -0
0.004                  0.9878158       -9.493945
0.008                  0.9898737       -18.90238
0.012                  0.9930079         -28.144
0.016                  0.9968193       -37.14524
0.02                    1.000831       -45.84262
0.024                   1.004553       -54.18374
0.028                   1.007543       -62.12737
0.032                   1.009463       -69.64272
0.036                   1.010117       -76.70868
0.04                    1.009468       -83.31307
0.044                   1.007648       -89.45244
0.048                   1.004929       -95.13206
0.052                   1.001694       -100.3663
0.056                  0.9983824       -105.1786
0.06                   0.9954343       -109.6016
0.064                  0.9932289       -113.6754
0.068                  0.9920332       -117.4457
0.072                  0.9919654       -120.9607
0.076                   0.992982       -124.2671
0.08                   0.9948882       -127.4063
0.084                  0.9973708       -130.4118
0.088                   1.000049       -133.3071
0.092                   1.002531       -136.1054
0.096                   1.004468       -138.8105
0.1                     1.005608       -141.4184
0.104                   1.005817       -143.9205
0.108                   1.005105       -146.3059
0.112                   1.003612       -148.5648
0.116                   1.001588        -150.691
0.12                    0.999359       -152.6838
0.124                  0.9972692       -154.5494
0.128                  0.9956358       -156.3013
0.132                  0.9946983       -157.9583
0.136                  0.9945822       -159.5435
0.14                   0.9952825       -161.0804
0.144                  0.9966663       -162.5903
0.148                  0.9984972       -164.0895
0.152                   1.000476       -165.5877
0.156                   1.002288       -167.0868
0.16                    1.003653       -168.5817
0.164                    1.00437        -170.062
0.168                   1.004341       -171.5136
0.172                   1.003588       -172.9217
0.176                   1.002246       -174.2732
0.18                    1.000541       -175.5591
0.184                  0.9987553       -176.7761
0.188                  0.9971783       -177.9274
0.192                  0.9960639       -179.0225
0.196                  0.9955871        179.9238
0.2                    0.9958163        178.8943
0.204                  0.9967028        177.8714
0.208                  0.9980907        176.8404
0.212                  0.9997442        175.7915
0.216                   1.001388        174.7212
0.22                    1.002752        173.6324
0.224                   1.003619        172.5338
0.228                   1.003851        171.4381
0.232                   1.003421        170.3601
0.236                   1.002404        169.3137
0.24                    1.000977          168.31
0.244                  0.9993792        167.3554
0.248                  0.9978787        166.4501
0.252                   0.996726        165.5883
0.256                  0.9961123        164.7587
0.26                   0.9961367        163.9466
0.264                  0.9967898        163.1361
0.268                  0.9979563        162.3132
0.272                  0.9994351        161.4677
0.276                   1.000975        160.5948
0.28                    1.002316        159.6963
0.284                   1.003235        158.7794
0.288                   1.003581        157.8559
0.292                     1.0033        156.9397
0.296                   1.002442         156.045
0.3                     1.001156        155.1835
0.304                  0.9996599        154.3627
0.308                  0.9982094        153.5843
0.312                  0.9970514        152.8442
0.316                   0.996383        152.1326
0.32                   0.9963174         151.436
0.324                  0.9968635        150.7393
0.328                  0.9979255        150.0286
0.332                  0.9993189        149.2936
0.336                   1.000804        148.5291
0.34                    1.002127         147.736
0.344                   1.003063        146.9209
0.348                   1.003454         146.095
0.352                   1.003235         145.272
0.356                   1.002445         144.466
0.36                    1.001219         143.689
0.364                  0.9997692        142.9489
0.368                  0.9983435        142.2481
0.372                  0.9971883        141.5831
0.376                  0.9965035        140.9448
0.38                   0.9964078          140.32
0.384                  0.9969172         139.694
0.388                  0.9979429         139.053
0.392                   0.999306        138.3865
0.396                    1.00077        137.6891
0.4                     1.002083        136.9616
0.404                   1.003018        136.2104
0.408                   1.003414        135.4466
0.412                   1.003205        134.6838
0.416                   1.002426        133.9363
0.42                     1.00121        133.2161
0.424                  0.9997672        132.5313
0.428                  0.9983475        131.8846
0.432                   0.997198        131.2724
0.436                  0.9965196        130.6856
0.44                   0.9964314        130.1112
0.444                  0.9969499        129.5344
0.448                  0.9979845        128.9412
0.452                  0.9993546        128.3213
0.456                   1.000821        127.6692
0.46                    1.002129         126.986
0.464                   1.003052        126.2782
0.468                   1.003428        125.5571
0.472                   1.003192        124.8367
0.476                   1.002384        124.1313
0.48                    1.001141        123.4531
0.484                  0.9996795        122.8103
0.488                  0.9982528         122.205
0.492                  0.9971108        121.6337
0.496                   0.996455        121.0869
0.5                     0.996402        120.5512
0.504                  0.9969627        120.0114
0.508                  0.9980394        119.4535
0.512                  0.9994436        118.8673
0.516                    1.00093        118.2477
0.52                    1.002237        117.5959
0.524                   1.003138        116.9191
0.528                   1.003473        116.2292
0.532                   1.003183        115.5405
0.536                   1.002316        114.8676
0.54                    1.001021        114.2228
0.544                   0.999521        113.6139
0.548                  0.9980791         113.043
0.552                  0.9969489        112.5057
0.556                  0.9963314        111.9919
0.56                   0.9963373        111.4875
0.564                  0.9969679        110.9771
0.568                  0.9981136        110.4466
0.572                  0.9995734        109.8857
0.576                   1.001091        109.2898
0.58                    1.002399        108.6609
0.584                   1.003269        108.0069
0.588                   1.003545        107.3404
0.592                   1.003178        106.6763
0.596                   1.002227        106.0296
0.6                     1.000856        105.4126
0.604                   0.999304        104.8329
0.608                   0.997842        104.2917
0.612                  0.9967291        103.7839
0.616                  0.9961644        103.2985
0.62                   0.9962508        102.8207
0.624                  0.9969758        102.3345
0.628                  0.9982136        101.8254
0.632                  0.9997465        101.2836
0.636                   1.001305        100.7051
0.64                    1.002613        100.0927
0.644                   1.003441        99.45538
0.648                   1.003641        98.80656
0.652                   1.003173        98.16204
0.656                   1.002116        97.53711
0.66                    1.000651        96.94408
0.664                  0.9990332        96.39002
0.668                  0.9975477        95.87546
0.672                  0.9964584        95.39415
0.676                  0.9959614        94.93396
0.68                   0.9961488        94.47904
0.684                  0.9969909        94.01271
0.688                  0.9983409        93.52052
0.692                  0.9999612        92.99279
0.696                   1.001566        92.42643
0.7                     1.002871        91.82537
0.704                   1.003645        91.19973
0.708                   1.003748        90.56414
0.712                   1.003156        89.93519
0.716                    1.00197        89.32864
0.72                    1.000392        88.75673
0.724                  0.9986982        88.22595
0.728                  0.9971874        87.73578
0.732                  0.9961293        87.27868
0.736                  0.9957162        86.84111
0.74                   0.9960258        86.40608
0.744                  0.9970074        85.95619
0.748                  0.9984895        85.47682
0.752                   1.000211        84.95881
0.756                   1.001867            84.4
0.76                    1.003163        83.80568
0.764                   1.003869        83.18742
0.768                   1.003854        82.56115
0.772                   1.003115        81.94447
0.776                   1.001777        81.35354
0.78                    1.000068        80.80053
0.784                  0.9982879        80.29118
0.788                  0.9967519        79.82372
0.792                  0.9957357        79.38899
0.796                  0.9954249        78.97193
0.8                    0.9958806        78.55415
0.804                  0.9970263        78.11746
0.808                  0.9986616         77.6471
0.812                   1.000498        77.13456
0.816                   1.002209        76.57892
0.82                     1.00349        75.98696
0.824                   1.004111        75.37197
0.828                   1.003956         74.7514
0.832                   1.003045         74.1439
0.836                   1.001529         73.5662
0.84                   0.9996707        73.03022
0.844                  0.9977952         72.5408
0.848                  0.9962359        72.09466
0.852                  0.9952741        71.68084
0.856                  0.9950877        71.28232
0.86                   0.9957167        70.87925
0.864                  0.9970544        70.45253
0.868                  0.9988665         69.9874
0.872                   1.000832        69.47604
0.876                   1.002603        68.91899
0.88                    1.003861         68.3249
0.884                    1.00438          67.709
0.888                   1.004059        67.09044
0.892                   1.002945        66.48914
0.896                   1.001225        65.92235
0.9                    0.9991967        65.40168
0.904                  0.9972152        64.93089
0.908                  0.9956348        64.50492
0.912                  0.9947425         64.1106
0.916                  0.9947056        63.72879
0.92                   0.9955391        63.33787
0.924                  0.9971005         62.9178
0.928                   0.999116        62.45378
0.932                   1.001229        61.93897
0.936                   1.003062         61.3756
0.94                    1.004288        60.77451
0.944                   1.004681        60.15315
0.948                   1.004161         59.5327
0.952                   1.002809        58.93446
0.956                   1.000851        58.37625
0.96                   0.9986253        57.86933
0.964                  0.9965241        57.41608
0.968                  0.9949238        57.00938
0.972                  0.9941177        56.63344
0.976                  0.9942599         56.2666
0.98                   0.9953345        55.88527
0.984                  0.9971579        55.46828
0.988                   0.999409        55.00092
0.992                   1.001689        54.47751
0.996                    1.00359        53.90233
1                        1.00477        53.28873
1.004                    1.00501        52.65685
1.008                   1.004253        52.03012
1.012                   1.002617        51.43151
1.016                   1.000377         50.8795
1.02                   0.9979207        50.38484
1.024                   0.995681        49.94833
1.028                  0.9940617        49.56028
1.032                  0.9933622        49.20187
1.036                  0.9937202        48.84844
1.04                   0.9950836        48.47401
1.044                  0.9972177        48.05621
1.048                  0.9997468        47.58043
1.052                   1.002222         47.0424
1.056                   1.004199        46.44885
1.06                     1.00532        45.81618
1.064                   1.005372        45.16764
1.068                   1.004327        44.52941
1.072                    1.00235        43.92639
1.076                  0.9997717        43.37786
1.08                    0.997039        42.89398
1.084                  0.9946353        42.47364
1.088                  0.9929966        42.10403
1.092                  0.9924294        41.76264
1.096                  0.9930516        41.42114
1.1                    0.9947666        41.05073
1.104                  0.9972785        40.62755
1.108                   1.000145        40.13714
1.112                   1.002855          39.577
1.116                   1.004923         38.9568
1.12                    1.005969        38.29662
1.124                   1.005789        37.62349
1.128                    1.00439        36.96699
1.132                   1.001991        36.35438
1.136                  0.9989958        35.80594
1.14                   0.9959216        35.33125
1.144                  0.9933151        34.92673
1.148                  0.9916525         34.5758
1.152                  0.9912504        34.25136
1.156                  0.9922023        33.92051
1.16                   0.9943563        33.55078
1.164                  0.9973406        33.11654
1.168                   1.000629        32.60349
1.172                   1.003636        32.01123
1.176                   1.005818        31.35318
1.18                    1.006771        30.65391
1.184                   1.006299         29.9452
1.188                    1.00445         29.2609
1.192                   1.001515        28.63143
1.196                  0.9979843        28.07849
1.2                    0.9944691        27.61086
1.204                  0.9915969         27.2222
1.208                   0.989898        26.89096
1.212                  0.9897035        26.58407
1.216                  0.9910774        26.26261
1.22                   0.9937984        25.88949
1.224                  0.9973966        25.43649
1.228                   1.001237        24.88947
1.232                   1.004635        24.25077
1.236                   1.006973         23.5383
1.24                     1.00781        22.78266
1.244                   1.006957        22.02175
1.248                   1.004515        21.29518
1.252                   1.000864        20.63754
1.256                    0.99661         20.0728
1.26                   0.9924899        19.60915
1.264                  0.9892425        19.23645
1.268                  0.9874754        18.92682
1.272                  0.9875444        18.63897
1.276                  0.9894784        18.32577
1.28                   0.9929644        17.94345
1.284                  0.9974006         17.4601
1.288                   1.002005        16.86154
1.292                   1.005952        16.15347
1.296                   1.008519        15.36004
1.3                     1.009209        14.51961
1.304                   1.007835         13.6787
1.308                   1.004562        12.88488
1.312                  0.9998914        12.17931
1.316                  0.9945899        11.58953
1.32                    0.989572        11.12352
1.324                  0.9857429        10.76641
1.328                  0.9838305        10.48133
1.332                  0.9842381         10.2151
1.336                   0.986953        9.908198
1.34                   0.9915367         9.50661
1.344                  0.9971988        8.972474
1.348                   1.002939        8.290931
1.352                   1.007724         7.47208
1.356                   1.010663        6.548566
1.36                    1.011162        5.569988
1.364                   1.009022        4.595413
1.368                   1.004488        3.684838
1.372                  0.9982267        2.890049
1.376                  0.9912463        2.245506
1.38                   0.9847396        1.760378
1.384                   0.979885        1.413704
1.388                   0.977623        1.155037
1.392                  0.9784588        0.912055
1.396                  0.9823389         0.60437
1.4                    0.9886413        0.160041
1.404                  0.9962803      -0.4699905
1.408                   1.003902       -1.303269
1.412                   1.010119       -2.324103
1.416                   1.013746       -3.487517
1.42                     1.01399       -4.726744
1.424                   1.010587       -5.962549
1.428                   1.003867       -7.113645
1.432                  0.9947425       -8.108172
1.436                  0.9846085       -8.896191
1.44                   0.9751512        -9.46203
1.444                  0.9680726       -9.833549
1.448                  0.9647649       -10.08381
1.452                  0.9660021       -10.32136
1.456                   0.971735       -10.66916
1.46                   0.9810581       -11.23827
1.464                  0.9923607       -12.10488
1.468                   1.003615       -13.29772
1.472                   1.012722       -14.79678
1.476                   1.017843       -16.54019
1.48                    1.017675       -18.43471
1.484                   1.011653       -20.36708
1.488                   1.000075       -22.21562
1.492                  0.9841445       -23.86379
1.496                  0.9659071       -25.21789
1.5                    0.9480515       -26.23008
1.504                  0.9335395       -26.92405
1.508                  0.9250639        -27.4137
1.512                  0.9244181       -27.90014
1.516                   0.931967       -28.63797
1.52                   0.9464238       -29.87948
1.524                  0.9650268       -31.82247
1.528                  0.9840178       -34.58433
1.532                  0.9992227       -38.20626
1.536                   1.006568       -42.67593
1.54                     1.00246       -47.95433
1.544                  0.9840308       -53.99955
1.548                  0.9492834       -60.78604
1.552                  0.8971822       -68.32326
