! TOUCHSTONE file generated by CST MICROWAVE STUDIO
! Date and time: Thu Jun  9 07:40:03 2022
! Project name: AppElm_antenne_patch_Alumina.cst
! Parameters = {L=30.5; W=50.16; e=0.035; h=1.6; lambda=0.190476; ls=90; w0=1.12; w1=0.373; ws=90; y0=14; y1=10}
! Header version: 2018
! Port assignment regex: !\s*Touchstone port\s*([0-9]+)\s*=\s*(CST MWS port|CST DS port)\s*([0-9]+|Zmin|Zmax)\s*\(\"(.*)\"\)(\s*mode\s*([0-9]+))?.*
! Touchstone port assignment:
! Touchstone port 1 = CST MWS port 1 ("")
# GHz S MA R 50
0                      0.9650988              -0
0.004                  0.9671759       -12.09727
0.008                  0.9730958       -24.01941
0.012                  0.9819832       -35.60785
0.016                  0.9925619       -46.73205
0.02                    1.003372       -57.29379
0.024                   1.012997       -67.22488
0.028                   1.020254       -76.48122
0.032                   1.024335       -85.03621
0.036                   1.024891       -92.87568
0.04                    1.022049        -99.9954
0.044                   1.016385       -106.4013
0.048                   1.008841       -112.1121
0.052                   1.000591       -117.1633
0.056                  0.9928776       -121.6105
0.06                   0.9868214       -125.5305
0.064                  0.9832465       -129.0183
0.068                    0.98255       -132.1785
0.072                   0.984646       -135.1139
0.076                  0.9890034       -137.9128
0.08                   0.9947624       -140.6401
0.084                   1.000899       -143.3323
0.088                   1.006405       -145.9986
0.092                   1.010444       -148.6254
0.096                   1.012465       -151.1834
0.1                     1.012268       -153.6353
0.104                   1.010013       -155.9432
0.108                   1.006177       -158.0762
0.112                   1.001473       -160.0158
0.116                  0.9967292       -161.7605
0.12                   0.9927507       -163.3274
0.124                  0.9901835       -164.7509
0.128                  0.9894068       -166.0774
0.132                  0.9904739       -167.3577
0.136                  0.9931139       -168.6382
0.14                   0.9967961       -169.9537
0.144                   1.000837        -171.322
0.148                   1.004525       -172.7433
0.152                   1.007246       -174.2018
0.156                   1.008576       -175.6701
0.16                    1.008343       -177.1144
0.164                   1.006646       -178.5009
0.168                   1.003827       -179.8011
0.172                   1.000409        179.0033
0.176                  0.9970065        177.9172
0.18                   0.9942166        176.9306
0.184                  0.9925142        176.0203
0.188                    0.99217        175.1538
0.192                  0.9932046        174.2953
0.196                  0.9953924        173.4122
0.2                    0.9983102         172.481
0.204                    1.00142        171.4909
0.208                    1.00417        170.4449
0.212                   1.006089        169.3579
0.216                   1.006865        168.2543
0.22                    1.006393        167.1625
0.224                   1.004783        166.1108
0.228                   1.002344        165.1221
0.232                  0.9995209        164.2105
0.236                  0.9968225        163.3783
0.24                   0.9947262        162.6159
0.244                  0.9935961        161.9028
0.248                  0.9936165        161.2117
0.252                   0.994761        160.5136
0.256                  0.9968018        159.7829
0.26                   0.9993556        159.0024
0.264                   1.001958        158.1657
0.268                   1.004145        157.2782
0.272                    1.00554        156.3551
0.276                   1.005912        155.4188
0.28                    1.005211        154.4946
0.284                   1.003577        153.6066
0.288                   1.001312        152.7737
0.292                  0.9988272         152.006
0.296                   0.996567        151.3032
0.3                    0.9949351        150.6544
0.304                  0.9942172          150.04
0.308                  0.9945315        149.4352
0.312                  0.9958086        148.8146
0.316                  0.9978055        148.1573
0.32                    1.000154        147.4503
0.324                   1.002431        146.6906
0.328                   1.004232        145.8856
0.332                   1.005244        145.0511
0.336                   1.005297        144.2086
0.34                    1.004391        143.3814
0.344                   1.002696        142.5907
0.348                   1.000518         141.852
0.352                  0.9982503        141.1724
0.356                  0.9962992        140.5491
0.36                   0.9950133        139.9697
0.364                    0.99462        139.4145
0.368                  0.9951838        138.8601
0.372                  0.9965952        138.2838
0.376                  0.9985924        137.6677
0.38                    1.000812        137.0022
0.384                   1.002856        136.2871
0.388                   1.004361        135.5316
0.392                   1.005065        134.7524
0.396                   1.004848        133.9705
0.4                     1.003754        133.2079
0.404                   1.001981        132.4836
0.408                  0.9998474        131.8104
0.412                  0.9977359        131.1926
0.416                  0.9960252        130.6251
0.42                   0.9950224        130.0941
0.424                  0.9949062        129.5794
0.428                  0.9956937        129.0585
0.432                  0.9972386        128.5104
0.436                  0.9992588        127.9201
0.44                    1.001389        127.2804
0.444                   1.003248        126.5937
0.448                   1.004506        125.8711
0.452                   1.004942        125.1301
0.456                   1.004482        124.3918
0.46                    1.003208         123.677
0.464                   1.001348        123.0029
0.468                  0.9992343          122.38
0.472                  0.9972457        121.8101
0.476                  0.9957389        121.2859
0.48                   0.9949861         120.792
0.484                  0.9951222        120.3077
0.488                  0.9961211        119.8109
0.492                  0.9978008        119.2824
0.496                   0.999857         118.709
0.5                      1.00192        118.0862
0.504                    1.00362        117.4188
0.508                   1.004657        116.7196
0.512                   1.004846        116.0071
0.516                   1.004154        115.3025
0.52                    1.002703        114.6259
0.524                   1.000751        113.9927
0.528                  0.9986443        113.4114
0.532                   0.996761        112.8815
0.536                  0.9954404        112.3932
0.54                   0.9949215        111.9297
0.544                  0.9952994        111.4695
0.548                  0.9965056         110.991
0.552                  0.9983223        110.4761
0.556                   1.000422         109.914
0.56                    1.002429        109.3024
0.564                   1.003984        108.6483
0.568                   1.004809        107.9664
0.572                   1.004759        107.2762
0.576                   1.003839        106.5993
0.58                     1.00221        105.9548
0.584                   1.000161        105.3569
0.588                  0.9980548        104.8119
0.592                  0.9962703        104.3167
0.596                    0.99513        103.8596
0.6                     0.994842        103.4218
0.604                  0.9954607        102.9814
0.608                  0.9968759        102.5168
0.612                  0.9988333        102.0113
0.616                   1.000981         101.456
0.62                    1.002936        100.8511
0.624                   1.004347        100.2059
0.628                   1.004962        99.53693
0.632                    1.00467        98.86487
0.636                   1.003519        98.21138
0.64                    1.001708        97.59518
0.644                  0.9995575        97.02884
0.648                  0.9974499        96.51646
0.652                  0.9957643        96.05263
0.656                  0.9948069        95.62323
0.66                   0.9947543        95.20785
0.664                  0.9956197        94.78356
0.668                  0.9972493        94.32918
0.672                  0.9993514        93.82934
0.676                   1.001549        93.27712
0.68                    1.003449        92.67521
0.684                   1.004711        92.03524
0.688                   1.005109        91.37562
0.692                   1.004566        90.71836
0.696                   1.003174         90.0854
0.7                     1.001175        89.49473
0.704                  0.9989202         88.9574
0.708                  0.9968126        88.47523
0.712                  0.9952322        88.04025
0.716                  0.9944679        87.63591
0.72                   0.9946628        87.23995
0.724                  0.9957865         86.8286
0.728                    0.99764        86.38102
0.732                  0.9998915        85.88316
0.736                   1.002138        85.33035
0.74                    1.003978        84.72782
0.744                    1.00508        84.08969
0.748                   1.005245         83.4364
0.752                   1.004436        82.79127
0.756                    1.00279        82.17649
0.76                    1.000593        81.60938
0.764                  0.9982313        81.09924
0.768                  0.9961278         80.6455
0.772                  0.9946635        80.23744
0.776                  0.9941082        79.85586
0.78                   0.9945686        79.47662
0.784                  0.9959675        79.07509
0.788                  0.9980569        78.63079
0.792                   1.000463        78.13123
0.796                   1.002756        77.57407
0.8                     1.004525        76.96731
0.804                    1.00545         76.3277
0.808                   1.005362        75.67789
0.812                   1.004266        75.04249
0.816                   1.002348          74.444
0.82                   0.9999416        73.89893
0.824                  0.9974708        73.41471
0.828                  0.9953791        72.98809
0.832                  0.9940471        72.60536
0.836                   0.993723         72.2445
0.84                   0.9944735        71.87934
0.844                  0.9961696        71.48439
0.848                  0.9985112        71.03963
0.852                   1.001079        70.53437
0.856                   1.003415        69.96882
0.86                    1.005099        69.35393
0.864                   1.005825        68.70939
0.868                   1.005457        68.06014
0.872                   1.004047         67.4322
0.876                   1.001835        66.84833
0.88                   0.9992052        66.32412
0.884                  0.9966225        65.86488
0.888                  0.9945522        65.46439
0.892                  0.9933737        65.10562
0.896                  0.9933095        64.76351
0.9                     0.994381        64.40968
0.904                  0.9964031        64.01779
0.908                  0.9990169        63.56851
0.912                   1.001756        63.05305
0.916                   1.004129        62.47453
0.92                     1.00571        61.84723
0.924                    1.00621        61.19394
0.928                   1.005527        60.54211
0.932                   1.003769        59.91929
0.936                   1.001233        59.34851
0.94                   0.9983611        58.84419
0.944                  0.9956623        58.40928
0.948                  0.9936246        58.03424
0.952                  0.9926247         57.6983
0.956                  0.9928554        57.37302
0.96                   0.9942871        57.02766
0.964                  0.9966706        56.63501
0.968                  0.9995826        56.17658
0.972                   1.002503        55.64583
0.976                   1.004909        55.04914
0.98                    1.006366        54.40445
0.984                   1.006604        53.73804
0.988                   1.005564        53.08011
0.992                   1.003413        52.45989
0.996                   1.000515        51.90063
1                      0.9973748        51.41547
1.004                  0.9945519        51.00462
1.008                  0.9925594        50.65471
1.012                  0.9917691        50.34075
1.016                   0.992339        50.03049
1.02                   0.9941806        49.69056
1.024                  0.9969723        49.29291
1.028                   1.000218        48.82002
1.032                   1.003339        48.26797
1.036                   1.005774        47.64689
1.04                    1.007082        46.97881
1.044                   1.007014        46.29396
1.048                   1.005563        45.62567
1.052                   1.002961        45.00505
1.056                  0.9996491        44.45563
1.06                   0.9962059        43.98902
1.064                  0.9932461        43.60227
1.068                  0.9913113        43.27759
1.072                  0.9907679        42.98509
1.076                  0.9917333        42.68813
1.08                   0.9940503        42.35036
1.084                  0.9973134        41.94276
1.088                   1.000943        41.44902
1.092                   1.004291         40.8683
1.096                   1.006756        40.21496
1.1                     1.007886        39.51585
1.104                    1.00746        38.80569
1.108                   1.005525        38.12148
1.112                   1.002393        37.49655
1.116                   0.998595        36.95481
1.12                   0.9947939        36.50619
1.124                  0.9916718        36.14403
1.128                  0.9898048        35.84534
1.132                  0.9895531        35.57434
1.136                  0.9909865        35.28923
1.14                   0.9938673        34.95001
1.144                  0.9976907         34.5266
1.148                   1.001778        34.00403
1.152                   1.005399        33.38508
1.156                   1.007901        32.68911
1.16                    1.008822        31.94858
1.164                   1.007967        31.20357
1.168                   1.005449        30.49564
1.172                   1.001674        29.86081
1.176                   0.997279        29.32377
1.18                   0.9930329        28.89253
1.184                  0.9897005        28.55613
1.188                  0.9879036        28.28511
1.192                  0.9879976        28.03671
1.196                  0.9899976        27.76244
1.2                    0.9935686        27.41787
1.204                  0.9980851        26.97131
1.208                   1.002746        26.40935
1.212                   1.006718        25.73898
1.216                   1.009284        24.98556
1.22                    1.009959        24.18839
1.224                    1.00858        23.39432
1.228                   1.005336        22.65051
1.232                   1.000745        21.99702
1.236                  0.9955793        21.45976
1.24                   0.9907414        21.04487
1.244                   0.987108        20.73614
1.248                  0.9853661        20.49632
1.252                  0.9858737        20.27314
1.256                  0.9885825        20.00955
1.26                   0.9930377        19.65494
1.264                  0.9984604        19.17509
1.268                    1.00389        18.55822
1.272                   1.008356        17.81626
1.276                   1.011044        16.98205
1.28                    1.011436        16.10357
1.284                   1.009395         15.2365
1.288                   1.005198        14.43595
1.292                  0.9995045        13.74786
1.296                  0.9932634        13.20082
1.3                    0.9875636        12.79948
1.304                  0.9834434        12.52131
1.308                  0.9816948        12.31855
1.312                  0.9826983        12.12612
1.316                   0.986334        11.87434
1.32                    0.991994        11.50318
1.324                  0.9986916        10.97401
1.328                   1.005242        10.27617
1.332                   1.010473        9.427622
1.336                   1.013422        8.470792
1.34                    1.013493        7.465396
1.344                   1.010562        6.479674
1.348                   1.005007        5.580747
1.352                  0.9976743        4.824494
1.356                  0.9897615        4.245478
1.36                   0.9826381        3.848336
1.364                  0.9776075        3.603076
1.368                  0.9756546        3.447105
1.372                  0.9772349        3.295503
1.376                   0.982158         3.05802
1.38                   0.9896087        2.658021
1.384                  0.9982935          2.0477
1.388                   1.006678        1.215764
1.392                   1.013252       0.1872537
1.396                   1.016781      -0.9823823
1.4                     1.016499       -2.216315
1.404                   1.012237       -3.426707
1.408                   1.004475       -4.525912
1.412                  0.9943086       -5.438762
1.416                  0.9833233       -6.115923
1.42                   0.9733727       -6.546932
1.424                  0.9662669        -6.76937
1.428                  0.9634186       -6.868925
1.432                  0.9655236       -6.966487
1.436                  0.9723703       -7.193469
1.44                   0.9828464       -7.662937
1.444                  0.9951386       -8.446627
1.448                   1.007063       -9.564209
1.452                   1.016432       -10.98464
1.456                   1.021398        -12.6351
1.46                    1.020716       -14.41269
1.464                   1.013935       -16.19622
1.468                   1.001509        -17.8581
1.472                   0.984814       -19.27825
1.476                  0.9660719       -20.36247
1.48                   0.9481173       -21.06634
1.484                  0.9339976       -21.42112
1.488                  0.9263999       -21.55068
1.492                  0.9270101       -21.66435
1.496                   0.936004       -22.01795
1.5                    0.9518764       -22.85488
1.504                   0.971675       -24.35477
1.508                  0.9915136       -26.61092
1.512                   1.007158       -29.63725
1.516                    1.01452       -33.39125
1.52                     1.01001       -37.79833
1.524                  0.9907494       -42.77062
1.528                   0.954681       -48.21811
1.532                   0.900617       -54.05397
1.536                  0.8282372        -60.1951
1.54                   0.7380568       -66.55867
1.544                   0.631367       -73.05274
1.548                  0.5101573       -79.55166
1.552                   0.377028       -85.81721
