! TOUCHSTONE file generated by CST MICROWAVE STUDIO
! Date and time: Thu Jun  9 07:39:55 2022
! Project name: AppElm_antenne_patch_Alumina.cst
! Parameters = {L=30.5; W=33.44; e=0.035; h=1.6; lambda=0.190476; ls=90; w0=1.12; w1=0.373; ws=90; y0=14; y1=10}
! Header version: 2018
! Port assignment regex: !\s*Touchstone port\s*([0-9]+)\s*=\s*(CST MWS port|CST DS port)\s*([0-9]+|Zmin|Zmax)\s*\(\"(.*)\"\)(\s*mode\s*([0-9]+))?.*
! Touchstone port assignment:
! Touchstone port 1 = CST MWS port 1 ("")
# GHz S MA R 50
0                       0.994348              -0
0.004                  0.9946808       -8.616582
0.008                  0.9956323       -17.16625
0.012                  0.9970682       -25.58472
0.016                  0.9987876       -33.81264
0.02                    1.000553       -41.79737
0.024                   1.002127       -49.49425
0.028                   1.003302        -56.8671
0.032                   1.003932       -63.88855
0.036                   1.003951       -70.53987
0.04                    1.003382       -76.81087
0.044                   1.002325       -82.69967
0.048                    1.00095        -88.2122
0.052                  0.9994625       -93.36192
0.056                  0.9980782       -98.16882
0.06                   0.9969891       -102.6583
0.064                  0.9963363       -106.8596
0.068                  0.9961903       -110.8036
0.072                  0.9965438       -114.5209
0.076                  0.9973152       -118.0399
0.08                   0.9983656       -121.3849
0.084                  0.9995216        -124.575
0.088                   1.000605       -127.6244
0.092                   1.001457        -130.542
0.096                   1.001965       -133.3328
0.1                     1.002075       -135.9991
0.104                   1.001795        -138.542
0.108                   1.001194       -140.9628
0.112                   1.000387       -143.2642
0.116                  0.9995125       -145.4513
0.12                   0.9987141       -147.5318
0.124                  0.9981141       -149.5157
0.128                  0.9977977       -151.4151
0.132                     0.9978       -153.2424
0.136                  0.9981032       -155.0099
0.14                   0.9986431       -156.7282
0.144                  0.9993207       -158.4053
0.148                   1.000021       -160.0463
0.152                   1.000632       -161.6535
0.156                   1.001063       -163.2262
0.16                    1.001255       -164.7621
0.164                   1.001194       -166.2581
0.168                   1.000904       -167.7109
0.172                   1.000447       -169.1183
0.176                  0.9999055       -170.4798
0.18                   0.9993737       -171.7967
0.184                  0.9989378       -173.0725
0.188                  0.9986636       -174.3122
0.192                  0.9985873       -175.5217
0.196                  0.9987112       -176.7074
0.2                    0.9990043       -177.8748
0.204                  0.9994105       -179.0283
0.208                  0.9998582        179.8294
0.212                   1.000274        178.6974
0.216                   1.000592        177.5765
0.22                    1.000769        176.4689
0.224                   1.000783        175.3773
0.228                   1.000644        174.3047
0.232                   1.000381        173.2535
0.236                   1.000046        172.2251
0.24                   0.9996958        171.2195
0.244                  0.9993881        170.2356
0.248                  0.9991699         169.271
0.252                  0.9990711        168.3225
0.256                  0.9991004        167.3866
0.26                   0.9992463        166.4599
0.264                  0.9994789        165.5397
0.268                  0.9997566        164.6242
0.272                   1.000033        163.7126
0.276                   1.000266        162.8053
0.28                    1.000422        161.9035
0.284                   1.000482        161.0089
0.288                   1.000442        160.1235
0.292                   1.000315        159.2491
0.296                   1.000126         158.387
0.3                    0.9999079        157.5379
0.304                  0.9996955        156.7015
0.308                  0.9995204         155.877
0.312                   0.999407        155.0627
0.316                  0.9993686         154.257
0.32                   0.9994065        153.4578
0.324                  0.9995112        152.6633
0.328                  0.9996638        151.8721
0.332                  0.9998401        151.0833
0.336                   1.000013        150.2966
0.34                     1.00016        149.5123
0.344                    1.00026        148.7311
0.348                   1.000303         147.954
0.352                   1.000284        147.1822
0.356                    1.00021        146.4167
0.36                    1.000091        145.6586
0.364                  0.9999469        144.9083
0.368                  0.9997965         144.166
0.372                   0.999661        143.4315
0.376                  0.9995584        142.7041
0.38                   0.9995026        141.9828
0.384                  0.9995011        141.2665
0.388                   0.999554        140.5538
0.392                  0.9996546        139.8436
0.396                  0.9997893        139.1349
0.4                    0.9999403         138.427
0.404                   1.000087        137.7197
0.408                   1.000207        137.0131
0.412                   1.000284        136.3079
0.416                   1.000304        135.6051
0.42                    1.000263        134.9058
0.424                   1.000165        134.2114
0.428                   1.000022        133.5229
0.432                  0.9998531        132.8412
0.436                  0.9996837        132.1665
0.44                   0.9995396        131.4987
0.444                  0.9994451        130.8368
0.448                  0.9994173        130.1796
0.452                  0.9994637        129.5254
0.456                  0.9995806        128.8724
0.46                   0.9997529        128.2191
0.464                  0.9999555        127.5644
0.468                   1.000156        126.9076
0.472                   1.000323        126.2492
0.476                   1.000427          125.59
0.48                    1.000446        124.9317
0.484                   1.000375        124.2763
0.488                    1.00022        123.6257
0.492                   1.000003        122.9819
0.496                  0.9997588        122.3459
0.5                    0.9995261        121.7179
0.504                  0.9993457        121.0975
0.508                    0.99925        120.4828
0.512                  0.9992594        119.8718
0.516                  0.9993764        119.2618
0.52                   0.9995859        118.6504
0.524                  0.9998554        118.0355
0.528                   1.000141         117.416
0.532                   1.000393        116.7921
0.536                   1.000567        116.1649
0.54                    1.000629        115.5365
0.544                   1.000564        114.9097
0.548                   1.000378        114.2877
0.552                   1.000098        113.6729
0.556                  0.9997682        113.0673
0.56                   0.9994449        112.4715
0.564                  0.9991846        111.8848
0.568                  0.9990349        111.3052
0.572                   0.999026        110.7297
0.576                  0.9991642        110.1546
0.58                   0.9994301        109.5767
0.584                  0.9997812        108.9932
0.588                   1.000158        108.4026
0.592                   1.000496        107.8048
0.596                   1.000732        107.2014
0.6                     1.000822        106.5953
0.604                   1.000745        105.9903
0.608                   1.000508        105.3903
0.612                   1.000148        104.7989
0.616                  0.9997247        104.2185
0.62                   0.9993099        103.6498
0.624                  0.9989777         103.092
0.628                  0.9987897        102.5424
0.632                  0.9987834         101.997
0.636                  0.9989653        101.4512
0.64                   0.9993087        100.9008
0.644                  0.9997572        100.3422
0.648                   1.000233        99.77369
0.652                   1.000654        99.19545
0.656                   1.000941         98.6096
0.66                    1.001041        98.01995
0.664                   1.000928        97.43133
0.668                   1.000618        96.84877
0.672                   1.000159        96.27661
0.676                  0.9996282        95.71771
0.68                    0.999118        95.17286
0.684                  0.9987196        94.64064
0.688                  0.9985072        94.11748
0.692                  0.9985235        93.59834
0.696                  0.9987714        93.07751
0.7                    0.9992123        92.54965
0.704                  0.9997717        92.01077
0.708                   1.000352        91.45897
0.712                    1.00085        90.89483
0.716                   1.001174        90.32134
0.72                     1.00126        89.74339
0.724                   1.001087        89.16709
0.728                   1.000677        88.59855
0.732                   1.000098        88.04283
0.736                  0.9994474        87.50311
0.74                     0.99884        86.97994
0.744                  0.9983852        86.47113
0.748                  0.9981681        85.97196
0.752                  0.9982331         85.4761
0.756                  0.9985751        84.97655
0.76                   0.9991388        84.46706
0.764                  0.9998275        83.94316
0.768                    1.00052        83.40305
0.772                   1.001092          82.848
0.776                   1.001437        82.28212
0.78                    1.001487        81.71168
0.784                   1.001226         81.1441
0.788                   1.000691        80.58667
0.792                  0.9999717        80.04513
0.796                  0.9991916        79.52275
0.8                    0.9984891        79.01959
0.804                  0.9979918        78.53238
0.808                  0.9977938          78.055
0.812                  0.9979376        77.57954
0.816                  0.9984046         77.0977
0.82                   0.9991175        76.60225
0.824                  0.9999524        76.08848
0.828                   1.000761        75.55495
0.832                   1.001398        75.00393
0.836                   1.001742        74.44093
0.84                    1.001725        73.87391
0.844                    1.00134        73.31178
0.848                   1.000647        72.76296
0.852                  0.9997613        72.23382
0.856                  0.9988372         71.7275
0.86                   0.9980393        71.24323
0.864                  0.9975135        70.77632
0.868                  0.9973606        70.31888
0.872                  0.9976156        69.86127
0.876                  0.9982407        69.39369
0.88                   0.9991302        68.90808
0.884                   1.000128        68.39963
0.888                   1.001055        67.86761
0.892                   1.001742        67.31562
0.896                   1.002059        66.75104
0.9                     1.001939        66.18364
0.904                   1.001392        65.62406
0.908                   1.000504         65.0819
0.912                  0.9994275        64.56398
0.916                  0.9983493        64.07302
0.92                   0.9974631        63.60702
0.924                  0.9969333        63.15945
0.928                  0.9968626        62.72033
0.932                  0.9972736        62.27789
0.936                  0.9981012        61.82087
0.94                   0.9992037        61.34041
0.944                   1.000386        60.83188
0.948                   1.001437        60.29566
0.952                   1.002161        59.73714
0.956                    1.00242        59.16591
0.96                    1.002156        58.59396
0.964                   1.001403        58.03383
0.968                   1.000282        57.49626
0.972                  0.9989866        56.98833
0.976                  0.9977441          56.512
0.98                   0.9967803        56.06361
0.984                  0.9962753        55.63426
0.988                  0.9963306        55.21141
0.992                  0.9969475        54.78097
0.996                  0.9980257        54.32999
1                      0.9993779        53.84907
1.004                   1.000764        53.33407
1.008                   1.001933        52.78699
1.012                   1.002668        52.21556
1.016                   1.002824        51.63201
1.02                    1.002358        51.05102
1.024                   1.001336        50.48714
1.028                  0.9999274        49.95229
1.032                  0.9983739        49.45357
1.036                  0.9969508        48.99173
1.04                   0.9959179        48.56083
1.044                  0.9954705        48.14904
1.048                  0.9957019        47.74067
1.052                   0.996584        47.31893
1.056                  0.9979686         46.8692
1.06                   0.9996137        46.38163
1.064                   1.001224        45.85309
1.068                   1.002506        45.28773
1.072                   1.003218         44.6963
1.076                   1.003216        44.09433
1.08                    1.002478        43.49954
1.084                   1.001118         42.9288
1.088                  0.9993597        42.39516
1.092                  0.9975084         41.9054
1.096                  0.9958944        41.45851
1.1                    0.9948151        41.04552
1.104                  0.9944785        40.65081
1.108                  0.9949621        40.25486
1.112                  0.9961954        39.83778
1.116                  0.9979688        39.38312
1.12                   0.9999697        38.88094
1.124                   1.001839        38.32964
1.128                   1.003232        37.73632
1.132                   1.003884        37.11559
1.136                   1.003656        36.48705
1.14                    1.002562        35.87203
1.144                   1.000771         35.2901
1.148                  0.9985845        34.75541
1.152                  0.9963828        34.27396
1.156                  0.9945628        33.84232
1.16                   0.9934639         33.4474
1.164                   0.993304        33.06876
1.168                  0.9941343        32.68217
1.172                  0.9958253          32.264
1.176                  0.9980868        31.79594
1.18                    1.000518        31.26824
1.184                   1.002679        30.68166
1.188                   1.004168        30.04736
1.192                   1.004696         29.3848
1.196                   1.004137        28.71875
1.2                     1.002553        28.07502
1.204                   1.000193        27.47628
1.208                  0.9974549        26.93782
1.212                  0.9948165        26.46449
1.216                   0.992757        26.04918
1.22                   0.9916656         25.6735
1.224                  0.9917667        25.31054
1.228                  0.9930711        24.92996
1.232                  0.9953677        24.50362
1.236                  0.9982586        24.01108
1.24                    1.001228         23.4433
1.244                   1.003735        22.80449
1.248                   1.005307        22.11106
1.252                   1.005629        21.38914
1.256                   1.004596        20.67005
1.26                    1.002341        19.98538
1.264                  0.9992205        19.36168
1.268                  0.9957595        18.81553
1.272                  0.9925676         18.3499
1.276                  0.9902305        17.95262
1.28                   0.9892003        17.59767
1.284                  0.9897041        17.24942
1.288                  0.9916916        16.86928
1.292                   0.994837        16.42313
1.296                  0.9985924          15.888
1.3                     1.002286        15.25629
1.304                    1.00524        14.53704
1.308                   1.006891        13.75423
1.312                    1.00689         12.9428
1.316                   1.005166        12.14315
1.32                    1.001949        11.39475
1.324                  0.9977472        10.72952
1.328                  0.9932664        10.16581
1.332                  0.9892998        9.703906
1.336                  0.9865852         9.32433
1.34                   0.9856628         8.99001
1.344                  0.9867613        8.652502
1.348                  0.9897404        8.261236
1.352                   0.994105        7.773563
1.356                  0.9990896        7.163079
1.36                    1.003795        6.424362
1.364                   1.007346        5.573583
1.368                   1.009044        4.645516
1.372                   1.008488        3.687956
1.376                   1.005654        2.754526
1.38                    1.000914        1.896552
1.384                  0.9949956        1.154575
1.388                  0.9888827       0.5503276
1.392                  0.9836544      0.08057983
1.396                  0.9802929      -0.2852186
1.4                    0.9794875       -0.601684
1.404                  0.9814807      -0.9381584
1.408                  0.9859969       -1.365015
1.412                  0.9922765       -1.939274
1.416                  0.9992083        -2.69349
1.42                    1.005526       -3.630353
1.424                   1.010026       -4.723171
1.428                   1.011774       -5.920856
1.432                   1.010262        -7.15567
1.436                   1.005508       -8.352574
1.44                   0.9980878        -9.43972
1.444                  0.9890813       -10.35996
1.448                  0.9799381       -11.08275
1.452                  0.9722552       -11.61447
1.456                  0.9674898       -12.00363
1.46                   0.9666562       -12.33698
1.464                  0.9700809       -12.72486
1.468                  0.9772889       -13.27844
1.472                  0.9870621       -14.08628
1.476                  0.9976513       -15.19738
1.48                    1.007082       -16.61473
1.484                   1.013479       -18.29803
1.488                   1.015364       -20.17208
1.492                   1.011881       -22.13733
1.496                   1.002958       -24.08115
1.5                    0.9893794       -25.89046
1.504                  0.9727731       -27.46729
1.508                  0.9554697       -28.74909
1.512                  0.9402122       -29.73256
1.516                  0.9296972       -30.49454
1.52                   0.9259969       -31.19799
1.524                   0.930002       -32.07166
1.528                  0.9410843       -33.36439
1.532                  0.9571139       -35.29289
1.536                  0.9748142       -38.00651
1.54                   0.9902938       -41.58037
1.544                    0.99958       -46.03092
1.548                  0.9990466       -51.34123
1.552                  0.9857145       -57.48606
