! TOUCHSTONE file generated by CST MICROWAVE STUDIO
! Date and time: Thu Jun  9 07:40:02 2022
! Project name: AppElm_antenne_patch_Alumina.cst
! Parameters = {L=30.5; W=48.07; e=0.035; h=1.6; lambda=0.190476; ls=90; w0=1.12; w1=0.373; ws=90; y0=14; y1=10}
! Header version: 2018
! Port assignment regex: !\s*Touchstone port\s*([0-9]+)\s*=\s*(CST MWS port|CST DS port)\s*([0-9]+|Zmin|Zmax)\s*\(\"(.*)\"\)(\s*mode\s*([0-9]+))?.*
! Touchstone port assignment:
! Touchstone port 1 = CST MWS port 1 ("")
# GHz S MA R 50
0                      0.9652659              -0
0.004                  0.9671686       -11.62482
0.008                  0.9726131         -23.095
0.012                  0.9808547       -34.26939
0.016                  0.9907959          -45.03
0.02                    1.001161       -55.28607
0.024                    1.01068       -64.97278
0.028                   1.018255       -74.04683
0.032                   1.023079       -82.48099
0.036                   1.024721       -90.25959
0.04                    1.023154       -97.37578
0.044                   1.018747        -103.831
0.048                   1.012212       -109.6368
0.052                   1.004512       -114.8171
0.056                  0.9967377       -119.4123
0.06                   0.9899601       -123.4806
0.064                  0.9850754       -127.0978
0.068                  0.9826727       -130.3526
0.072                  0.9829495       -133.3387
0.076                  0.9856925       -136.1443
0.08                   0.9903303       -138.8426
0.084                  0.9960436       -141.4851
0.088                   1.001909       -144.0989
0.092                   1.007043        -146.688
0.096                   1.010728       -149.2378
0.1                     1.012503       -151.7206
0.104                    1.01221       -154.1028
0.108                   1.010004       -156.3504
0.112                   1.006315       -158.4352
0.116                   1.001783         -160.34
0.12                   0.9971506       -162.0623
0.124                   0.993156       -163.6157
0.128                   0.990412       -165.0293
0.132                  0.9893105       -166.3438
0.136                  0.9899623       -167.6052
0.14                   0.9921878       -168.8574
0.144                  0.9955583       -170.1356
0.148                  0.9994785        -171.461
0.152                   1.003292       -172.8391
0.156                   1.006389       -174.2603
0.16                    1.008301       -175.7031
0.164                   1.008765       -177.1381
0.168                   1.007755       -178.5335
0.172                   1.005482       -179.8597
0.176                   1.002353        178.9059
0.18                   0.9989034        177.7749
0.184                   0.995711        176.7464
0.188                  0.9933008         175.806
0.192                  0.9920566        174.9284
0.196                  0.9921579        174.0814
0.2                    0.9935528        173.2317
0.204                  0.9959719        172.3505
0.208                  0.9989813        171.4183
0.212                   1.002062        170.4278
0.216                   1.004698        169.3843
0.22                    1.006464        168.3036
0.224                   1.007086        167.2097
0.228                   1.006488        166.1299
0.232                   1.004792        165.0909
0.236                   1.002302        164.1144
0.24                   0.9994495        163.2136
0.244                  0.9967219        162.3906
0.248                  0.9945807        161.6364
0.252                  0.9933834        160.9316
0.256                  0.9933201        160.2502
0.26                   0.9943835        159.5638
0.264                   0.996372        158.8471
0.268                  0.9989286        158.0821
0.272                   1.001607         157.261
0.276                    1.00395        156.3869
0.28                    1.005566        155.4733
0.284                   1.006193        154.5407
0.288                   1.005737        153.6137
0.292                   1.004291        152.7168
0.296                   1.002109        151.8703
0.3                    0.9995731        151.0872
0.304                    0.99712        150.3706
0.308                  0.9951728        149.7132
0.312                  0.9940648        149.0984
0.316                  0.9939806        148.5028
0.32                   0.9949252        147.9008
0.324                  0.9967235        147.2693
0.328                  0.9990539        146.5913
0.332                   1.001507        145.8593
0.336                    1.00366        145.0761
0.34                    1.005145        144.2536
0.344                   1.005714        143.4112
0.348                   1.005278        142.5719
0.352                   1.003918        141.7587
0.356                   1.001875        140.9908
0.36                   0.9995032        140.2806
0.364                  0.9972172        139.6311
0.368                  0.9954149        139.0354
0.372                  0.9944098        138.4776
0.376                  0.9943747        137.9358
0.38                   0.9953103        137.3857
0.384                  0.9970461        136.8054
0.388                  0.9992724        136.1792
0.392                   1.001597        135.5001
0.396                   1.003614        134.7713
0.4                     1.004976        134.0047
0.404                   1.005451         133.219
0.408                   1.004961        132.4367
0.412                   1.003593        131.6798
0.416                   1.001588        130.9668
0.42                   0.9992956         130.309
0.424                  0.9971181        129.7087
0.428                  0.9954383        129.1587
0.432                  0.9945528         128.643
0.436                  0.9946164        128.1397
0.44                   0.9956159        127.6255
0.444                  0.9973713        127.0793
0.448                  0.9995696        126.4863
0.452                   1.001822        125.8409
0.456                   1.003734        125.1468
0.46                    1.004972        124.4167
0.464                   1.005323        123.6697
0.468                   1.004725        122.9278
0.472                   1.003285        122.2128
0.476                   1.001254        121.5422
0.48                   0.9989862        120.9263
0.484                  0.9968831        120.3664
0.488                  0.9953165        119.8539
0.492                  0.9945659        119.3723
0.496                  0.9947646        118.8993
0.5                    0.9958771        118.4119
0.504                  0.9977039        117.8896
0.508                  0.9999191         117.319
0.512                    1.00213        116.6956
0.516                   1.003946        116.0246
0.52                    1.005049        115.3198
0.524                   1.005245        114.6008
0.528                   1.004499        113.8901
0.532                    1.00294        113.2091
0.536                   1.000841        112.5744
0.54                     0.99857         111.995
0.544                    0.99653        111.4706
0.548                  0.9950851        110.9913
0.552                  0.9944955        110.5391
0.556                  0.9948686        110.0912
0.56                   0.9961387        109.6243
0.564                   0.998079        109.1189
0.568                   1.000343        108.5628
0.572                   1.002529        107.9532
0.576                   1.004249        107.2971
0.58                    1.005198        106.6098
0.584                    1.00521        105.9119
0.588                   1.004277        105.2265
0.592                   1.002563        104.5745
0.596                   1.000365        103.9717
0.6                    0.9980719        103.4256
0.604                   0.996092         102.934
0.608                  0.9947815        102.4849
0.612                  0.9943782        102.0587
0.616                  0.9949577        101.6318
0.62                    0.996418        101.1807
0.624                   0.998498        100.6866
0.628                   1.000826        100.1391
0.632                   1.002987        99.53731
0.636                   1.004597         98.8903
0.64                    1.005368        98.21515
0.644                   1.005161        97.53399
0.648                   1.004009        96.87023
0.652                    1.00211        96.24467
0.656                  0.9997979        95.67189
0.66                   0.9974814         95.1575
0.664                  0.9955762        94.69694
0.668                  0.9944277        94.27594
0.672                  0.9942474        93.87301
0.676                  0.9950724        93.46331
0.68                   0.9967572        93.02336
0.684                  0.9990008        92.53548
0.688                   1.001402        91.99094
0.692                   1.003531         91.3914
0.696                   1.005008        90.74835
0.7                     1.005568        90.08102
0.704                   1.005107        89.41303
0.708                     1.0037        88.76841
0.712                    1.00159        88.16751
0.716                  0.9991491        87.62347
0.72                   0.9968106        87.13967
0.724                  0.9949964        86.70888
0.728                   0.994038        86.31412
0.732                  0.9941142        85.93168
0.736                  0.9952167        85.53562
0.74                   0.9971502        85.10249
0.744                  0.9995683        84.61593
0.748                   1.002037        84.06947
0.752                   1.004115        83.46754
0.756                   1.005428        82.82447
0.76                    1.005738        82.16186
0.764                   1.004983        81.50492
0.768                    1.00329        80.87816
0.772                   1.000951        80.30133
0.776                  0.9983807        79.78578
0.78                    0.996038        79.33225
0.784                  0.9943484        78.93028
0.788                   0.993624        78.55986
0.792                  0.9940036        78.19494
0.796                  0.9954247        77.80843
0.8                     0.997635        77.37723
0.804                   1.000238        76.88663
0.808                   1.002766        76.33292
0.812                   1.004764        75.72375
0.816                   1.005872         75.0766
0.82                    1.005886        74.41568
0.824                   1.004794        73.76783
0.828                   1.002778          73.158
0.832                   1.000192        72.60498
0.836                  0.9974917        72.11793
0.84                   0.9951639        71.69437
0.844                  0.9936341        71.32027
0.848                  0.9931875        70.97218
0.852                  0.9939141         70.6216
0.856                  0.9956893        70.24036
0.86                   0.9981961        69.80605
0.864                   1.000984        69.30616
0.868                    1.00355        68.74015
0.872                   1.005432        68.11937
0.876                   1.006287        67.46482
0.88                    1.005954        66.80347
0.884                    1.00448        66.16375
0.888                   1.002115        65.57086
0.892                  0.9992728        65.04221
0.896                  0.9964601        64.58424
0.9                    0.9941867        64.19072
0.904                  0.9928724        63.84337
0.908                  0.9927671        63.51506
0.912                   0.993901        63.17472
0.916                  0.9960763        62.79341
0.92                   0.9989037         62.3498
0.924                   1.001874        61.83415
0.928                   1.004452        61.24976
0.932                    1.00617        60.61219
0.936                   1.006712        59.94628
0.94                    1.005969        59.28198
0.944                   1.004057         58.6493
0.948                   1.001305        58.07333
0.952                  0.9981934         57.5697
0.956                  0.9952812        57.14148
0.96                   0.9930995        56.77795
0.964                  0.9920558        56.45611
0.968                   0.992353        56.14474
0.972                  0.9939499        55.81017
0.976                  0.9965642        55.42299
0.98                   0.9997263        54.96358
0.984                   1.002866        54.42558
0.988                   1.005414        53.81684
0.992                   1.006907        53.15762
0.996                   1.007064        52.47705
1                       1.005841        51.80813
1.004                   1.003437        51.18236
1.008                   1.000265        50.62437
1.012                  0.9968852        50.14735
1.016                  0.9939071        49.75016
1.02                   0.9918806        49.41684
1.024                  0.9911896        49.11896
1.028                  0.9919774        48.82079
1.032                  0.9941147        48.48621
1.036                   0.997222        48.08574
1.04                     1.00074        47.60215
1.044                   1.004032         47.0334
1.048                   1.006501        46.39262
1.052                   1.007692         45.7055
1.056                   1.007374        45.00584
1.06                    1.005581        44.32994
1.064                   1.002608        43.71065
1.068                  0.9989696        43.17168
1.072                  0.9953106        42.72305
1.076                  0.9922959        42.35846
1.08                   0.9904878        42.05568
1.084                  0.9902359        41.78003
1.088                  0.9916064        41.49092
1.092                  0.9943648         41.1498
1.096                  0.9980179        40.72769
1.1                     1.001906        40.21064
1.104                   1.005323        39.60188
1.108                   1.007647        38.92079
1.112                   1.008442        38.19925
1.116                   1.007541        37.47628
1.12                    1.005074        36.79164
1.124                   1.001453        36.17934
1.128                  0.9973064        35.66164
1.132                  0.9933765        35.24425
1.136                  0.9903851         34.9146
1.14                   0.9888994        34.64279
1.144                  0.9892186        34.38688
1.148                  0.9913098        34.10085
1.152                   0.994809        33.74396
1.156                  0.9990886        33.28844
1.16                    1.003374        32.72482
1.164                   1.006886        32.06284
1.168                   1.008978        31.32941
1.172                   1.009249        30.56364
1.176                   1.007612        29.81049
1.18                     1.00432        29.11356
1.184                  0.9999241        28.50797
1.188                  0.9951906        28.01368
1.192                  0.9909728        27.63108
1.196                  0.9880552        27.33938
1.2                    0.9870024        27.09936
1.204                   0.988043        26.86039
1.208                  0.9910162        26.57033
1.212                  0.9953979        26.18628
1.216                   1.000398        25.68273
1.22                    1.005109        25.05602
1.224                    1.00867        24.32418
1.228                   1.010414        23.52313
1.232                   1.009988         22.7007
1.236                   1.007416        21.90881
1.24                    1.003099        21.19562
1.244                  0.9977655        20.59708
1.248                  0.9923516        20.13003
1.252                  0.9878451        19.78764
1.256                  0.9851006        19.53846
1.26                   0.9846693        19.33123
1.264                  0.9866794         19.1044
1.268                  0.9908004        18.79866
1.272                  0.9963008        18.36914
1.276                   1.002187        17.79386
1.28                    1.007385        17.07703
1.284                   1.010936         16.2473
1.288                   1.012159        15.35222
1.292                   1.010768        14.45049
1.296                   1.006927        13.60309
1.3                     1.001239        12.86374
1.304                  0.9946625        12.26966
1.308                  0.9883585         11.8335
1.312                  0.9834917        11.53838
1.316                  0.9810067        11.33838
1.32                   0.9814311        11.16576
1.324                  0.9847524        10.94429
1.328                  0.9904061        10.60534
1.332                  0.9973801        10.10193
1.336                   1.004406        9.417289
1.34                    1.010193        8.566487
1.344                   1.013651        7.592426
1.348                   1.014077        6.558136
1.352                   1.011277        5.537159
1.356                   1.005612        4.602952
1.36                   0.9979635        3.817649
1.364                  0.9896158        3.220724
1.368                  0.9820563         2.81906
1.372                  0.9767113        2.581227
1.376                  0.9746618        2.439363
1.38                   0.9764012        2.300633
1.384                  0.9817064        2.066513
1.388                  0.9896618        1.654311
1.392                  0.9988337        1.014109
1.396                    1.00754        0.136846
1.4                     1.014152      -0.9466098
1.404                   1.017372       -2.172685
1.408                   1.016444       -3.455533
1.412                   1.011286       -4.698785
1.416                   1.002538       -5.808257
1.42                   0.9915079       -6.705996
1.424                  0.9800103       -7.345592
1.428                  0.9700917       -7.726673
1.432                  0.9636609       -7.903766
1.436                  0.9620839       -7.983158
1.44                   0.9658459       -8.104088
1.444                  0.9743935       -8.407816
1.448                   0.986216       -9.005363
1.452                  0.9991356        -9.95541
1.456                   1.010714       -11.25744
1.46                    1.018669       -12.85749
1.464                   1.021233        -14.6603
1.468                   1.017421       -16.54291
1.472                   1.007208       -18.36811
1.476                  0.9916055       -19.99864
1.48                   0.9726344       -21.31563
1.484                  0.9531458       -22.24334
1.488                  0.9364485        -22.7794
1.492                   0.925719       -23.02104
1.496                  0.9232637       -23.16962
1.5                    0.9298419       -23.49819
1.504                  0.9443187       -24.28752
1.508                  0.9638044       -25.76025
1.512                  0.9841898       -28.04467
1.516                    1.00083       -31.17609
1.52                    1.009156       -35.12171
1.524                   1.005117       -39.81035
1.528                  0.9854485       -45.15668
1.532                  0.9478237       -51.07712
1.536                  0.8909124       -57.49995
1.54                   0.8143884       -64.37309
1.544                   0.718896       -71.67462
1.548                  0.6059893       -79.43675
1.552                  0.4780609       -87.81474
