! TOUCHSTONE file generated by CST MICROWAVE STUDIO
! Date and time: Thu Jun  9 07:39:54 2022
! Project name: AppElm_antenne_patch_Alumina.cst
! Parameters = {L=30.5; W=31.35; e=0.035; h=1.6; lambda=0.190476; ls=90; w0=1.12; w1=0.373; ws=90; y0=14; y1=10}
! Header version: 2018
! Port assignment regex: !\s*Touchstone port\s*([0-9]+)\s*=\s*(CST MWS port|CST DS port)\s*([0-9]+|Zmin|Zmax)\s*\(\"(.*)\"\)(\s*mode\s*([0-9]+))?.*
! Touchstone port assignment:
! Touchstone port 1 = CST MWS port 1 ("")
# GHz S MA R 50
0                      0.9983051              -0
0.004                  0.9984445       -8.176805
0.008                  0.9988369       -16.29359
0.012                  0.9994088       -24.29253
0.016                   1.000053       -32.11995
0.02                    1.000649       -39.72801
0.024                   1.001084       -47.07595
0.028                   1.001274       -54.13094
0.032                    1.00118       -60.86855
0.036                   1.000815       -67.27292
0.04                    1.000238       -73.33665
0.044                  0.9995527       -79.06045
0.048                  0.9988789       -84.45238
0.052                  0.9983371       -89.52685
0.056                  0.9980247       -94.30326
0.06                   0.9979979       -98.80417
0.064                  0.9982612       -103.0536
0.068                  0.9987669        -107.075
0.072                  0.9994232       -110.8896
0.076                   1.000111       -114.5157
0.08                    1.000707       -117.9673
0.084                   1.001102       -121.2551
0.088                   1.001226       -124.3863
0.092                   1.001057       -127.3661
0.096                   1.000626        -130.199
0.1                     1.000012       -132.8899
0.104                  0.9993267       -135.4451
0.108                  0.9986964       -137.8733
0.112                  0.9982376       -140.1853
0.116                  0.9980363       -142.3939
0.12                   0.9981309       -144.5128
0.124                  0.9985068       -146.5556
0.128                  0.9990976       -148.5341
0.132                  0.9997976       -150.4577
0.136                   1.000481       -152.3324
0.14                    1.001026       -154.1606
0.144                   1.001334       -155.9416
0.148                    1.00135       -157.6726
0.152                   1.001071       -159.3498
0.156                    1.00055       -160.9696
0.16                   0.9998799         -162.53
0.164                  0.9991843       -164.0314
0.168                  0.9985907       -165.4774
0.172                  0.9982092       -166.8739
0.176                   0.998111       -168.2295
0.18                   0.9983163       -169.5533
0.184                  0.9987894       -170.8544
0.188                  0.9994458       -172.1402
0.192                   1.000168       -173.4154
0.196                   1.000824       -174.6814
0.2                     1.001297       -175.9365
0.204                     1.0015       -177.1764
0.208                   1.001396       -178.3951
0.212                   1.001004       -179.5862
0.216                   1.000394        179.2555
0.22                    0.999677        178.1332
0.224                  0.9989829         177.047
0.228                  0.9984391         175.994
0.232                  0.9981463        174.9685
0.236                  0.9981594        173.9626
0.24                   0.9984779        172.9681
0.244                  0.9990452        171.9772
0.248                  0.9997592        170.9844
0.252                   1.000491         169.987
0.256                   1.001107        168.9857
0.26                    1.001496        167.9843
0.264                   1.001586        166.9886
0.268                    1.00136        166.0061
0.272                   1.000858        165.0435
0.276                    1.00017        164.1063
0.28                   0.9994194        163.1972
0.284                  0.9987443        162.3159
0.288                  0.9982686        161.4585
0.292                  0.9980802        160.6186
0.296                  0.9982156        159.7884
0.3                    0.9986523        158.9597
0.304                   0.999312        158.1254
0.308                   1.000076        157.2813
0.312                   1.000805        156.4263
0.316                   1.001368        155.5624
0.32                    1.001661        154.6951
0.324                   1.001629        153.8313
0.328                   1.001278        152.9789
0.332                   1.000668        152.1449
0.336                  0.9999105        151.3343
0.34                   0.9991417        150.5489
0.344                  0.9985024        149.7871
0.348                  0.9981104        149.0443
0.352                  0.9980393         148.313
0.356                  0.9983041        147.5849
0.36                   0.9988588         146.852
0.364                  0.9996038        146.1081
0.368                   1.000404        145.3499
0.372                   1.001115        144.5777
0.376                   1.001606        143.7952
0.38                    1.001786        143.0089
0.384                   1.001622        142.2268
0.388                    1.00114         141.457
0.392                   1.000427        140.7064
0.396                  0.9996092         139.979
0.4                    0.9988368        139.2756
0.404                  0.9982504        138.5935
0.408                  0.9979593        137.9264
0.412                  0.9980184        137.2662
0.416                  0.9984198        136.6042
0.42                   0.9990924        135.9325
0.424                  0.9999149        135.2458
0.428                   1.000738        134.5419
0.432                   1.001412        133.8228
0.436                   1.001814        133.0935
0.44                    1.001868        132.3617
0.444                   1.001561        131.6361
0.448                   1.000948         130.925
0.452                   1.000137        130.2346
0.456                  0.9992747        129.5681
0.46                   0.9985177         128.925
0.464                  0.9980057        128.3009
0.468                  0.9978346        127.6885
0.472                  0.9980386        127.0787
0.476                  0.9985834        126.4624
0.48                   0.9993716        125.8323
0.484                   1.000261        125.1838
0.488                    1.00109        124.5165
0.492                   1.001707        123.8337
0.496                   1.001999        123.1418
0.5                     1.001908        122.4498
0.504                    1.00145        121.7668
0.508                   1.000702         121.101
0.512                  0.9998001        120.4581
0.516                  0.9989061          119.84
0.52                   0.9981833        119.2446
0.524                  0.9977657        118.6659
0.528                  0.9977323        118.0953
0.532                  0.9980924        117.5229
0.536                   0.998783        116.9397
0.54                   0.9996802        116.3388
0.544                   1.000621         115.717
0.548                   1.001435        115.0753
0.552                   1.001971        114.4185
0.556                   1.002129        113.7549
0.56                    1.001878        113.0941
0.564                   1.001258        112.4458
0.568                   1.000378        111.8179
0.572                  0.9993962         111.215
0.576                  0.9984903        110.6377
0.58                   0.9978266         110.082
0.584                  0.9975291        109.5404
0.588                  0.9976554         109.003
0.592                  0.9981862        108.4593
0.596                  0.9990278        107.9003
0.6                     1.000028          107.32
0.604                   1.001006        106.7166
0.608                   1.001783        106.0928
0.612                   1.002215        105.4554
0.616                   1.002219        104.8139
0.62                    1.001792        104.1789
0.624                   1.001005        103.5603
0.628                  0.9999984        102.9654
0.632                  0.9989529        102.3977
0.636                  0.9980594        101.8559
0.64                    0.997483        101.3342
0.644                  0.9973327        100.8235
0.648                  0.9976404        100.3125
0.652                   0.998354        99.79033
0.656                  0.9993465        99.24834
0.66                    1.000439        98.68169
0.664                   1.001431        98.09028
0.668                   1.002143        97.47878
0.672                    1.00244        96.85573
0.676                   1.002264        96.23212
0.68                    1.001642        95.61934
0.684                   1.000681        95.02726
0.688                  0.9995517        94.46232
0.692                  0.9984586        93.92645
0.696                  0.9976017         93.4164
0.7                    0.9971403        92.92442
0.704                  0.9971635        92.43946
0.708                  0.9976719        91.94933
0.712                  0.9985764         91.4428
0.716                  0.9997151         90.9119
0.72                    1.000881        90.35325
0.724                   1.001862        89.76875
0.728                   1.002475        89.16518
0.732                   1.002606          88.553
0.736                   1.002222        87.94457
0.74                    1.001389        87.35186
0.744                   1.000251        86.78442
0.748                  0.9990108        86.24755
0.752                  0.9978942        85.74126
0.756                  0.9971066        85.26011
0.76                   0.9967965        84.79409
0.764                  0.9970259        84.33044
0.768                  0.9977585        83.85596
0.772                  0.9988649        83.35952
0.776                   1.000146        82.83414
0.78                    1.001369        82.27828
0.784                   1.002309        81.69609
0.788                   1.002791        81.09665
0.792                   1.002722        80.49242
0.796                   1.002106        79.89699
0.8                     1.001048        79.32273
0.804                  0.9997334        78.77854
0.808                  0.9983993        78.26819
0.812                  0.9972886        77.78944
0.816                  0.9966078        77.33432
0.82                   0.9964872        76.89049
0.824                  0.9969556        76.44346
0.828                  0.9979336        75.97931
0.832                  0.9992469        75.48726
0.836                   1.000658         74.9618
0.84                     1.00191        74.40355
0.844                    1.00277        73.81929
0.848                   1.003078        73.22057
0.852                   1.002768        72.62186
0.856                   1.001887        72.03788
0.86                    1.000587        71.48109
0.864                  0.9990971         70.9594
0.868                  0.9976861        70.47458
0.872                  0.9966129        70.02177
0.876                  0.9960786        69.59016
0.88                   0.9961883        69.16494
0.884                  0.9969295        68.72996
0.888                  0.9981727        68.27082
0.892                  0.9996951        67.77759
0.896                    1.00122        67.24658
0.9                     1.002468         66.6811
0.904                   1.003207        66.09079
0.908                   1.003293        65.48991
0.912                   1.002701        64.89489
0.916                   1.001527        64.32143
0.92                   0.9999736        63.78176
0.924                  0.9983173         63.2823
0.928                  0.9968588        62.82234
0.932                  0.9958682        62.39395
0.936                   0.995534        61.98316
0.94                   0.9959266        61.57256
0.944                  0.9969833        61.14452
0.948                  0.9985178        60.68446
0.952                   1.000254        60.18373
0.956                   1.001876        59.64107
0.96                    1.003085        59.06292
0.964                   1.003654        58.46216
0.968                   1.003468        57.85594
0.972                   1.002549        57.26261
0.976                   1.001049        56.69865
0.98                    0.999231        56.17564
0.984                  0.9974201        55.69801
0.988                  0.9959477        55.26202
0.992                  0.9950891        54.85608
0.996                  0.9950119        54.46279
1                      0.9957416        54.06202
1.004                  0.9971548        53.63482
1.008                  0.9990003        53.16692
1.012                   1.000944        52.65152
1.016                   1.002632        52.09039
1.02                    1.003749        51.49363
1.024                   1.004082        50.87778
1.028                   1.003555        50.26301
1.032                   1.002247        49.66965
1.036                   1.000379        49.11464
1.04                   0.9982778        48.60844
1.044                  0.9963223        48.15286
1.048                  0.9948722        47.74041
1.052                   0.994202        47.35528
1.056                  0.9944474        46.97618
1.06                   0.9955766        46.58022
1.064                  0.9973936        46.14734
1.068                   0.999573         45.6641
1.072                   1.001719         45.1262
1.076                   1.003436        44.53919
1.08                    1.004402        43.91743
1.084                   1.004426        43.28159
1.088                   1.003483        42.65511
1.092                   1.001722        42.06021
1.096                   0.999443          41.514
1.1                    0.9970485        41.02521
1.104                  0.9949727        40.59223
1.108                  0.9936018        40.20296
1.112                  0.9932009        39.83664
1.116                  0.9938607        39.46757
1.12                   0.9954765        39.07002
1.124                  0.9977653        38.62312
1.128                   1.000315         38.1149
1.132                   1.002662        37.54439
1.136                   1.004371        36.92177
1.14                    1.005118        36.26654
1.144                   1.004744        35.60396
1.148                    1.00329        34.96116
1.152                   1.000993        34.36218
1.156                  0.9982472        33.82393
1.16                   0.9955405        33.35273
1.164                  0.9933685        32.94251
1.168                  0.9921412        32.57548
1.172                  0.9921041         32.2249
1.176                  0.9932864        31.86014
1.18                   0.9954909        31.45238
1.184                  0.9983276        30.98044
1.188                   1.001284        30.43449
1.192                   1.003819        29.81805
1.196                   1.005459        29.14703
1.2                     1.005882        28.44699
1.204                    1.00498        27.74875
1.208                   1.002877        27.08346
1.212                  0.9999175        26.47716
1.216                  0.9966134        25.94613
1.22                   0.9935545        25.49323
1.224                  0.9913058        25.10673
1.228                  0.9902995         24.7615
1.232                  0.9907485        24.42354
1.236                   0.992599        24.05622
1.24                   0.9955348        23.62742
1.244                  0.9990328        23.11592
1.248                   1.002458         22.5153
1.252                   1.005179        21.83474
1.256                   1.006679        21.09743
1.26                    1.006649        20.33644
1.264                   1.005046        19.58937
1.268                   1.002107        18.89224
1.272                  0.9983152        18.27329
1.276                  0.9943284        17.74765
1.28                   0.9908652        17.31358
1.284                  0.9885752        16.95158
1.288                  0.9879124        16.62704
1.292                  0.9890405        16.29632
1.296                  0.9917918        15.91527
1.3                    0.9956913        15.44797
1.304                   1.000042        14.87371
1.308                   1.004052        14.19064
1.312                   1.006976         13.4157
1.316                   1.008245        12.58153
1.32                    1.007572        11.73098
1.324                   1.005002        10.91044
1.328                    1.00092        10.16235
1.332                  0.9959984        9.517937
1.336                   0.991092        8.990783
1.34                   0.9870934        8.572756
1.344                   0.984767        8.233605
1.348                  0.9845952        7.925306
1.352                  0.9866708        7.590885
1.356                  0.9906655        7.175808
1.36                    0.995883        6.638997
1.364                   1.001385        5.960647
1.368                   1.006159        5.145381
1.372                   1.009302        4.220809
1.376                   1.010171        3.232583
1.38                      1.0085        2.237224
1.384                   1.004457         1.29366
1.388                  0.9986366        0.454086
1.392                  0.9919809       -0.245246
1.396                  0.9856395      -0.7921806
1.4                    0.9807722       -1.203878
1.404                  0.9783285       -1.526793
1.408                  0.9788464       -1.829829
1.412                  0.9823226       -2.191203
1.416                  0.9881907       -2.682245
1.42                   0.9954176       -3.352819
1.424                    1.00269         -4.2222
1.428                    1.00865       -5.276801
1.432                   1.012128       -6.473719
1.436                   1.012338       -7.748068
1.44                    1.009018        -9.02236
1.444                   1.002495       -10.21711
1.448                   0.993671       -11.26251
1.452                  0.9839211       -12.11103
1.456                  0.9748988       -12.74956
1.46                   0.9682564       -13.20818
1.464                  0.9653219       -13.56104
1.468                  0.9667976       -13.91593
1.472                  0.9725698       -14.39302
1.476                  0.9816893       -15.09894
1.48                   0.9925341       -16.10492
1.484                   1.003103       -17.43515
1.488                   1.011359       -19.06623
1.492                   1.015558       -20.93438
1.496                   1.014517       -22.94611
1.5                     1.007805       -24.98983
1.504                  0.9958575       -26.94815
1.508                  0.9799927       -28.71231
1.512                  0.9623266       -30.20084
1.516                  0.9455358       -31.38281
1.52                   0.9324561       -32.30167
1.524                  0.9255267       -33.08921
1.528                  0.9261918        -33.9563
1.532                  0.9344458       -35.15508
1.536                  0.9487084       -36.92507
1.54                   0.9660721       -39.44815
1.544                  0.9828045       -42.83037
1.548                  0.9949133       -47.11088
1.552                  0.9986311       -52.28577
