! TOUCHSTONE file generated by CST MICROWAVE STUDIO
! Date and time: Thu Jun  9 07:39:58 2022
! Project name: AppElm_antenne_patch_Alumina.cst
! Parameters = {L=30.5; W=39.71; e=0.035; h=1.6; lambda=0.190476; ls=90; w0=1.12; w1=0.373; ws=90; y0=14; y1=10}
! Header version: 2018
! Port assignment regex: !\s*Touchstone port\s*([0-9]+)\s*=\s*(CST MWS port|CST DS port)\s*([0-9]+|Zmin|Zmax)\s*\(\"(.*)\"\)(\s*mode\s*([0-9]+))?.*
! Touchstone port assignment:
! Touchstone port 1 = CST MWS port 1 ("")
# GHz S MA R 50
0                      0.9849839              -0
0.004                  0.9858475       -9.955149
0.008                  0.9883218       -19.81166
0.012                   0.992074       -29.47637
0.016                  0.9966074       -38.86598
0.02                    1.001333       -47.90994
0.024                   1.005655       -56.55132
0.028                   1.009048       -64.74651
0.032                   1.011123       -72.46408
0.036                   1.011673       -79.68351
0.04                    1.010693       -86.39432
0.044                   1.008375       -92.59571
0.048                   1.005081       -98.29679
0.052                    1.00129        -103.517
0.056                  0.9975357       -108.2864
0.06                   0.9943284       -112.6453
0.064                  0.9920856       -116.6422
0.068                  0.9910723       -120.3312
0.072                  0.9913653       -123.7675
0.076                  0.9928485        -127.003
0.08                   0.9952376       -130.0817
0.084                  0.9981307       -133.0372
0.088                   1.001075       -135.8907
0.092                   1.003632       -138.6516
0.096                   1.005447       -141.3192
0.1                      1.00629       -143.8855
0.104                   1.006086       -146.3386
0.108                   1.004917       -148.6658
0.112                   1.003007       -150.8575
0.116                    1.00068       -152.9092
0.12                   0.9983165       -154.8238
0.124                  0.9962855        -156.612
0.128                  0.9948939       -158.2918
0.132                  0.9943367       -159.8864
0.136                  0.9946707       -161.4213
0.14                   0.9958082       -162.9208
0.144                  0.9975368       -164.4046
0.148                  0.9995589        -165.886
0.152                   1.001541       -167.3701
0.156                   1.003169       -168.8541
0.16                    1.004198       -170.3289
0.164                   1.004483       -171.7809
0.168                   1.004004       -173.1947
0.172                   1.002862        -174.556
0.176                   1.001262       -175.8538
0.18                   0.9994751       -177.0828
0.184                  0.9977993       -178.2441
0.188                  0.9965065       -179.3454
0.192                  0.9958003        179.5998
0.196                   0.995783        178.5749
0.2                    0.9964406         177.562
0.204                  0.9976477        176.5457
0.208                  0.9991911        175.5146
0.212                   1.000807        174.4634
0.216                   1.002228        173.3933
0.22                    1.003224        172.3113
0.224                    1.00364        171.2289
0.228                   1.003419        170.1598
0.232                   1.002611        169.1178
0.236                   1.001361        168.1144
0.24                   0.9998842        167.1567
0.244                  0.9984316        166.2465
0.248                  0.9972469        165.3795
0.252                  0.9965253        164.5464
0.256                  0.9963817        163.7337
0.26                   0.9968316         162.927
0.264                  0.9977898        162.1124
0.268                  0.9990866        161.2796
0.272                   1.000498        160.4229
0.276                   1.001784        159.5426
0.28                     1.00273        158.6442
0.284                   1.003183        157.7375
0.288                   1.003071        156.8352
0.292                   1.002422        155.9499
0.296                    1.00135        155.0929
0.3                     1.000042        154.2718
0.304                  0.9987219        153.4894
0.308                  0.9976148        152.7428
0.312                  0.9969086        152.0244
0.316                  0.9967201        151.3226
0.32                   0.9970775        150.6244
0.324                   0.997914         149.917
0.328                  0.9990818        149.1904
0.332                   1.000378        148.4392
0.336                    1.00158         147.663
0.34                    1.002483        146.8666
0.344                   1.002936         146.059
0.348                   1.002865        145.2519
0.352                   1.002286        144.4575
0.356                   1.001301        143.6868
0.36                    1.000081        142.9472
0.364                  0.9988373         142.242
0.368                  0.9977839        141.5689
0.372                  0.9971024         140.921
0.376                  0.9969088        140.2876
0.38                   0.9972351        139.6564
0.384                  0.9980217         139.015
0.388                  0.9991304         138.354
0.392                   1.000368         137.668
0.396                   1.001519        136.9564
0.4                     1.002387        136.2238
0.404                   1.002823        135.4789
0.408                   1.002755        134.7329
0.412                   1.002194        133.9979
0.416                    1.00124        133.2845
0.42                    1.000058        132.6002
0.424                  0.9988536         131.948
0.428                  0.9978359         131.326
0.432                   0.997182        130.7273
0.436                  0.9970053        130.1417
0.44                   0.9973365        129.5568
0.444                  0.9981161        128.9609
0.448                  0.9992072        128.3446
0.452                   1.000419        127.7027
0.456                   1.001539        127.0349
0.46                    1.002375        126.3458
0.464                    1.00278        125.6441
0.468                   1.002685        124.9411
0.472                   1.002106        124.2487
0.476                   1.001144        123.5773
0.48                    0.999966        122.9343
0.484                  0.9987763        122.3226
0.488                  0.9977836        121.7399
0.492                  0.9971617        121.1793
0.496                  0.9970205        120.6303
0.5                    0.9973849        120.0806
0.504                  0.9981911        119.5186
0.508                  0.9992974        118.9351
0.512                   1.000509        118.3252
0.516                   1.001615        117.6888
0.52                    1.002422         117.031
0.524                   1.002787        116.3609
0.528                   1.002647        115.6898
0.532                   1.002025        115.0298
0.536                   1.001029        114.3913
0.54                   0.9998309        113.7814
0.544                  0.9986409        113.2026
0.548                  0.9976677        112.6522
0.552                  0.9970838        112.1229
0.556                  0.9969929        111.6037
0.56                   0.9974125        111.0821
0.564                  0.9982692        110.5466
0.568                  0.9994124         109.988
0.572                   1.000641        109.4018
0.576                   1.001739        108.7887
0.58                    1.002512        108.1541
0.584                   1.002825        107.5078
0.588                    1.00262        106.8615
0.592                   1.001931        106.2275
0.596                   1.000876        105.6161
0.6                    0.9996388        105.0342
0.604                  0.9984363        104.4838
0.608                  0.9974808        103.9615
0.612                  0.9969422        103.4593
0.616                  0.9969179        102.9655
0.62                   0.9974142        102.4674
0.624                  0.9983448        101.9531
0.628                  0.9995461        101.4138
0.632                   1.000807        100.8456
0.636                   1.001904        100.2497
0.64                    1.002643        99.63247
0.644                   1.002894        99.00426
0.648                   1.002608        98.37752
0.652                   1.001833         97.7648
0.656                   1.000703        97.17646
0.66                   0.9994146        96.61896
0.664                  0.9981941        96.09361
0.668                  0.9972585        95.59621
0.672                   0.996776        95.11774
0.676                  0.9968348        94.64589
0.68                   0.9974276        94.16725
0.684                  0.9984515        93.66985
0.688                  0.9997263         93.1452
0.692                   1.001027        92.58988
0.696                   1.002123        92.00607
0.7                     1.002819        91.40119
0.704                   1.002989        90.78647
0.708                   1.002601        90.17516
0.712                   1.001717        89.58013
0.716                   1.000489        89.01177
0.72                   0.9991315        88.47609
0.724                   0.997884        87.97356
0.728                  0.9969685        87.49891
0.732                  0.9965505        87.04197
0.736                  0.9967077        86.58943
0.74                   0.9974155        86.12729
0.744                  0.9985509        85.64334
0.748                  0.9999134        85.12941
0.752                   1.001262        84.58287
0.756                   1.002356        84.00701
0.76                    1.003001        83.41039
0.764                   1.003077        82.80545
0.768                   1.002567        82.20623
0.772                   1.001555        81.62612
0.776                   1.000214        81.07545
0.78                   0.9987798        80.55963
0.784                  0.9975054        80.07816
0.788                  0.9966196        79.62443
0.792                  0.9962839        79.18696
0.796                  0.9965627        78.75124
0.8                    0.9974109         78.3025
0.804                  0.9986808        77.82835
0.808                   1.000148        77.32106
0.812                   1.001553        76.77893
0.816                   1.002644        76.20656
0.82                    1.003225        75.61397
0.824                   1.003187        75.01491
0.828                   1.002531        74.42445
0.832                   1.001364        73.85651
0.836                  0.9998891        73.32131
0.84                   0.9983625        72.82362
0.844                  0.9970559        72.36168
0.848                  0.9962046        71.92735
0.852                   0.995965        71.50753
0.856                  0.9963855        71.08635
0.86                   0.9973962        70.64817
0.864                  0.9988205        70.18042
0.868                   1.000407        69.67589
0.872                   1.001872        69.13406
0.876                   1.002953        68.56104
0.88                    1.003454        67.96856
0.884                   1.003279         67.3719
0.888                   1.002449        66.78735
0.892                   1.001103        66.22936
0.896                  0.9994727        65.70804
0.9                    0.9978439        65.22729
0.904                  0.9965069        64.78386
0.908                  0.9957047        64.36779
0.912                   0.995587        63.96405
0.916                  0.9961821        63.55514
0.92                   0.9973903        63.12448
0.924                  0.9990006        62.65932
0.928                   1.000728        62.15313
0.932                   1.002265        61.60676
0.936                   1.003334        61.02819
0.94                     1.00374        60.43113
0.944                   1.003401        59.83274
0.948                   1.002366         59.2506
0.952                   1.000809        58.69984
0.956                  0.9989967        58.19039
0.96                   0.9972492        57.72509
0.964                   0.995879        57.29893
0.968                  0.9951366        56.89975
0.972                  0.9951634        56.51022
0.976                  0.9959635        56.11102
0.98                   0.9974013        55.68443
0.984                  0.9992246        55.21755
0.988                    1.00111        54.70474
0.992                    1.00272         54.1485
0.996                   1.003763        53.55906
1                       1.004044         52.9525
1.004                   1.003499        52.34811
1.008                   1.002212        51.76508
1.012                   1.000396        51.21931
1.016                  0.9983645        50.72043
1.02                   0.9964755        50.27001
1.024                  0.9950684        49.86087
1.028                   0.994403        49.47813
1.032                  0.9946092        49.10175
1.036                  0.9956612        48.71016
1.04                   0.9973796        48.28432
1.044                  0.9994632        47.81121
1.048                   1.001542        47.28624
1.052                   1.003242        46.71399
1.056                   1.004254        46.10734
1.06                    1.004385        45.48525
1.064                   1.003595         44.8696
1.068                   1.002005        44.28152
1.072                  0.9998812        43.73776
1.076                  0.9975904        43.24767
1.08                   0.9955374        42.81118
1.084                  0.9940945        42.41848
1.088                  0.9935314        42.05135
1.092                  0.9939637        41.68641
1.096                  0.9953285        41.29935
1.1                    0.9973924        40.86956
1.104                   0.999793        40.38391
1.108                   1.002103        39.83918
1.112                   1.003905         39.2425
1.116                   1.004868        38.61007
1.12                    1.004802         37.9644
1.124                   1.003694        37.33058
1.128                   1.001717        36.73215
1.132                  0.9991986        36.18699
1.136                   0.996574        35.70403
1.14                   0.9943082        35.28127
1.144                  0.9928142        34.90556
1.148                  0.9923754        34.55438
1.152                  0.9930897        34.20017
1.156                  0.9948471        33.81511
1.16                   0.9973461        33.37653
1.164                   1.000147        32.87126
1.168                    1.00275        32.29771
1.172                   1.004682        31.66622
1.176                   1.005584        30.99722
1.18                    1.005268         30.3177
1.184                   1.003758        29.65681
1.188                   1.001288        29.04119
1.192                   0.998269        28.49035
1.196                   0.995222        28.01278
1.2                    0.9926906        27.60387
1.204                   0.991142        27.24611
1.208                  0.9908783        26.91153
1.212                  0.9919747        26.56683
1.216                  0.9942594        26.17959
1.22                   0.9973418        25.72459
1.224                    1.00068        25.18822
1.228                   1.003677         24.5713
1.232                   1.005786         23.8883
1.236                   1.006607        23.16512
1.24                    1.005956        22.43473
1.244                     1.0039        21.73185
1.248                   1.000755        21.08741
1.252                  0.9970421        20.52318
1.256                  0.9934002        20.04735
1.26                   0.9904817        19.65212
1.264                  0.9888314        19.31405
1.268                  0.9887806        18.99758
1.272                  0.9903771        18.66156
1.276                  0.9933676        18.26702
1.28                   0.9972385        17.78482
1.284                   1.001307        17.20102
1.288                   1.004843        16.51917
1.292                   1.007192        15.75951
1.296                   1.007894        14.95538
1.3                     1.006763        14.14797
1.304                   1.003924        13.37995
1.308                  0.9998047        12.68867
1.312                  0.9950793        12.09958
1.316                  0.9905598         11.6209
1.32                   0.9870601        11.24048
1.324                  0.9852449        10.92646
1.328                  0.9854965        10.63204
1.332                  0.9878294        10.30406
1.336                  0.9918747        9.893492
1.34                     0.99694        9.364993
1.344                   1.002132        8.703478
1.348                   1.006514        7.916375
1.352                   1.009267        7.031901
1.356                   1.009827         6.09428
1.36                    1.007992        5.157018
1.364                   1.003957        4.275031
1.368                  0.9983133        3.496181
1.372                  0.9919626        2.852837
1.376                  0.9859887        2.354531
1.38                   0.9814719        1.983475
1.384                  0.9792869        1.694935
1.388                  0.9799199        1.423817
1.392                  0.9833528        1.096833
1.396                  0.9890442       0.6473392
1.4                    0.9960182      0.02867861
1.404                   1.003037      -0.7773777
1.408                   1.008815       -1.758355
1.412                   1.012238       -2.874134
1.416                   1.012544       -4.063576
1.42                    1.009462       -5.253135
1.424                    1.00327       -6.366714
1.428                  0.9947976       -7.336577
1.432                  0.9853297       -8.115131
1.436                  0.9764346       -8.686509
1.44                   0.9697078       -9.075229
1.444                  0.9664689       -9.347978
1.448                  0.9674723       -9.604992
1.452                  0.9727093        -9.96112
1.456                   0.981366       -10.52153
1.46                   0.9919531       -11.36005
1.464                   1.002568        -12.5065
1.468                   1.011216       -13.94448
1.472                   1.016134       -15.61703
1.476                   1.016051       -17.43623
1.48                    1.010399         -19.294
1.484                  0.9994345       -21.07354
1.488                  0.9842852       -22.66263
1.492                  0.9668945       -23.97085
1.496                  0.9498323       -24.95175
1.5                    0.9359404       -25.62728
1.504                  0.9278144       -26.10545
1.508                   0.927199       -26.57782
1.512                  0.9344744       -27.28806
1.516                  0.9484279       -28.47949
1.52                   0.9664037       -30.34493
1.524                  0.9847477       -33.00062
1.528                   0.999362       -36.48862
1.532                   1.006209       -40.79721
1.536                   1.001689        -45.8863
1.54                   0.9828843       -51.70984
1.544                  0.9477139       -58.23419
1.548                  0.8950165         -65.455
1.552                  0.8246035       -73.41915
