! TOUCHSTONE file generated by CST MICROWAVE STUDIO
! Date and time: Thu Jun  9 07:40:04 2022
! Project name: AppElm_antenne_patch_Alumina.cst
! Parameters = {L=30.5; W=52.25; e=0.035; h=1.6; lambda=0.190476; ls=90; w0=1.12; w1=0.373; ws=90; y0=14; y1=10}
! Header version: 2018
! Port assignment regex: !\s*Touchstone port\s*([0-9]+)\s*=\s*(CST MWS port|CST DS port)\s*([0-9]+|Zmin|Zmax)\s*\(\"(.*)\"\)(\s*mode\s*([0-9]+))?.*
! Touchstone port assignment:
! Touchstone port 1 = CST MWS port 1 ("")
# GHz S MA R 50
0                       0.958537              -0
0.004                  0.9609604       -12.48557
0.008                  0.9678654       -24.77827
0.012                  0.9782298       -36.70533
0.016                  0.9905688       -48.12768
0.02                    1.003193       -58.94419
0.024                   1.014472       -69.08775
0.028                   1.023047       -78.51746
0.032                    1.02799        -87.2101
0.036                   1.028892       -95.15405
0.04                     1.02588       -102.3462
0.044                    1.01959       -108.7924
0.048                   1.011071       -114.5106
0.052                   1.001649       -119.5356
0.056                  0.9927372       -123.9243
0.06                   0.9856277       -127.7574
0.064                  0.9812878       -131.1371
0.068                  0.9802051        -134.178
0.072                  0.9823183       -136.9936
0.076                  0.9870529       -139.6826
0.08                   0.9934528       -142.3169
0.084                   1.000367       -144.9367
0.088                   1.006655       -147.5515
0.092                   1.011361       -150.1451
0.096                   1.013847       -152.6835
0.1                      1.01386        -155.124
0.104                   1.011552        -157.423
0.108                   1.007429        -159.544
0.112                   1.002266       -161.4641
0.116                  0.9969745        -163.179
0.12                   0.9924537       -164.7048
0.124                  0.9894374       -166.0771
0.128                  0.9883717       -167.3459
0.132                  0.9893442       -168.5664
0.136                  0.9920837       -169.7901
0.14                   0.9960256       -171.0557
0.144                   1.000429        -172.384
0.148                   1.004515       -173.7758
0.152                   1.007603        -175.215
0.156                   1.009214       -176.6719
0.16                     1.00914       -178.1104
0.164                   1.007465       -179.4932
0.168                   1.004537         179.211
0.172                   1.000909        178.0232
0.176                  0.9972359        176.9501
0.18                   0.9941618        175.9826
0.184                   0.992209        175.0969
0.188                  0.9916855        174.2591
0.192                  0.9926342        173.4311
0.196                  0.9948343        172.5781
0.2                      0.99785        171.6743
0.204                    1.00112        170.7074
0.208                   1.004059        169.6796
0.212                   1.006165        168.6061
0.216                   1.007098        167.5116
0.22                    1.006732        166.4259
0.224                   1.005168        165.3785
0.228                   1.002715        164.3938
0.232                   0.999826        163.4871
0.236                  0.9970246        162.6618
0.24                   0.9948077        161.9085
0.244                  0.9935577        161.2069
0.248                  0.9934754        160.5294
0.252                  0.9945459        159.8461
0.256                  0.9965474        159.1309
0.26                   0.9990969        158.3657
0.264                   1.001725        157.5435
0.268                   1.003964        156.6692
0.272                   1.005427        155.7577
0.276                   1.005874        154.8314
0.28                     1.00525        153.9156
0.284                   1.003687        153.0345
0.288                   1.001482         152.207
0.292                  0.9990392        151.4435
0.296                  0.9967998         150.744
0.3                    0.9951626        150.0981
0.304                  0.9944122        149.4866
0.308                  0.9946681        148.8852
0.312                   0.995865        148.2692
0.316                  0.9977685        147.6181
0.32                    1.000022         146.919
0.324                   1.002215        146.1692
0.328                   1.003957        145.3756
0.332                   1.004945        144.5536
0.336                   1.005019        143.7236
0.34                    1.004179        142.9083
0.344                   1.002589        142.1276
0.348                   1.000544        141.3963
0.352                  0.9984161        140.7209
0.356                  0.9965899        140.0983
0.36                   0.9953912        139.5168
0.364                  0.9950293        138.9576
0.368                  0.9955583        138.3988
0.372                  0.9968696        137.8194
0.376                  0.9987145        137.2028
0.38                    1.000752        136.5406
0.384                   1.002614        135.8331
0.388                   1.003969        135.0891
0.392                   1.004581        134.3245
0.396                   1.004351        133.5586
0.4                      1.00333        132.8116
0.404                   1.001709        132.1005
0.408                  0.9997837        131.4363
0.412                  0.9979044        130.8222
0.416                    0.99641        130.2527
0.42                   0.9955676        129.7148
0.424                  0.9955238        129.1899
0.428                  0.9962783        128.6578
0.432                  0.9976853        128.1004
0.436                  0.9994826        127.5047
0.44                    1.001341        126.8656
0.444                   1.002925        126.1861
0.448                   1.003954        125.4767
0.452                   1.004247        124.7536
0.456                    1.00376        124.0355
0.46                    1.002584        123.3404
0.464                   1.000938        122.6825
0.468                  0.9991178        122.0699
0.472                  0.9974553        121.5027
0.476                  0.9962499        120.9733
0.48                   0.9957177        120.4674
0.484                  0.9959508        119.9668
0.488                  0.9969011        119.4527
0.492                  0.9983904        118.9094
0.496                   1.000144        118.3272
0.5                     1.001843        117.7037
0.504                   1.003181        117.0443
0.508                   1.003921        116.3612
0.512                   1.003933        115.6708
0.516                    1.00322         114.991
0.52                    1.001913         114.338
0.524                   1.000249        113.7237
0.528                  0.9985301        113.1531
0.532                  0.9970672         112.624
0.536                   0.996125        112.1264
0.54                   0.9958727        111.6452
0.544                  0.9963531        111.1625
0.548                   0.997475        110.6608
0.552                  0.9990308        110.1268
0.556                   1.000736        109.5534
0.56                    1.002281        108.9409
0.564                   1.003389        108.2971
0.568                   1.003862        107.6353
0.572                   1.003618        106.9722
0.576                   1.002702         106.325
0.58                    1.001281        105.7081
0.584                  0.9996111         105.131
0.588                   0.997995        104.5963
0.592                  0.9967256         104.099
0.596                  0.9960326        103.6276
0.6                    0.9960413        103.1659
0.604                  0.9967481        102.6963
0.608                   0.998022         102.203
0.612                  0.9996294        101.6746
0.616                   1.001278        101.1067
0.62                    1.002668        100.5022
0.624                   1.003552        99.87079
0.628                    1.00377        99.22698
0.632                   1.003284        98.58764
0.636                   1.002182        97.96907
0.64                    1.000661        97.38414
0.644                  0.9989966        96.83992
0.648                  0.9974887        96.33645
0.652                  0.9964113         95.8665
0.656                    0.99596         95.4168
0.66                    0.996217        94.97054
0.664                  0.9971339        94.51046
0.668                  0.9985431         94.0221
0.672                   1.000187        93.49645
0.676                   1.001768        92.93155
0.68                       1.003        92.33269
0.684                    1.00366        91.71136
0.688                    1.00363        91.08315
0.692                   1.002914        90.46499
0.696                    1.00164        89.87231
0.7                     1.000036        89.31621
0.704                  0.9983893        88.80148
0.708                  0.9969991        88.32564
0.712                  0.9961182        87.87926
0.716                  0.9959071        87.44751
0.72                   0.9964049        87.01303
0.724                   0.997521        86.55905
0.728                  0.9990518        86.07269
0.732                   1.000719        85.54713
0.736                   1.002221        84.98288
0.74                    1.003286        84.38752
0.744                   1.003721        83.77429
0.748                   1.003447        83.15969
0.752                    1.00251        82.56063
0.756                   1.001076        81.99154
0.76                   0.9994017        81.46171
0.764                  0.9977883        80.97359
0.768                  0.9965284        80.52226
0.772                  0.9958521        80.09605
0.776                  0.9958843        79.67876
0.78                   0.9966204        79.25257
0.784                  0.9979276         78.8014
0.788                   0.999569        78.31398
0.792                   1.001247        77.78573
0.796                   1.002658        77.21967
0.8                     1.003547        76.62561
0.804                   1.003751        76.01842
0.808                   1.003232        75.41546
0.812                   1.002077         74.8335
0.816                   1.000492        74.28583
0.82                   0.9987588        73.77988
0.824                  0.9971898        73.31571
0.828                  0.9960701        72.88588
0.832                  0.9956053        72.47668
0.836                  0.9958824        72.07048
0.84                   0.9968534        71.64921
0.844                   0.998343         71.1976
0.848                   1.000082        70.70609
0.852                   1.001755        70.17244
0.856                    1.00306        69.60214
0.86                     1.00376        69.00721
0.864                   1.003724        68.40419
0.868                   1.002954        67.81111
0.872                   1.001583         67.2445
0.876                  0.9998517        66.71645
0.88                   0.9980697        66.23237
0.884                  0.9965581        65.78987
0.888                  0.9955925        65.37896
0.892                  0.9953514        64.98379
0.896                  0.9958824        64.58553
0.9                    0.9970921        64.16587
0.904                  0.9987632        63.71046
0.908                   1.000594        63.21158
0.912                   1.002254        62.66945
0.916                   1.003441        62.09206
0.92                    1.003939         61.4937
0.924                   1.003653        60.89243
0.928                   1.002625        60.30702
0.932                   1.001034         59.7537
0.936                  0.9991595        59.24318
0.94                   0.9973348        58.77881
0.944                  0.9958901        58.35559
0.948                  0.9950897        57.96093
0.952                  0.9950834        57.57686
0.956                  0.9958771        57.18328
0.96                   0.9973306        56.76176
0.964                  0.9991833        56.29902
0.968                   1.001101        55.78928
0.972                   1.002737        55.23525
0.976                   1.003794        54.64759
0.98                    1.004076        54.04283
0.984                   1.003524         53.4407
0.988                   1.002227        52.86064
0.992                   1.000408        52.31845
0.996                  0.9983867        51.82352
1                      0.9965235         51.3769
1.004                  0.9951564        50.97085
1.008                  0.9945374        50.59006
1.012                  0.9947855        50.21426
1.016                  0.9958621        49.82209
1.02                   0.9975777        49.39501
1.024                  0.9996256        48.92084
1.028                   1.001638        48.39588
1.032                    1.00325        47.82551
1.036                   1.004168        47.22313
1.04                    1.004219        46.60777
1.044                   1.003382        46.00088
1.048                   1.001793        45.42265
1.052                  0.9997246         44.8886
1.056                  0.9975395        44.40662
1.06                    0.995628        43.97539
1.064                  0.9943371        43.58425
1.068                   0.993907        43.21487
1.072                  0.9944241        42.84458
1.076                  0.9958033        42.45049
1.08                   0.9978016        42.01392
1.084                   1.000062        41.52381
1.088                   1.002178        40.97865
1.092                   1.003767        40.38665
1.096                   1.004535        39.76422
1.1                     1.004332         39.1331
1.104                   1.003177        38.51676
1.108                   1.001259        37.93638
1.112                  0.9989038        37.40724
1.116                  0.9965247         36.9358
1.12                   0.9945462        36.51816
1.124                  0.9933299        36.14039
1.128                  0.9931053        35.78075
1.132                  0.9939254        35.41367
1.136                  0.9956533        35.01443
1.14                   0.9979863        34.56394
1.144                   1.000509        34.05211
1.148                    1.00277        33.47983
1.152                   1.004356        32.85839
1.156                   1.004974        32.20761
1.16                    1.004492        31.55246
1.164                   1.002973        30.91897
1.168                   1.000662        30.32983
1.172                  0.9979499        29.80041
1.176                  0.9953102        29.33582
1.18                   0.9932137        28.92939
1.184                  0.9920454        28.56351
1.188                  0.9920302         28.2123
1.192                  0.9931873        27.84651
1.196                  0.9953236        27.43883
1.2                    0.9980657        26.96921
1.204                   1.000927        26.42845
1.208                   1.003393        25.81971
1.212                   1.005014         25.1579
1.216                    1.00548        24.46693
1.22                    1.004678        23.77588
1.224                   1.002716        23.11428
1.228                  0.9999041        22.50721
1.232                  0.9967155        21.97077
1.236                  0.9937028        21.50897
1.24                   0.9914053        21.11219
1.244                  0.9902489        20.75816
1.248                   0.990465        20.41562
1.252                  0.9920409        20.05009
1.256                  0.9947167        19.63025
1.26                   0.9980298        19.13405
1.264                   1.001396        18.55255
1.268                    1.00421        17.89143
1.272                   1.005956         17.1698
1.276                   1.006291        16.41697
1.28                    1.005107        15.66776
1.284                   1.002557        14.95704
1.288                  0.9990365        14.31407
1.292                   0.995125        13.75725
1.296                  0.9914945        13.29019
1.3                    0.9887933        12.89997
1.304                   0.987527        12.55836
1.308                  0.9879586        12.22636
1.312                  0.9900508        11.86133
1.316                  0.9934639         11.4251
1.32                   0.9976121        10.89127
1.324                   1.001765        10.24996
1.328                   1.005175        9.509276
1.332                   1.007205        8.693747
1.336                   1.007436        7.840252
1.34                    1.005741        6.992411
1.344                    1.00232        6.194031
1.348                  0.9976769        5.482189
1.352                  0.9925531        4.880618
1.356                  0.9878149        4.394346
1.36                   0.9843064        4.006898
1.364                  0.9826942        3.681359
1.368                  0.9833319        3.365957
1.372                  0.9861776        3.003483
1.376                  0.9907861        2.542378
1.38                   0.9963788        1.946669
1.384                   1.001977        1.202409
1.388                   1.006566       0.3196501
1.392                   1.009269      -0.6696515
1.396                   1.009485       -1.716683
1.4                     1.007003       -2.762691
1.404                   1.002045       -3.747069
1.408                   0.995267       -4.616246
1.412                  0.9876787       -5.332957
1.416                  0.9805098       -5.884891
1.42                   0.9750109       -6.290774
1.424                   0.972225       -6.601284
1.428                  0.9727695       -6.892717
1.432                  0.9766842       -7.253489
1.436                  0.9833877       -7.766623
1.44                   0.9917584       -8.493331
1.444                   1.000319       -9.462123
1.448                   1.007479       -10.66522
1.452                   1.011786       -12.06125
1.456                   1.012148       -13.58177
1.46                    1.008016       -15.13983
1.464                  0.9994945       -16.63956
1.468                  0.9873939       -17.98742
1.472                  0.9731966       -19.10614
1.476                  0.9589188       -19.95169
1.48                   0.9468485       -20.53164
1.484                  0.9391582       -20.91906
1.488                  0.9374427       -21.25333
1.492                  0.9422918       -21.72118
1.496                  0.9530389       -22.52052
1.5                    0.9677763       -23.82055
1.504                  0.9836196       -25.73432
1.508                  0.9971126        -28.3112
1.512                   1.004645       -31.54551
1.516                   1.002805       -35.39249
1.52                   0.9886303       -39.78365
1.524                  0.9597765       -44.63785
1.528                  0.9146168       -49.86686
1.532                  0.8522911       -55.37533
1.536                  0.7727213       -61.05382
1.54                   0.6766042       -66.76018
1.544                  0.5653949        -72.2723
1.548                  0.4413223       -77.15093
1.552                  0.3076149       -80.22572
