! TOUCHSTONE file generated by CST MICROWAVE STUDIO
! Date and time: Thu Jun  9 15:16:39 2022
! Project name: AppElm_antenne_patch_Alumina.cst
! Parameters = {L=30.5; W=41.8; e=0.035; h=1.6; lambda=0.190476; ls=90; w0=1.12; w1=0.373; ws=90; y0=14; y1=8.5}
! Header version: 2018
! Port assignment regex: !\s*Touchstone port\s*([0-9]+)\s*=\s*(CST MWS port|CST DS port)\s*([0-9]+|Zmin|Zmax)\s*\(\"(.*)\"\)(\s*mode\s*([0-9]+))?.*
! Touchstone port assignment:
! Touchstone port 1 = CST MWS port 1 ("")
# GHz S MA R 50
0                      0.9782441              -0
0.004                   0.979411        -10.3181
0.008                  0.9827612         -20.527
0.012                  0.9878657        -30.5244
0.016                  0.9940815       -40.22031
0.02                    1.000644       -49.54012
0.024                   1.006771       -58.42523
0.028                   1.011759       -66.83174
0.032                   1.015065       -74.72853
0.036                   1.016369       -82.09493
0.04                    1.015596       -88.91944
0.044                   1.012926        -95.1991
0.048                   1.008768         -100.94
0.052                   1.003706       -106.1586
0.056                  0.9984261       -110.8826
0.06                   0.9936317       -115.1524
0.064                  0.9899439         -119.02
0.068                  0.9878168       -122.5468
0.072                  0.9874733        -125.799
0.076                  0.9888759       -128.8416
0.08                    0.991739       -131.7327
0.084                  0.9955811       -134.5179
0.088                  0.9998024       -137.2276
0.092                   1.003777       -139.8761
0.096                   1.006945       -142.4631
0.1                     1.008884       -144.9769
0.104                   1.009367       -147.3982
0.108                    1.00838       -149.7047
0.112                   1.006124       -151.8755
0.116                    1.00298        -153.895
0.12                   0.9994527       -155.7567
0.124                  0.9960941       -157.4651
0.128                  0.9934211       -159.0362
0.132                  0.9918339       -160.4967
0.136                  0.9915538       -161.8798
0.14                   0.9925902       -163.2212
0.144                  0.9947419       -164.5531
0.148                  0.9976358       -165.9003
0.152                   1.000791       -167.2765
0.156                     1.0037       -168.6832
0.16                    1.005909       -170.1109
0.164                   1.007083        -171.541
0.168                    1.00706       -172.9499
0.172                   1.005867       -174.3121
0.176                   1.003718       -175.6052
0.18                    1.000974       -176.8129
0.184                  0.9980907       -177.9283
0.188                  0.9955426       -178.9551
0.192                  0.9937463       -179.9077
0.196                  0.9929904        179.1908
0.2                    0.9933868        178.3127
0.204                  0.9948534        177.4299
0.208                  0.9971296        176.5189
0.212                  0.9998236        175.5647
0.216                   1.002482        174.5627
0.22                    1.004663         173.519
0.224                   1.006014        172.4488
0.228                   1.006321         171.374
0.232                   1.005545        170.3189
0.236                   1.003824        169.3068
0.24                    1.001453        168.3561
0.244                  0.9988353         167.477
0.248                  0.9964139        166.6698
0.252                  0.9946001        165.9246
0.256                  0.9936998        165.2223
0.26                   0.9938623        164.5382
0.264                   0.995052        163.8464
0.268                  0.9970576        163.1238
0.272                  0.9995287         162.355
0.276                    1.00204         161.534
0.28                    1.004165        160.6653
0.284                   1.005545        159.7625
0.288                   1.005953        158.8461
0.292                   1.005324        157.9399
0.296                   1.003769        157.0669
0.3                     1.001556         156.246
0.304                  0.9990652        155.4885
0.308                  0.9967253        154.7959
0.312                  0.9949409        154.1598
0.316                   0.994021        153.5626
0.32                   0.9941244        152.9808
0.324                  0.9952296        152.3892
0.328                  0.9971405        151.7654
0.332                  0.9995211        151.0937
0.336                   1.001957        150.3681
0.34                    1.004026        149.5927
0.344                   1.005376        148.7808
0.348                   1.005776        147.9525
0.352                    1.00516        147.1313
0.356                   1.003635        146.3401
0.36                    1.001465        145.5979
0.364                  0.9990243        144.9157
0.368                  0.9967386        144.2954
0.372                  0.9950079        143.7284
0.376                  0.9941374        143.1974
0.38                   0.9942807        142.6789
0.384                  0.9954116         142.148
0.388                  0.9973299        141.5827
0.392                  0.9996969        140.9678
0.396                   1.002097        140.2977
0.4                     1.004113         139.577
0.404                   1.005394        138.8194
0.408                    1.00572        138.0455
0.412                   1.005034        137.2789
0.416                   1.003454        136.5426
0.42                    1.001253         135.855
0.424                  0.9988147        135.2268
0.428                  0.9965661         134.659
0.432                  0.9949047        134.1424
0.436                  0.9941264        133.6588
0.44                   0.9943703        133.1845
0.444                  0.9955942        132.6943
0.448                  0.9975806        132.1667
0.452                  0.9999776        131.5873
0.456                   1.002362        130.9514
0.46                    1.004316        130.2648
0.464                   1.005497        129.5423
0.468                   1.005699        128.8051
0.472                   1.004886        128.0775
0.476                   1.003195        127.3822
0.48                    1.000921        126.7372
0.484                  0.9984612        126.1523
0.488                  0.9962494        125.6273
0.492                  0.9946799        125.1513
0.496                  0.9940345        124.7052
0.5                    0.9944315        124.2642
0.504                  0.9958016        123.8031
0.508                   0.997902        123.3008
0.512                   1.000359        122.7439
0.516                   1.002739        122.1293
0.52                    1.004622        121.4642
0.524                   1.005676         120.765
0.528                   1.005716        120.0541
0.532                   1.004732        119.3562
0.536                   1.002891        118.6941
0.54                    1.000515         118.085
0.544                  0.9980215        117.5375
0.548                  0.9958518        117.0494
0.552                  0.9943953        116.6083
0.556                   0.993916        116.1932
0.56                   0.9945035        115.7786
0.564                  0.9960551        115.3388
0.568                  0.9982945        114.8532
0.572                   1.000823        114.3101
0.576                   1.003192        113.7081
0.58                    1.004982        113.0564
0.584                   1.005875        112.3733
0.588                   1.005713        111.6823
0.592                   1.004518        111.0089
0.596                   1.002496        110.3758
0.6                    0.9999993        109.7992
0.604                   0.997468         109.286
0.608                  0.9953536        108.8319
0.612                  0.9940375        108.4223
0.616                  0.9937604        108.0342
0.62                   0.9945768        107.6409
0.624                  0.9963431        107.2167
0.628                  0.9987447        106.7417
0.632                   1.001353        106.2059
0.636                   1.003705        105.6101
0.64                    1.005382         104.966
0.644                   1.006086        104.2938
0.648                   1.005689        103.6185
0.652                   1.004255        102.9664
0.656                   1.002032        102.3597
0.66                   0.9994071        101.8135
0.664                  0.9968465        101.3326
0.668                  0.9948095        100.9103
0.672                   0.993666        100.5293
0.676                  0.9936276        100.1645
0.68                   0.9947068        99.78806
0.684                  0.9967131        99.37414
0.688                  0.9992884        98.90418
0.692                   1.001973        98.37001
0.696                   1.004287        97.77515
0.7                      1.00582        97.13391
0.704                   1.006297         96.4687
0.708                   1.005626        95.80632
0.712                    1.00392        95.17334
0.716                   1.001472        94.59174
0.72                   0.9987129        94.07501
0.724                  0.9961321        93.62551
0.728                  0.9941951        93.23364
0.732                  0.9932565        92.87916
0.736                  0.9934922        92.53484
0.74                   0.9948659        92.17146
0.744                  0.9971338        91.76348
0.748                  0.9998906        91.29372
0.752                   1.002643         90.7565
0.756                     1.0049        90.15826
0.76                    1.006258        89.51625
0.764                   1.006471        88.85533
0.768                   1.005495         88.2039
0.772                   1.003492        87.58902
0.776                    1.00081        87.03192
0.78                   0.9979217        86.54423
0.784                  0.9953426        86.12547
0.788                   0.993541        85.76271
0.792                  0.9928497        85.43259
0.796                  0.9934018        85.10544
0.8                    0.9951047        84.75098
0.804                  0.9976557        84.34408
0.808                   1.000598        83.86943
0.812                   1.003405        83.32421
0.816                   1.005576        82.71815
0.82                    1.006719        82.07174
0.824                   1.006626        81.41248
0.828                   1.005302         80.7703
0.832                   1.002973        80.17266
0.836                   1.000041         79.6398
0.84                   0.9970249        79.18103
0.844                  0.9944661        78.79259
0.848                  0.9928317        78.45787
0.852                  0.9924258        78.15005
0.856                  0.9933317        77.83697
0.86                   0.9953923        77.48743
0.864                  0.9982401        77.07704
0.868                   1.001364        76.59277
0.872                   1.004205        76.03507
0.876                   1.006253        75.41737
0.88                    1.007137        74.76368
0.884                   1.006692         74.1042
0.888                   1.004984        73.47047
0.892                   1.002301        72.89006
0.896                  0.9991124        72.38193
0.9                    0.9959828        71.95258
0.904                  0.9934775        71.59452
0.908                  0.9920575        71.28694
0.912                  0.9919916        70.99928
0.916                  0.9933029        70.69689
0.92                   0.9957622        70.34779
0.924                  0.9989303        69.92873
0.928                   1.002239         69.4294
0.932                   1.005096        68.85405
0.936                   1.006986        68.22025
0.94                    1.007567        67.55574
0.944                   1.006723        66.89364
0.948                   1.004587        66.26702
0.952                   1.001524        65.70345
0.956                  0.9980683        65.22012
0.96                   0.9948366        64.82033
0.964                  0.9924161        64.49224
0.968                  0.9912559        64.21041
0.972                  0.9915808        63.94022
0.976                  0.9933442         63.6445
0.98                   0.9962355         63.2907
0.984                  0.9997371        62.85715
0.988                    1.00322        62.33686
0.992                    1.00606        61.73838
0.996                   1.007743        61.08384
1                       1.007958        60.40508
1.004                   1.006651        59.73826
1.008                   1.004032        59.11799
1.012                   1.000549        58.57159
1.016                  0.9968125        58.11407
1.02                   0.9934911        57.74493
1.024                  0.9911927         57.4473
1.028                  0.9903491        57.19049
1.032                  0.9911306         56.9355
1.036                  0.9934099        56.64251
1.04                   0.9967835        56.27869
1.044                   1.000647        55.82443
1.048                   1.004308        55.27659
1.052                   1.007107        54.64865
1.056                   1.008536        53.96788
1.06                    1.008327        53.27057
1.064                   1.006493        52.59615
1.068                   1.003335        51.98084
1.072                   0.999394        51.45145
1.076                  0.9953631         51.0204
1.08                   0.9919693        50.68258
1.084                  0.9898386        50.41541
1.088                  0.9893788        50.18223
1.092                  0.9906944        49.93913
1.096                  0.9935632        49.64358
1.1                    0.9974758        49.26275
1.104                   1.001731        48.77961
1.108                   1.005565        48.19565
1.112                   1.008286        47.52997
1.116                   1.009395        46.81561
1.12                    1.008672        46.09396
1.124                   1.006214        45.40809
1.128                   1.002425        44.79589
1.132                  0.9979537        44.28357
1.136                  0.9935891        43.88032
1.14                    0.990122        43.57569
1.144                  0.9881993        43.34024
1.148                  0.9881965        43.13036
1.152                  0.9901396        42.89664
1.156                  0.9936945         42.5934
1.16                   0.9982287         42.1881
1.164                   1.002929         41.6669
1.168                    1.00695        41.03664
1.172                   1.009565        40.32305
1.176                   1.010287        39.56582
1.18                    1.008953        38.81223
1.184                   1.005759        38.10954
1.188                   1.001231        37.49775
1.192                  0.9961442        37.00221
1.196                  0.9914019        36.62835
1.2                    0.9878713        36.35924
1.204                  0.9862219        36.15718
1.208                  0.9867903        35.97009
1.212                  0.9895064        35.74185
1.216                  0.9939007        35.42335
1.22                   0.9991918        34.98228
1.224                   1.004432        34.40879
1.228                   1.008679        33.71618
1.232                    1.01116        32.93814
1.236                   1.011401        32.12231
1.24                    1.009309        31.32312
1.244                   1.005196        30.59328
1.248                  0.9997363        29.97542
1.252                  0.9938652        29.49438
1.256                  0.9886278         29.1511
1.26                   0.9849916         28.9206
1.264                  0.9836592        28.75476
1.268                  0.9849227        28.59086
1.272                  0.9885941        28.36402
1.276                  0.9940356        28.02054
1.28                    1.000279        27.52841
1.284                   1.006204        26.88241
1.288                   1.010741        26.10388
1.292                   1.013054        25.23617
1.296                   1.012678        24.33714
1.3                       1.0096        23.47053
1.304                   1.004276        22.69646
1.308                   0.997569        22.06185
1.312                  0.9906265        21.59144
1.316                  0.9846896        21.28104
1.32                   0.9808704        21.09528
1.324                    0.97993        20.97193
1.328                  0.9821126        20.83327
1.332                  0.9870808        20.60205
1.336                  0.9939729        20.21757
1.34                    1.001565        19.64737
1.344                   1.008496        18.89192
1.348                   1.013511        17.98277
1.352                   1.015665        16.97606
1.356                   1.014483        15.94351
1.36                    1.010042        14.96225
1.364                   1.002979        14.10391
1.368                  0.9944173        13.42326
1.372                  0.9858083        12.94709
1.376                  0.9786963        12.66555
1.38                   0.9744349        12.52915
1.384                  0.9739084        12.45476
1.388                  0.9773255        12.34117
1.392                  0.9841523         12.0907
1.396                  0.9932044        11.63006
1.4                     1.002871        10.92406
1.404                   1.011411        9.979746
1.408                   1.017252        8.842275
1.412                   1.019239        7.585994
1.416                   1.016825        6.303405
1.42                    1.010166        5.093374
1.424                   1.000138        4.048384
1.428                  0.9882542         3.24028
1.432                  0.9764701        2.704899
1.436                   0.966883        2.428286
1.44                   0.9613441        2.340068
1.444                  0.9610574        2.320333
1.448                  0.9662756        2.222373
1.452                  0.9761975        1.905613
1.456                  0.9891055        1.266735
1.46                    1.002694        0.258368
1.464                   1.014484       -1.107706
1.468                   1.022228       -2.768619
1.472                   1.024241       -4.623328
1.476                   1.019648       -6.545901
1.48                    1.008534       -8.398098
1.484                  0.9920115       -10.04294
1.488                  0.9721862        -11.3624
1.492                  0.9519753       -12.28203
1.496                  0.9347404       -12.80117
1.5                    0.9237051       -13.01958
1.504                   0.921226       -13.14241
1.508                  0.9281199       -13.44797
1.512                  0.9433192       -14.22325
1.516                  0.9640094       -15.69753
1.52                   0.9861598       -18.00585
1.524                   1.005201       -21.19078
1.528                   1.016629       -25.22817
1.532                   1.016434       -30.05823
1.536                   1.001371       -35.61139
1.54                   0.9691019       -41.82693
1.544                  0.9182611       -48.66744
1.548                  0.8484789       -56.13451
1.552                  0.7603814       -64.29497
