! TOUCHSTONE file generated by CST MICROWAVE STUDIO
! Date and time: Thu Jun  9 15:16:47 2022
! Project name: AppElm_antenne_patch_Alumina.cst
! Parameters = {L=30.5; W=41.8; e=0.035; h=1.6; lambda=0.190476; ls=90; w0=1.12; w1=0.373; ws=90; y0=14; y1=12.5}
! Header version: 2018
! Port assignment regex: !\s*Touchstone port\s*([0-9]+)\s*=\s*(CST MWS port|CST DS port)\s*([0-9]+|Zmin|Zmax)\s*\(\"(.*)\"\)(\s*mode\s*([0-9]+))?.*
! Touchstone port assignment:
! Touchstone port 1 = CST MWS port 1 ("")
# GHz S MA R 50
0                      0.9811231              -0
0.004                  0.9821926       -10.44551
0.008                  0.9852547       -20.78004
0.012                  0.9898955       -30.89947
0.016                  0.9954968       -40.71203
0.02                    1.001331       -50.14141
0.024                   1.006664       -59.12749
0.028                   1.010853       -67.62539
0.032                   1.013425       -75.60356
0.036                   1.014129       -83.04204
0.04                    1.012964       -89.93105
0.044                   1.010167       -96.27079
0.048                   1.006179       -102.0718
0.052                   1.001589       -107.3561
0.056                  0.9970459       -112.1573
0.06                   0.9931749       -116.5211
0.064                  0.9904831       -120.5033
0.068                  0.9892904       -124.1662
0.072                   0.989684       -127.5734
0.076                   0.991514       -130.7844
0.08                   0.9944263       -133.8492
0.084                   0.997926       -136.8045
0.088                    1.00146       -139.6723
0.092                   1.004501       -142.4603
0.096                   1.006627       -145.1646
0.1                     1.007569       -147.7727
0.104                    1.00725        -150.268
0.108                   1.005782       -152.6335
0.112                   1.003444       -154.8561
0.116                   1.000638       -156.9294
0.12                   0.9978212       -158.8562
0.124                   0.995439       -160.6486
0.128                  0.9938522       -162.3281
0.132                  0.9932834       -163.9218
0.136                  0.9937834       -165.4596
0.14                     0.99523       -166.9698
0.144                  0.9973526       -168.4746
0.148                   0.999783       -169.9882
0.152                   1.002119       -171.5148
0.156                   1.003989       -173.0493
0.16                    1.005111       -174.5794
0.164                    1.00533       -176.0877
0.168                   1.004641       -177.5552
0.172                   1.003185       -178.9646
0.176                   1.001221        179.6968
0.18                   0.9990838        178.4349
0.184                  0.9971311        177.2475
0.188                  0.9956814        176.1246
0.192                  0.9949635        175.0495
0.196                  0.9950789        174.0018
0.2                    0.9959877        172.9608
0.204                  0.9975183        171.9084
0.208                  0.9993997        170.8325
0.212                    1.00131        169.7284
0.216                   1.002931         168.599
0.22                    1.003999        167.4543
0.224                   1.004351        166.3087
0.228                   1.003943        165.1792
0.232                   1.002857        164.0823
0.236                   1.001287        163.0309
0.24                   0.9995061        162.0326
0.244                  0.9978169        161.0881
0.248                  0.9965045        160.1911
0.252                  0.9957866        159.3292
0.256                  0.9957765        158.4859
0.26                   0.9964653        157.6436
0.264                  0.9977251        156.7866
0.268                  0.9993321        155.9035
0.272                   1.001008        154.9895
0.276                   1.002467        154.0464
0.28                    1.003466        153.0824
0.284                   1.003841        152.1106
0.288                   1.003538        151.1461
0.292                   1.002615        150.2044
0.296                   1.001237         149.298
0.3                     0.999642        148.4347
0.304                  0.9981065        147.6163
0.308                  0.9968933        146.8377
0.312                  0.9962094        146.0884
0.316                  0.9961681        145.3536
0.32                   0.9967713        144.6175
0.324                  0.9979083        143.8654
0.328                  0.9993784        143.0867
0.332                   1.000924        142.2766
0.336                    1.00228        141.4366
0.34                    1.003213        140.5742
0.344                   1.003568        139.7015
0.348                   1.003288         138.833
0.352                   1.002425        137.9834
0.356                    1.00113        137.1647
0.36                   0.9996298        136.3846
0.364                  0.9981846        135.6448
0.368                  0.9970456         134.941
0.372                  0.9964101         134.263
0.376                  0.9963873        133.5969
0.38                   0.9969784        132.9276
0.384                  0.9980769        132.2412
0.388                  0.9994889        131.5276
0.392                   1.000967        130.7822
0.396                   1.002253        130.0068
0.4                     1.003125        129.2088
0.404                   1.003434        128.4001
0.408                   1.003128        127.5948
0.412                    1.00226        126.8072
0.416                   1.000984         126.049
0.42                   0.9995206        125.3275
0.424                  0.9981267        124.6442
0.428                  0.9970466        123.9944
0.432                  0.9964693        123.3681
0.436                  0.9964966        122.7515
0.44                   0.9971228        122.1296
0.444                  0.9982365         121.489
0.448                   0.999641        120.8201
0.452                   1.001089         120.119
0.456                   1.002327        119.3876
0.46                    1.003139         118.634
0.464                   1.003383        117.8701
0.468                   1.003016        117.1103
0.472                   1.002103        116.3686
0.476                   1.000803        115.6564
0.48                   0.9993415        114.9805
0.484                  0.9979768        114.3417
0.488                  0.9969497        113.7349
0.492                  0.9964422        113.1495
0.496                  0.9965451        112.5714
0.5                    0.9972407        111.9858
0.504                  0.9984062        111.3793
0.508                  0.9998351         110.743
0.512                   1.001275        110.0735
0.516                   1.002473        109.3737
0.52                    1.003216        108.6523
0.524                   1.003375        107.9218
0.528                   1.002919        107.1968
0.532                   1.001926        106.4915
0.536                    1.00057        105.8168
0.54                   0.9990869        105.1789
0.544                  0.9977397        104.5779
0.548                  0.9967673        104.0076
0.552                  0.9963445        103.4567
0.556                  0.9965482        102.9104
0.56                   0.9973437        102.3537
0.564                   0.998591        101.7734
0.568                   1.000069        101.1613
0.572                   1.001516        100.5148
0.576                   1.002676        99.83803
0.58                    1.003342         99.1404
0.584                   1.003396        98.43547
0.588                   1.002824        97.73831
0.592                   1.001725        97.06304
0.596                   1.000289        96.42034
0.6                    0.9987685        95.81564
0.604                  0.9974333        95.24787
0.608                  0.9965221        94.70968
0.612                  0.9961996        94.18856
0.616                  0.9965264         93.6691
0.62                   0.9974465        93.13574
0.624                  0.9987974        92.57574
0.628                    1.00034        91.98137
0.632                   1.001799        91.35137
0.636                   1.002915        90.69099
0.64                    1.003489        90.01104
0.644                   1.003416        89.32607
0.648                   1.002704        88.65177
0.652                   1.001475        88.00234
0.656                  0.9999435        87.38802
0.66                   0.9983786        86.81323
0.664                  0.9970597        86.27558
0.668                  0.9962243        85.76623
0.672                  0.9960256        85.27129
0.676                  0.9965031        84.77436
0.68                   0.9975747        84.25954
0.684                  0.9990512        83.71439
0.688                    1.00067        83.13207
0.692                   1.002143        82.51266
0.696                   1.003207          81.863
0.7                     1.003669        81.19544
0.704                   1.003444        80.52573
0.708                   1.002565        79.87023
0.712                   1.001183        79.24326
0.716                  0.9995385        78.65447
0.72                   0.9979229        78.10705
0.724                  0.9966251        77.59702
0.728                  0.9958807        77.11375
0.732                  0.9958278        76.64178
0.736                  0.9964808         76.1636
0.74                   0.9977269        75.66295
0.744                  0.9993453        75.12772
0.748                   1.001048        74.55228
0.752                   1.002531        73.93831
0.756                   1.003527        73.29444
0.76                    1.003856        72.63484
0.764                   1.003452         71.9765
0.768                   1.002381        71.33665
0.772                   1.000827        70.72954
0.776                  0.9990599        70.16407
0.78                   0.9973953        69.64198
0.784                  0.9961321        69.15737
0.788                  0.9955018        68.69753
0.792                  0.9956233        68.24526
0.796                  0.9964807        67.78185
0.8                    0.9979246        67.29068
0.804                   0.999699        66.76027
0.808                   1.001487        66.18635
0.812                   1.002968         65.5725
0.816                   1.003874        64.92958
0.82                    1.004037        64.27359
0.824                   1.003421        63.62316
0.828                   1.002126        62.99618
0.832                   1.000374        62.40687
0.836                  0.9984722        61.86311
0.84                   0.9967595        61.36489
0.844                   0.995546        60.90401
0.848                  0.9950553        60.46546
0.852                  0.9953833        60.02994
0.856                  0.9964777        59.57753
0.86                   0.9981469        59.09138
0.864                   1.000094        58.56076
0.868                   1.001972         57.9831
0.872                   1.003441        57.36425
0.876                   1.004236        56.71747
0.88                    1.004206          56.061
0.884                   1.003346        55.41505
0.888                   1.001799        54.79833
0.892                  0.9998307         54.2248
0.896                  0.9977879        53.70111
0.9                    0.9960363        53.22512
0.904                  0.9948947        52.78602
0.908                  0.9945764        52.36608
0.912                  0.9951478        51.94382
0.916                  0.9965137        51.49799
0.92                   0.9984344        51.01159
0.924                   1.000567        50.47502
0.928                    1.00253        49.88772
0.932                   1.003968        49.25821
0.936                   1.004618        48.60247
0.94                    1.004352        47.94124
0.944                   1.003205         47.2965
0.948                   1.001368        46.68771
0.952                  0.9991579        46.12841
0.956                   0.996965         45.6237
0.96                   0.9951837        45.16888
0.964                  0.9941412        44.75007
0.968                  0.9940359        44.34643
0.972                  0.9948978        43.93399
0.976                  0.9965812        43.49016
0.98                   0.9987897        42.99795
0.984                   1.001129        42.44915
0.988                    1.00318        41.84566
0.992                    1.00457        41.19907
0.996                   1.005042        40.52855
1                       1.004496        39.85762
1.004                   1.003015        39.21017
1.008                   1.000845        38.60646
1.012                  0.9983618        38.05946
1.016                  0.9960056        37.57231
1.02                   0.9942022        37.13732
1.024                  0.9932857        36.73695
1.028                  0.9934344        36.34683
1.032                  0.9946346        35.94025
1.036                  0.9966805        35.49315
1.04                   0.9992103        34.98878
1.044                   1.001772        34.42067
1.048                   1.003904        33.79365
1.052                   1.005216        33.12293
1.056                   1.005462        32.43133
1.06                    1.004577        31.74554
1.064                   1.002698         31.0916
1.068                   1.000141        30.49054
1.072                  0.9973474        29.95453
1.076                  0.9948148        29.48432
1.08                   0.9930044        29.06857
1.084                   0.992256        28.68541
1.088                  0.9927215         28.3063
1.092                  0.9943336        27.90132
1.096                   0.996814         27.4449
1.1                    0.9997236        26.92067
1.104                   1.002542        26.32435
1.108                    1.00476        25.66436
1.112                   1.005969        24.96017
1.116                   1.005935        24.23894
1.12                    1.004636        23.53106
1.124                   1.002277         22.8651
1.128                  0.9992524        22.26299
1.132                  0.9960868        21.73595
1.136                  0.9933449        21.28174
1.14                   0.9915292        20.88466
1.144                  0.9909855        20.51755
1.148                  0.9918337        20.14689
1.152                  0.9939404        19.73894
1.156                    0.99694        19.26629
1.16                    1.000301        18.71323
1.164                    1.00342        18.07814
1.168                   1.005732        17.37372
1.172                   1.006807        16.62462
1.176                   1.006425        15.86316
1.18                    1.004618        15.12427
1.184                   1.001671        14.43956
1.188                  0.9980784        13.83213
1.192                  0.9944638        13.31192
1.196                  0.9914756        12.87323
1.2                    0.9896679        12.49473
1.204                  0.9893939        12.14273
1.208                  0.9907326        11.77732
1.212                  0.9934681        11.36005
1.216                  0.9971253        10.86138
1.22                    1.001055        10.26621
1.224                   1.004553        9.576379
1.228                    1.00698        8.809969
1.232                   1.007876        7.998036
1.236                   1.007041        7.179503
1.24                    1.004571        6.395002
1.244                   1.000853        5.680352
1.248                  0.9965053        5.060341
1.252                  0.9922835        4.543671
1.256                  0.9889476        4.120178
1.26                   0.9871233        3.761379
1.264                   0.987178        3.424929
1.268                  0.9891421        3.062439
1.272                  0.9926949        2.628979
1.276                  0.9972187         2.09187
1.28                    1.001911        1.436692
1.284                   1.005928       0.6694584
1.288                   1.008532      -0.1849316
1.292                   1.009216       -1.087096
1.296                   1.007795       -1.989433
1.3                     1.004445       -2.843395
1.304                  0.9996821       -3.607158
1.308                  0.9942937       -4.252971
1.312                  0.9892142       -4.773196
1.316                  0.9853637       -5.183573
1.32                   0.9834766       -5.522247
1.324                  0.9839513       -5.843744
1.328                  0.9867604       -6.208674
1.332                  0.9914429       -6.671572
1.336                  0.9971846       -7.270121
1.34                    1.002964       -8.018379
1.344                   1.007736       -8.905005
1.348                   1.010608       -9.895965
1.352                   1.010994       -10.94035
1.356                   1.008715        -11.9781
1.36                    1.004039       -12.94869
1.364                  0.9976629       -13.80044
1.368                  0.9906188       -14.49969
1.372                  0.9841157       -15.03872
1.376                  0.9793348       -15.44039
1.38                   0.9772036        -15.7571
1.384                     0.9782        -16.0626
1.388                  0.9822349       -16.43777
1.392                  0.9886495       -16.95391
1.396                  0.9963301       -17.65848
1.4                     1.003908        -18.5669
1.404                   1.010001        -19.6613
1.408                   1.013441       -20.89486
1.412                   1.013469       -22.19958
1.416                   1.009861       -23.49578
1.42                    1.002988       -24.70262
1.424                  0.9937989       -25.74967
1.428                  0.9837079       -26.58933
1.432                  0.9744003       -27.20897
1.436                  0.9675513       -27.63954
1.44                   0.9645025        -27.9564
1.444                  0.9659618       -28.26863
1.448                  0.9718143        -28.6976
1.452                  0.9811055       -29.35086
1.456                  0.9922043       -30.30022
1.46                    1.003096        -31.5701
1.464                   1.011724       -33.13714
1.468                   1.016316       -34.93736
1.472                   1.015647       -36.87675
1.476                   1.009234       -38.84257
1.48                   0.9974494       -40.71519
1.484                  0.9815466        -42.3817
1.488                  0.9635889       -43.75378
1.492                  0.9462331       -44.79044
1.496                  0.9323506       -45.52229
1.5                    0.9244891       -46.06778
1.504                  0.9242658       -46.62735
1.508                  0.9318801       -47.44847
1.512                  0.9459334       -48.77149
1.516                  0.9636285       -50.78113
1.52                   0.9812447       -53.58361
1.524                  0.9946958       -57.21207
1.528                   1.000019       -61.64828
1.532                  0.9937339       -66.84794
1.536                  0.9730647       -72.76242
1.54                   0.9360787       -79.35619
1.544                  0.8817537       -86.62306
1.548                  0.8100185       -94.60739
1.552                  0.7217898       -103.4421
