! TOUCHSTONE file generated by CST MICROWAVE STUDIO
! Date and time: Thu Jun  9 15:16:41 2022
! Project name: AppElm_antenne_patch_Alumina.cst
! Parameters = {L=30.5; W=41.8; e=0.035; h=1.6; lambda=0.190476; ls=90; w0=1.12; w1=0.373; ws=90; y0=14; y1=9.5}
! Header version: 2018
! Port assignment regex: !\s*Touchstone port\s*([0-9]+)\s*=\s*(CST MWS port|CST DS port)\s*([0-9]+|Zmin|Zmax)\s*\(\"(.*)\"\)(\s*mode\s*([0-9]+))?.*
! Touchstone port assignment:
! Touchstone port 1 = CST MWS port 1 ("")
# GHz S MA R 50
0                      0.9788457              -0
0.004                  0.9799914       -10.34744
0.008                  0.9832792       -20.58535
0.012                  0.9882834       -30.61112
0.016                  0.9943671       -40.33443
0.02                    1.000774       -49.68034
0.024                   1.006732       -58.58996
0.028                   1.011552       -67.01921
0.032                   1.014705       -74.93684
0.036                   1.015886       -82.32239
0.04                    1.015035       -89.16469
0.044                   1.012343       -95.46145
0.048                   1.008226       -101.2197
0.052                   1.003267       -106.4569
0.056                  0.9981453       -111.2021
0.06                   0.9935459       -115.4967
0.064                  0.9900661       -119.3935
0.068                  0.9881321        -122.954
0.072                  0.9879382       -126.2438
0.076                  0.9894241       -129.3267
0.08                   0.9922911       -132.2591
0.084                  0.9960554       -135.0846
0.088                   1.000128        -137.832
0.092                   1.003906       -140.5141
0.096                   1.006858       -143.1301
0.1                     1.008593       -145.6681
0.104                   1.008915       -148.1095
0.108                   1.007835       -150.4332
0.112                   1.005571       -152.6198
0.116                   1.002506       -154.6557
0.12                   0.9991325       -156.5363
0.124                  0.9959802       -158.2677
0.128                  0.9935326       -159.8668
0.132                  0.9921528       -161.3605
0.136                  0.9920275       -162.7811
0.14                   0.9931393       -164.1627
0.144                  0.9952744       -165.5354
0.148                  0.9980626       -166.9218
0.152                   1.001041       -168.3336
0.156                   1.003732       -169.7712
0.16                    1.005716       -171.2244
0.164                   1.006699       -172.6751
0.168                   1.006548       -174.1007
0.172                   1.005312       -175.4775
0.176                   1.003213       -176.7852
0.18                    1.000605       -178.0095
0.184                  0.9979209       -179.1453
0.188                  0.9956018        179.8024
0.192                  0.9940252        178.8188
0.196                  0.9934409        177.8816
0.2                    0.9939313        176.9645
0.204                  0.9953971        176.0416
0.208                  0.9975782         175.092
0.212                     1.0001        174.1025
0.216                   1.002538        173.0701
0.22                     1.00449        172.0014
0.224                   1.005642        170.9116
0.228                   1.005813        169.8212
0.232                   1.004988        168.7528
0.236                   1.003314        167.7276
0.24                    1.001079        166.7617
0.244                  0.9986616        165.8635
0.248                  0.9964721         165.032
0.252                  0.9948804         164.257
0.256                  0.9941536          163.52
0.26                   0.9944096         162.798
0.264                  0.9955961        162.0671
0.268                  0.9975025         161.307
0.272                  0.9997964        160.5041
0.276                   1.002084        159.6541
0.28                    1.003977        158.7621
0.284                   1.005159        157.8413
0.288                   1.005434        156.9109
0.292                   1.004763        155.9929
0.296                   1.003264        155.1081
0.3                     1.001195        154.2731
0.304                  0.9989116        153.4974
0.308                  0.9968072        152.7813
0.312                  0.9952446         152.116
0.316                  0.9944933        151.4849
0.32                   0.9946813         150.866
0.324                  0.9957719        150.2366
0.328                   0.997572        149.5766
0.332                  0.9997655        148.8726
0.336                   1.001971          148.12
0.34                    1.003808        147.3233
0.344                   1.004964        146.4954
0.348                   1.005241         145.655
0.352                   1.004596        144.8236
0.356                   1.003141        144.0219
0.36                    1.001127        143.2665
0.364                  0.9989031        142.5669
0.368                  0.9968562        141.9235
0.372                  0.9953444        141.3278
0.376                  0.9946327        140.7634
0.38                   0.9948465        140.2088
0.384                  0.9959467        139.6414
0.388                  0.9977386        139.0416
0.392                  0.9999064        138.3964
0.396                    1.00207        137.7016
0.4                     1.003854        136.9619
0.404                   1.004949        136.1906
0.408                   1.005166        135.4066
0.412                   1.004467        134.6315
0.416                   1.002974        133.8859
0.42                    1.000945         133.186
0.424                  0.9987338        132.5408
0.428                   0.996727        131.9503
0.432                  0.9952792        131.4053
0.436                  0.9946476        130.8889
0.44                   0.9949448        130.3793
0.444                  0.9961187         129.854
0.448                   0.997961        129.2938
0.452                   1.000146        128.6863
0.456                   1.002288        128.0281
0.46                    1.004013        127.3251
0.464                   1.005017        126.5911
0.468                   1.005127        125.8459
0.472                    1.00432        125.1113
0.476                   1.002737        124.4078
0.48                    1.000651        123.7512
0.484                  0.9984271        123.1496
0.488                  0.9964584         122.602
0.492                  0.9950948        122.0979
0.496                  0.9945811        121.6194
0.5                    0.9950111        121.1441
0.504                  0.9963098        120.6494
0.508                  0.9982468        120.1164
0.512                   1.000479        119.5338
0.516                   1.002612        118.8993
0.52                    1.004269        118.2203
0.524                   1.005159        117.5121
0.528                   1.005125         116.795
0.532                    1.00417        116.0916
0.536                   1.002457        115.4222
0.54                    1.000286         114.802
0.544                  0.9980377        114.2378
0.548                  0.9961108        113.7272
0.552                  0.9948508        113.2581
0.556                  0.9944858        112.8111
0.56                   0.9950844         112.363
0.564                  0.9965418        111.8909
0.568                  0.9985988        111.3767
0.572                    1.00089        110.8103
0.576                   1.003009         110.191
0.58                    1.004579        109.5279
0.584                   1.005324        108.8378
0.588                   1.005108        108.1425
0.592                   1.003966        107.4648
0.596                   1.002093        106.8251
0.6                    0.9998175        106.2376
0.604                  0.9975395        105.7077
0.608                  0.9956658        105.2308
0.612                  0.9945342        104.7931
0.616                  0.9943517        104.3734
0.62                   0.9951552        103.9475
0.624                  0.9968035        103.4925
0.628                  0.9990031        102.9908
0.632                   1.001362         102.434
0.636                   1.003462        101.8234
0.64                    1.004928        101.1703
0.644                     1.0055        100.4932
0.648                   1.005073        99.81516
0.652                   1.003716        99.15974
0.656                   1.001663        98.54691
0.66                   0.9992753        97.98973
0.664                  0.9969745        97.49178
0.668                  0.9951741        97.04626
0.672                  0.9942007        96.63689
0.676                  0.9942353        96.24076
0.68                   0.9952762        95.83255
0.684                    0.99714        95.38924
0.688                  0.9994945        94.89453
0.692                   1.001919        94.34164
0.696                   1.003982        93.73438
0.7                     1.005315        93.08631
0.704                   1.005679        92.41812
0.708                   1.005002        91.75426
0.712                   1.003398        91.11876
0.716                   1.001144        90.53116
0.72                   0.9986361        90.00308
0.724                  0.9963199        89.53587
0.728                  0.9946133         89.1201
0.732                  0.9938287         88.7369
0.736                  0.9941135        88.36129
0.74                   0.9954222        87.96688
0.744                  0.9975231        87.53085
0.748                   1.000041        87.03823
0.752                   1.002525        86.48447
0.756                   1.004532        85.87606
0.76                    1.005703        85.22921
0.764                   1.005824        84.56693
0.768                   1.004867        83.91506
0.772                   1.002993        83.29805
0.776                   1.000527        82.73476
0.78                    0.997903        82.23505
0.784                  0.9955915        81.79767
0.788                  0.9940118        81.41013
0.792                  0.9934556         81.0507
0.796                  0.9940313        80.69222
0.8                    0.9956415        80.30738
0.804                  0.9980005        79.87373
0.808                   1.000686        79.37801
0.812                   1.003218        78.81829
0.816                   1.005143        78.20415
0.82                    1.006114        77.55472
0.824                   1.005952         76.8954
0.828                   1.004676        76.25351
0.832                   1.002501        75.65383
0.836                  0.9998067        75.11422
0.84                   0.9970686        74.64242
0.844                  0.9947788        74.23414
0.848                  0.9933555        73.87349
0.852                  0.9930642        73.53557
0.856                  0.9939665          73.191
0.86                   0.9959059        72.81159
0.864                  0.9985368        72.37563
0.868                   1.001388        71.87193
0.872                   1.003948        71.30164
0.876                   1.005756        70.67771
0.88                    1.006486        70.02252
0.884                   1.005996        69.36399
0.888                   1.004363        68.73095
0.892                   1.001863         68.1482
0.896                  0.9989327        67.63242
0.9                    0.9960921        67.18869
0.904                  0.9938548        66.80923
0.908                  0.9926329        66.47431
0.912                  0.9926581        66.15558
0.916                  0.9939366        65.82139
0.92                    0.996245        65.44281
0.924                  0.9991712        64.99926
0.928                   1.002191        64.48205
0.932                   1.004763        63.89584
0.936                   1.006423        63.25745
0.94                    1.006868        62.59275
0.944                   1.006005        61.93234
0.948                   1.003974        61.30645
0.952                   1.001121        60.73991
0.956                  0.9979449        60.24767
0.96                   0.9950127        59.83178
0.964                  0.9928577        59.48045
0.968                  0.9918806         59.1696
0.972                  0.9922716        58.86714
0.976                  0.9939717        58.53911
0.98                   0.9966817        58.15612
0.984                   0.999917        57.69902
0.988                   1.003097        57.16223
0.992                   1.005649        56.55442
0.996                   1.007112        55.89667
1                       1.007212        55.21871
1.004                   1.005915        54.55398
1.008                   1.003432        53.93413
1.012                   1.000188        53.38373
1.016                   0.996751        52.91564
1.02                   0.9937382        52.52829
1.024                   0.991701        52.20519
1.028                  0.9910229        51.91738
1.032                  0.9918431        51.62869
1.036                  0.9940267        51.30269
1.04                   0.9971875        50.90979
1.044                    1.00076        50.43275
1.048                   1.004103        49.86961
1.052                   1.006614        49.23367
1.056                   1.007836         48.5508
1.06                    1.007534        47.85499
1.064                   1.005741        47.18276
1.068                    1.00275        46.56722
1.072                  0.9990765        46.03242
1.076                   0.995366        45.58872
1.08                   0.9922888        45.23022
1.084                  0.9904135        44.93499
1.088                     0.9901        44.66847
1.092                   0.991425        44.38996
1.096                  0.9941644        44.06049
1.1                    0.9978323        43.65048
1.104                   1.001772        43.14514
1.108                   1.005275        42.54684
1.112                   1.007708        41.87423
1.116                   1.008622        41.15864
1.12                    1.007832        40.43889
1.124                   1.005446        39.75493
1.128                   1.001859        39.14148
1.132                  0.9976844         38.6219
1.136                  0.9936612        38.20345
1.14                   0.9905187        37.87519
1.144                  0.9888441        37.60865
1.148                  0.9889663        37.36271
1.152                  0.9908874        37.09144
1.156                  0.9942768        36.75307
1.16                    0.998532        36.31821
1.164                    1.00289         35.7751
1.168                   1.006567        35.13123
1.172                   1.008894        34.41149
1.176                   1.009435        33.65361
1.18                     1.00806        32.90197
1.184                   1.004971        32.20064
1.188                   1.000679        31.58623
1.192                  0.9959207        31.08118
1.196                  0.9915416         30.6892
1.2                    0.9883437        30.39296
1.204                  0.9869346        30.15623
1.208                  0.9876054        29.92985
1.212                  0.9902656        29.66156
1.216                  0.9944559        29.30628
1.22                   0.9994319        28.83494
1.224                   1.004302        28.23954
1.228                   1.008189        27.53371
1.232                   1.010382        26.75004
1.236                   1.010457        25.93381
1.24                     1.00835        25.13642
1.244                   1.004377        24.40701
1.248                  0.9991917        23.78478
1.252                  0.9936836        23.29156
1.256                  0.9888348        22.92664
1.26                   0.9855421        22.66496
1.264                  0.9844436        22.46014
1.268                  0.9857861        22.25294
1.272                  0.9893662         21.9828
1.276                  0.9945618        21.60028
1.28                    1.000449        21.07656
1.284                   1.005972        20.40812
1.288                    1.01013        19.61635
1.292                   1.012151        18.74307
1.296                   1.011621         17.8436
1.3                     1.008554        16.97827
1.304                   1.003406        16.20345
1.308                  0.9970158        15.56234
1.312                  0.9904768        15.07663
1.316                  0.9849601         14.7404
1.32                   0.9815008         14.5184
1.324                  0.9807911        14.35069
1.328                  0.9830298        14.16355
1.332                  0.9878677        13.88461
1.336                  0.9944659        13.45771
1.34                    1.001653        12.85368
1.344                    1.00814        12.07446
1.348                   1.012746        11.15132
1.352                   1.014597         10.1386
1.356                   1.013266        9.105113
1.36                     1.00886        8.124316
1.364                   1.002012        7.263752
1.368                  0.9938158        6.574141
1.372                  0.9856621        6.078904
1.376                  0.9790157        5.766274
1.38                   0.9751437        5.587045
1.384                  0.9748539        5.460841
1.388                  0.9783067        5.291245
1.392                  0.9849586        4.986225
1.396                  0.9936555        4.477537
1.4                      1.00285        3.733407
1.404                    1.01088        2.762208
1.408                   1.016259        1.608521
1.412                   1.017906       0.3445816
1.416                    1.01533      -0.9403182
1.42                    1.008717       -2.151318
1.424                  0.9989421       -3.200461
1.428                  0.9874824       -4.020564
1.432                  0.9762268        -4.57992
1.436                  0.9671797       -4.895067
1.44                   0.9620886       -5.036314
1.444                  0.9620645       -5.120293
1.448                  0.9673006       -5.287736
1.452                  0.9769847       -5.672201
1.456                  0.9894368       -6.370917
1.46                    1.002427       -7.427434
1.464                   1.013573       -8.828729
1.468                   1.020724       -10.51285
1.472                   1.022285       -12.38117
1.476                   1.017446       -14.31122
1.48                    1.006333       -16.16907
1.484                  0.9900684       -17.82287
1.488                  0.9707276       -19.16055
1.492                  0.9511549       -20.11391
1.496                  0.9345966        -20.6876
1.5                    0.9241324       -20.98349
1.504                  0.9219731       -21.20378
1.508                  0.9288285       -21.61866
1.512                  0.9435924       -22.50461
1.516                  0.9634857       -24.08199
1.52                   0.9845687       -26.48106
1.524                   1.002389       -29.74394
1.528                   1.012561       -33.84899
1.532                   1.011181       -38.74049
1.536                  0.9950934       -44.35353
1.54                   0.9620292        -50.6325
1.544                  0.9106783        -57.5459
1.548                  0.8407134       -65.10308
1.552                  0.7527989       -73.38252
