! TOUCHSTONE file generated by CST MICROWAVE STUDIO
! Date and time: Thu Jun  9 15:16:37 2022
! Project name: AppElm_antenne_patch_Alumina.cst
! Parameters = {L=30.5; W=41.8; e=0.035; h=1.6; lambda=0.190476; ls=90; w0=1.12; w1=0.373; ws=90; y0=14; y1=7.5}
! Header version: 2018
! Port assignment regex: !\s*Touchstone port\s*([0-9]+)\s*=\s*(CST MWS port|CST DS port)\s*([0-9]+|Zmin|Zmax)\s*\(\"(.*)\"\)(\s*mode\s*([0-9]+))?.*
! Touchstone port assignment:
! Touchstone port 1 = CST MWS port 1 ("")
# GHz S MA R 50
0                      0.9778411              -0
0.004                  0.9790229       -10.29195
0.008                  0.9824168       -20.47482
0.012                  0.9875911       -30.44644
0.016                  0.9938981       -40.11699
0.02                    1.000567       -49.41203
0.024                   1.006808        -58.2731
0.028                   1.011907       -66.65648
0.032                   1.015314       -74.53102
0.036                   1.016696       -81.87601
0.04                    1.015971       -88.67972
0.044                   1.013311       -94.93874
0.048                   1.009122       -100.6587
0.052                   1.003987       -105.8551
0.056                  0.9986008       -110.5551
0.06                   0.9936773       -114.7985
0.064                   0.989854       -118.6368
0.068                  0.9876037       -122.1313
0.072                  0.9871665       -125.3488
0.076                  0.9885198        -128.355
0.08                   0.9913858       -131.2093
0.084                  0.9952831       -133.9583
0.088                  0.9996042       -136.6337
0.092                   1.003708       -139.2505
0.096                   1.007016        -141.809
0.1                     1.009085       -144.2973
0.104                   1.009667       -146.6957
0.108                   1.008733       -148.9812
0.112                   1.006477       -151.1316
0.116                   1.003277       -153.1303
0.12                   0.9996468       -154.9695
0.124                  0.9961537       -156.6527
0.128                   0.993336       -158.1955
0.132                   0.991618       -159.6243
0.136                  0.9912432        -160.973
0.14                   0.9922371       -162.2784
0.144                  0.9944059       -163.5741
0.148                  0.9973735       -164.8864
0.152                   1.000647         -166.23
0.156                   1.003698       -167.6073
0.16                    1.006048       -169.0091
0.164                   1.007341       -170.4165
0.168                   1.007394       -171.8049
0.172                   1.006222        -173.148
0.176                   1.004033       -174.4219
0.18                    1.001197       -175.6089
0.184                  0.9981823        -176.701
0.188                  0.9954868       -177.7012
0.192                  0.9935523       -178.6238
0.196                  0.9926915       -179.4923
0.2                    0.9930351        179.6645
0.204                  0.9945101         178.817
0.208                  0.9968544        177.9403
0.212                  0.9996644         177.018
0.216                   1.002465        176.0447
0.22                    1.004793         175.026
0.224                   1.006267        173.9777
0.228                   1.006654        172.9222
0.232                   1.005901        171.8851
0.236                   1.004141         170.891
0.24                    1.001677        169.9597
0.244                  0.9989264        169.1028
0.248                  0.9963558        168.3211
0.252                  0.9944021        167.6049
0.256                   0.993397        166.9347
0.26                    0.993508        166.2845
0.264                  0.9947092        165.6269
0.268                  0.9967868        164.9375
0.272                  0.9993777        164.1994
0.276                   1.002036        163.4057
0.28                    1.004307        162.5606
0.284                    1.00581        161.6782
0.288                   1.006293        160.7797
0.292                   1.005682          159.89
0.296                   1.004082        159.0339
0.3                     1.001769        158.2315
0.304                  0.9991402        157.4952
0.308                  0.9966485        156.8274
0.312                  0.9947255        156.2196
0.316                  0.9937051        155.6536
0.32                   0.9937639        155.1047
0.324                  0.9948891        154.5463
0.328                  0.9968804        153.9542
0.332                  0.9993876        153.3117
0.336                   1.001973        152.6117
0.34                    1.004191        151.8582
0.344                   1.005659        151.0649
0.348                   1.006128        150.2528
0.352                    1.00552        149.4467
0.356                    1.00394        148.6712
0.36                     1.00166        147.9465
0.364                   0.999076        147.2848
0.368                  0.9966369        146.6886
0.372                  0.9947704        146.1492
0.376                  0.9938064        145.6485
0.38                   0.9939152         145.162
0.384                  0.9950774         144.663
0.388                  0.9970872        144.1279
0.392                  0.9995889        143.5403
0.396                   1.002144        142.8939
0.4                     1.004305        142.1931
0.404                   1.005699        141.4522
0.408                   1.006084        140.6928
0.412                   1.005394        139.9399
0.416                   1.003747         139.218
0.42                    1.001427         138.547
0.424                  0.9988383        137.9386
0.428                   0.996435        137.3943
0.432                   0.994642        136.9047
0.436                  0.9937788        136.4507
0.44                   0.9940005        136.0073
0.444                  0.9952689        135.5477
0.448                  0.9973583        135.0487
0.452                  0.9998983        134.4946
0.456                   1.002441        133.8803
0.46                    1.004538        133.2116
0.464                   1.005825        132.5038
0.468                   1.006075        131.7794
0.472                   1.005243         131.064
0.476                   1.003473        130.3821
0.48                    1.001069        129.7529
0.484                  0.9984536        129.1872
0.488                  0.9960871        128.6851
0.492                  0.9943914        128.2356
0.496                  0.9936721        127.8183
0.5                    0.9940604        127.4072
0.504                  0.9954894        126.9753
0.508                   0.997705        126.4998
0.512                   1.000314        125.9663
0.516                   1.002853        125.3711
0.52                    1.004876        124.7218
0.524                   1.006027        124.0354
0.528                   1.006102        123.3356
0.532                   1.005086        122.6486
0.536                   1.003152        121.9988
0.54                    1.000636        121.4048
0.544                  0.9979812         120.876
0.548                  0.9956574        120.4105
0.552                  0.9940816        119.9953
0.556                  0.9935399        119.6084
0.56                   0.9941333        119.2225
0.564                  0.9957582        118.8104
0.568                  0.9981252        118.3499
0.572                   1.000812        117.8282
0.576                   1.003342        117.2436
0.58                    1.005267        116.6056
0.584                   1.006247        115.9334
0.588                   1.006106         115.252
0.592                   1.004865        114.5884
0.596                   1.002735        113.9668
0.6                     1.000089        113.4048
0.604                  0.9973922        112.9099
0.608                  0.9951258        112.4781
0.612                  0.9936987         112.094
0.616                  0.9933725        111.7334
0.62                   0.9942104        111.3679
0.624                  0.9960652        110.9699
0.628                  0.9986063        110.5183
0.632                    1.00138         110.002
0.636                   1.003894        109.4216
0.64                    1.005701        108.7893
0.644                    1.00648        108.1263
0.648                    1.00609        107.4592
0.652                   1.004594        106.8158
0.656                   1.002249        106.2199
0.66                   0.9994657        105.6879
0.664                  0.9967361        105.2252
0.668                  0.9945502         104.825
0.672                  0.9933051        104.4692
0.676                  0.9932313        104.1313
0.68                    0.994348        103.7817
0.684                   0.996458        103.3928
0.688                  0.9991842        102.9445
0.692                    1.00204         102.428
0.696                   1.004515        101.8466
0.7                     1.006171        101.2154
0.704                    1.00671        100.5579
0.708                   1.006032        99.90248
0.712                   1.004248         99.2774
0.716                   1.001665        98.70619
0.72                   0.9987376        98.20349
0.724                  0.9959848        97.77217
0.728                  0.9939031        97.40241
0.732                  0.9928733        97.07302
0.736                  0.9930886        96.75516
0.74                   0.9945164        96.41779
0.744                  0.9969033        96.03354
0.748                  0.9998224        95.58396
0.752                   1.002752        95.06266
0.756                   1.005168        94.47617
0.76                    1.006641        93.84256
0.764                   1.006904        93.18802
0.768                   1.005903        92.54257
0.772                   1.003807          91.935
0.776                   1.000977        91.38808
0.78                   0.9979115        90.91447
0.784                  0.9951586        90.51411
0.788                  0.9932176         90.1737
0.792                  0.9924465        89.86867
0.796                   0.992994         89.5677
0.8                    0.9947682        89.23851
0.804                  0.9974536        88.85424
0.808                   1.000569        88.39834
0.812                   1.003558        87.86744
0.816                   1.005885        87.27158
0.82                    1.007133        86.63216
0.824                   1.007076        85.97813
0.828                   1.005712        85.34117
0.832                   1.003272         84.7505
0.836                   1.000178        84.22783
0.84                   0.9969771        83.78347
0.844                  0.9942433        83.41391
0.848                  0.9924753        83.10199
0.852                  0.9920023        82.81949
0.856                  0.9929199        82.53246
0.86                   0.9950695        82.20766
0.864                  0.9980672        81.81895
0.868                   1.001375        81.35218
0.872                   1.004401         80.8074
0.876                   1.006603        80.19853
0.88                    1.007583        79.55062
0.884                   1.007159        78.89547
0.888                   1.005393        78.26644
0.892                   1.002583        77.69292
0.896                  0.9992185        77.19526
0.9                    0.9958961        76.78092
0.904                  0.9932155        76.44248
0.908                  0.9916692        76.15838
0.912                  0.9915499        75.89651
0.916                  0.9928907        75.62023
0.92                   0.9954576        75.29547
0.924                  0.9987917        74.89727
0.928                   1.002295        74.41435
0.932                    1.00534        73.85068
0.936                   1.007381         73.2245
0.94                    1.008047        72.56476
0.944                   1.007208         71.9063
0.948                   1.004996        71.28411
0.952                   1.001788        70.72757
0.956                  0.9981427        70.25531
0.96                   0.9947106         69.8714
0.964                  0.9921144        69.56396
0.968                  0.9908361        69.30654
0.972                   0.991122        69.06284
0.976                  0.9929335        68.79348
0.98                   0.9959514        68.46383
0.984                  0.9996351        68.05055
0.988                   1.003324        67.54574
0.992                   1.006355        66.95791
0.996                   1.008183           66.31
1                       1.008472        65.63523
1.004                   1.007153        64.97161
1.008                   1.004439        64.35576
1.012                   1.000793        63.81684
1.016                  0.9968521        63.37127
1.02                   0.9933224        63.01922
1.024                  0.9908489        62.74358
1.028                   0.989896        62.51248
1.032                  0.9906546        62.28494
1.036                  0.9930021        62.01885
1.04                   0.9965228        61.67921
1.044                   1.000586         61.2448
1.048                   1.004463        60.71173
1.052                   1.007457        60.09358
1.056                   1.009028        59.41861
1.06                    1.008879        58.72471
1.064                   1.007016         58.0533
1.068                   1.003742        57.44264
1.072                  0.9996171        56.92147
1.076                  0.9953668        56.50355
1.08                   0.9917559        56.18439
1.084                  0.9894509        55.94091
1.088                  0.9888913        55.73505
1.092                   0.990201         55.5207
1.096                  0.9931594        55.25288
1.1                    0.9972411        54.89651
1.104                   1.001714        54.43303
1.108                   1.005776        53.86332
1.112                   1.008696         53.2068
1.116                    1.00994        52.49766
1.12                    1.009265        51.77907
1.124                   1.006758        51.09623
1.128                    1.00283        50.48921
1.132                  0.9981539        49.98615
1.136                  0.9935527        49.59762
1.14                   0.9898596        49.31362
1.144                  0.9877629        49.10407
1.148                  0.9876711        48.92359
1.152                  0.9896273         48.7203
1.156                  0.9932958        48.44597
1.16                   0.9980234        48.06572
1.164                   1.002963        47.56425
1.168                   1.007226        46.94797
1.172                   1.010044         46.2431
1.176                   1.010896        45.49071
1.18                    1.009596        44.73999
1.184                   1.006333        44.04058
1.188                   1.001641        43.43474
1.192                  0.9963256        42.94983
1.196                  0.9913273        42.59272
1.2                    0.9875597        42.34667
1.204                  0.9857363        42.17313
1.208                  0.9862272        42.01803
1.212                  0.9889772        41.82241
1.216                  0.9935117        41.53442
1.22                    0.999024        41.11936
1.224                   1.004527        40.56598
1.228                   1.009033        39.88733
1.232                   1.011723        39.11776
1.236                   1.012089        38.30656
1.24                    1.010017        37.51029
1.244                   1.005811        36.78419
1.248                    1.00016         36.1733
1.252                  0.9940312        35.70464
1.256                  0.9885139        35.38053
1.26                    0.984626        35.17617
1.264                  0.9831177         35.0423
1.268                   0.984315         34.9137
1.272                  0.9880438         34.7224
1.276                  0.9936564        34.41171
1.28                    1.000153        33.94709
1.284                   1.006371        33.32202
1.288                   1.011189         32.5578
1.292                   1.013722         31.6986
1.296                   1.013469        30.80422
1.3                     1.010395        29.94072
1.304                   1.004953        29.17099
1.308                   0.998022        28.54465
1.312                  0.9907869        28.08879
1.316                  0.9845389        27.80067
1.32                   0.9804473        27.64497
1.324                  0.9793251          27.558
1.328                  0.9814528        27.45914
1.332                  0.9865055        27.26754
1.336                  0.9936065        26.91909
1.34                    1.001495        26.37876
1.344                   1.008759        25.64577
1.348                   1.014085        24.75174
1.352                   1.016479        23.75399
1.356                   1.015423        22.72632
1.36                    1.010973        21.74853
1.364                   1.003762         20.8953
1.368                  0.9949359        20.22449
1.372                  0.9859866        19.76557
1.376                  0.9785181        19.51036
1.38                   0.9739503        19.40944
1.384                  0.9732277         19.3778
1.388                  0.9765999        19.31071
1.392                  0.9835448        19.10617
1.396                  0.9928581        18.68691
1.4                     1.002884        18.01493
1.404                   1.011821        17.09605
1.408                   1.018029        15.97568
1.412                   1.020297        14.72962
1.416                    1.01803        13.45272
1.42                    1.011358        12.24684
1.424                   1.001153        11.20795
1.428                  0.9889508        10.41163
1.432                  0.9767565         9.89713
1.436                  0.9667391        9.652852
1.44                   0.9608322        9.608758
1.444                  0.9603171        9.642661
1.448                  0.9654993        9.603285
1.452                  0.9755926        9.344429
1.456                  0.9888541        8.757716
1.46                    1.002921        7.792438
1.464                   1.015239        6.459102
1.468                   1.023481        4.821056
1.472                    1.02589        2.981081
1.476                   1.021529        1.067727
1.48                    1.010445      -0.7774044
1.484                    0.99374       -2.413187
1.488                  0.9735362       -3.716665
1.492                   0.952806       -4.607961
1.496                  0.9350037       -5.081574
1.5                    0.9234747       -5.234838
1.504                  0.9207034       -5.274801
1.508                  0.9276065       -5.486268
1.512                    0.94316       -6.165207
1.516                  0.9645285       -7.548852
1.52                     0.98761       -9.776797
1.524                   1.007738       -12.89245
1.528                   1.020307       -16.86985
1.532                   1.021214       -21.64605
1.536                   1.007135       -27.14769
1.54                   0.9756648          -33.31
1.544                  0.9253874       -40.09084
1.548                  0.8558907       -47.48565
1.552                   0.767765       -55.55204
