! TOUCHSTONE file generated by CST MICROWAVE STUDIO
! Date and time: Thu Jun  9 15:16:40 2022
! Project name: AppElm_antenne_patch_Alumina.cst
! Parameters = {L=30.5; W=41.8; e=0.035; h=1.6; lambda=0.190476; ls=90; w0=1.12; w1=0.373; ws=90; y0=14; y1=9}
! Header version: 2018
! Port assignment regex: !\s*Touchstone port\s*([0-9]+)\s*=\s*(CST MWS port|CST DS port)\s*([0-9]+|Zmin|Zmax)\s*\(\"(.*)\"\)(\s*mode\s*([0-9]+))?.*
! Touchstone port assignment:
! Touchstone port 1 = CST MWS port 1 ("")
# GHz S MA R 50
0                       0.978551              -0
0.004                  0.9797076       -10.33387
0.008                  0.9830278       -20.55834
0.012                  0.9880837        -30.5709
0.016                   0.994235       -40.28137
0.02                    1.000721       -49.61497
0.024                   1.006765       -58.51291
0.028                   1.011668       -66.93123
0.032                   1.014897       -74.83872
0.036                   1.016137       -82.21483
0.04                    1.015323       -89.04819
0.044                   1.012639       -95.33625
0.048                   1.008499       -101.0855
0.052                   1.003485        -106.313
0.056                  0.9982829       -111.0471
0.06                   0.9935853       -115.3288
0.064                  0.9900023       -119.2104
0.068                  0.9879738       -122.7535
0.072                  0.9877079        -126.024
0.076                  0.9891551       -129.0864
0.08                   0.9920232       -131.9978
0.084                  0.9958284       -134.8029
0.088                  0.9999766       -137.5312
0.092                   1.003853       -140.1963
0.096                    1.00691       -142.7976
0.1                     1.008745       -145.3232
0.104                   1.009143       -147.7543
0.108                   1.008106       -150.0689
0.112                   1.005842       -152.2471
0.116                   1.002735       -154.2743
0.12                   0.9992835       -156.1449
0.124                  0.9960287       -157.8641
0.128                  0.9934703       -159.4488
0.132                  0.9919904       -160.9253
0.136                  0.9917919       -162.3268
0.14                   0.9928703        -163.688
0.144                  0.9950173       -165.0402
0.148                  0.9978607       -166.4069
0.152                   1.000928       -167.8008
0.156                   1.003727       -169.2229
0.16                    1.005821       -170.6632
0.164                   1.006895       -172.1035
0.168                   1.006803       -173.5205
0.172                   1.005584       -174.8896
0.176                   1.003456       -176.1895
0.18                    1.000778        -177.405
0.184                   0.997994         -178.53
0.188                  0.9955624        -179.569
0.192                  0.9938796        179.4633
0.196                  0.9932146        178.5444
0.2                    0.9936634         177.647
0.204                  0.9951344        176.7442
0.208                  0.9973664        175.8139
0.212                  0.9999758         174.842
0.216                   1.002523        173.8247
0.22                    1.004587        172.7685
0.224                   1.005834        171.6886
0.228                   1.006067        170.6061
0.232                    1.00526        169.5447
0.236                   1.003558        168.5264
0.24                    1.001252        167.5686
0.244                  0.9987338        166.6805
0.248                  0.9964303        165.8618
0.252                  0.9947317        165.1021
0.256                   0.993924        164.3828
0.26                   0.9941396          163.68
0.264                  0.9953338        162.9686
0.268                  0.9972942        162.2272
0.272                  0.9996788        161.4412
0.276                   1.002078        160.6055
0.28                    1.004083        159.7249
0.284                   1.005359        158.8131
0.288                   1.005694        157.8898
0.292                   1.005037        156.9779
0.296                   1.003504        156.0994
0.3                     1.001359         155.272
0.304                  0.9989711        154.5059
0.308                  0.9967509        153.8021
0.312                  0.9950822        153.1519
0.316                  0.9942535        152.5381
0.32                   0.9944067        151.9379
0.324                  0.9955119        151.3273
0.328                  0.9973726        150.6852
0.332                  0.9996622        149.9971
0.336                   1.001982        149.2577
0.34                    1.003932        148.4714
0.344                   1.005178        147.6514
0.348                   1.005509         146.817
0.352                   1.004871        145.9908
0.356                   1.003374        145.1948
0.36                    1.001277        144.4465
0.364                  0.9989433        143.7562
0.368                  0.9967795        143.1249
0.372                  0.9951638        142.5441
0.376                  0.9943809        141.9967
0.38                   0.9945682        141.4603
0.384                   0.995692         140.911
0.388                  0.9975532        140.3281
0.392                  0.9998238        139.6977
0.396                   1.002105        139.0148
0.4                        1.004        138.2842
0.404                   1.005181        137.5196
0.408                   1.005443        136.7406
0.412                   1.004741        135.9699
0.416                   1.003197        135.2293
0.42                    1.001077         134.536
0.424                  0.9987506           133.9
0.428                   0.996626        133.3214
0.432                  0.9950785        132.7912
0.436                  0.9943826        132.2915
0.44                   0.9946637        131.7995
0.444                  0.9958721        131.2916
0.448                  0.9977933        130.7473
0.452                   1.000087        130.1533
0.456                   1.002349        129.5056
0.46                    1.004183        128.8103
0.464                   1.005267        128.0818
0.468                   1.005412        127.3405
0.472                   1.004591        126.6096
0.476                   1.002945        125.9106
0.48                     1.00076        125.2604
0.484                  0.9984171        124.6678
0.488                  0.9963311        124.1321
0.492                  0.9948728        123.6426
0.496                  0.9943045        123.1806
0.5                    0.9947298        122.7224
0.504                  0.9960748        122.2442
0.508                  0.9981011         121.726
0.512                   1.000449        121.1555
0.516                   1.002702        120.5303
0.52                    1.004465        119.8577
0.524                   1.005427        119.1536
0.528                   1.005417        118.4395
0.532                   1.004435         117.739
0.536                   1.002649        117.0738
0.54                     1.00037        116.4598
0.544                  0.9979991        115.9047
0.548                  0.9959563         115.406
0.552                   0.994608        114.9514
0.556                   0.994199        114.5206
0.56                   0.9948056        114.0891
0.564                  0.9963219        113.6327
0.568                   0.998478        113.1321
0.572                    1.00089        112.5765
0.576                    1.00313         111.965
0.58                    1.004802         111.307
0.584                   1.005608          110.62
0.588                   1.005404        109.9267
0.592                   1.004222        109.2515
0.596                   1.002264        108.6156
0.6                     0.999873        108.0343
0.604                  0.9974696        107.5136
0.608                  0.9954828        107.0489
0.612                  0.9942714        106.6257
0.616                   0.994057         106.222
0.62                   0.9948822        105.8121
0.624                  0.9966022        105.3718
0.628                  0.9989107        104.8827
0.632                   1.001396        104.3354
0.636                   1.003616        103.7313
0.64                    1.005177        103.0819
0.644                     1.0058        102.4068
0.648                   1.005371        101.7302
0.652                    1.00396        101.0767
0.656                   1.001811        100.4676
0.66                   0.9993005        99.91684
0.664                  0.9968725        99.42834
0.668                  0.9949634        98.99521
0.672                  0.9939201        98.60048
0.676                  0.9939359        98.22012
0.68                   0.9950132        97.82739
0.684                  0.9969619        97.39802
0.688                  0.9994343        96.91464
0.692                   1.001989        96.36999
0.696                    1.00417        95.76789
0.7                     1.005589        95.12244
0.704                   1.005991        94.45535
0.708                   1.005299        93.79228
0.712                   1.003627        93.15852
0.716                   1.001265        92.57475
0.72                    0.998628        92.05336
0.724                  0.9961844        91.59604
0.728                  0.9943751        91.19305
0.732                  0.9935316        90.82464
0.736                  0.9938123        90.46464
0.74                   0.9951728         90.0852
0.744                  0.9973714        89.66224
0.748                   1.000015        89.17982
0.752                   1.002632        88.63305
0.756                   1.004754        88.02858
0.76                    1.006001        87.38335
0.764                   1.006147         86.7214
0.768                   1.005159        86.06993
0.772                   1.003203        85.45462
0.776                   1.000618        84.89546
0.78                   0.9978596        84.40295
0.784                   0.995422        83.97602
0.788                  0.9937473        83.60174
0.792                  0.9931453        83.25736
0.796                  0.9937328        82.91437
0.8                    0.9954103        82.54398
0.804                  0.9978799        82.12253
0.808                   1.000699        81.63591
0.812                   1.003364          81.082
0.816                   1.005398        80.47067
0.82                    1.006434        79.82196
0.824                   1.006282        79.16241
0.828                   1.004958        78.52072
0.832                   1.002687        77.92293
0.836                  0.9998641        77.38795
0.84                   0.9969875        76.92406
0.844                  0.9945746        76.52698
0.848                   0.993066        76.18017
0.852                  0.9927432        75.85762
0.856                  0.9936739        75.52846
0.86                   0.9956965        75.16302
0.864                  0.9984504         74.7384
0.868                   1.001442        74.24276
0.872                   1.004134        73.67715
0.876                   1.006043        73.05506
0.88                    1.006825        72.39988
0.884                   1.006329        71.74076
0.888                   1.004632        71.10793
0.892                   1.002021         70.5275
0.896                  0.9989529        70.01707
0.9                    0.9959715        69.58214
0.904                  0.9936159         69.2148
0.908                  0.9923204        68.89445
0.912                  0.9923305        68.59146
0.916                  0.9936554        68.27261
0.92                   0.9960633        67.90752
0.924                  0.9991244        67.47448
0.928                    1.00229         66.9643
0.932                   1.004991        66.38177
0.936                   1.006743        65.74436
0.94                    1.007225        65.07909
0.944                   1.006339        64.41793
0.948                   1.004226        63.79254
0.952                   1.001248        63.22897
0.956                  0.9979258        62.74303
0.96                   0.9948517        62.33707
0.964                  0.9925853        61.99889
0.968                  0.9915481        61.70343
0.972                  0.9919419        61.41715
0.976                  0.9937072        61.10444
0.98                   0.9965332        60.73446
0.984                  0.9999138        60.28708
0.988                   1.003242        59.75638
0.992                    1.00592        59.15132
0.996                   1.007463        58.49386
1                       1.007584        57.81497
1.004                   1.006244        57.14957
1.008                   1.003662        56.53075
1.012                   1.000279        55.98424
1.016                  0.9966885        55.52366
1.02                   0.9935347        55.14758
1.024                  0.9913955        54.83887
1.028                  0.9906732         54.5674
1.032                  0.9915161        54.29537
1.036                  0.9937847        53.98469
1.04                    0.997078        53.60433
1.044                   1.000806        53.13623
1.048                   1.004299        52.57829
1.052                   1.006929         51.9443
1.056                   1.008217        51.26118
1.06                    1.007917        50.56431
1.064                   1.006061        49.89175
1.068                   1.002953        49.27803
1.072                   0.999127        48.74834
1.076                  0.9952574        48.31364
1.08                   0.9920423        47.96796
1.084                  0.9900766        47.68854
1.088                  0.9897372        47.43941
1.092                  0.9911064        47.17811
1.096                  0.9939518        46.86396
1.1                    0.9977684        46.46603
1.104                   1.001872         45.9689
1.108                   1.005525        45.37499
1.112                   1.008067        44.70366
1.116                   1.009032        43.98749
1.12                    1.008222        43.26678
1.124                   1.005752        42.58311
1.128                   1.002027        41.97259
1.132                  0.9976882        41.45964
1.136                  0.9935015        41.05207
1.14                   0.9902269        40.73843
1.144                  0.9884766        40.48932
1.148                  0.9885943        40.26198
1.152                  0.9905835        40.00856
1.156                  0.9941013        39.68552
1.16                   0.9985216        39.26229
1.164                   1.003052         38.7267
1.168                   1.006876        38.08646
1.172                   1.009301        37.36749
1.176                   1.009872         36.6089
1.18                    1.008455        35.85668
1.184                   1.005258        35.15658
1.188                   1.000809        34.54656
1.192                  0.9958738        34.05012
1.196                   0.991329        33.67107
1.2                    0.9880077        33.39169
1.204                  0.9865412        33.17422
1.208                  0.9872323        32.96778
1.212                  0.9899877        32.71796
1.216                  0.9943303        32.37806
1.22                   0.9994877        31.91787
1.224                   1.004536        31.32928
1.228                   1.008566         30.6265
1.232                   1.010841        29.84316
1.236                   1.010923        29.02633
1.24                    1.008747        28.22902
1.244                    1.00464        27.50221
1.248                  0.9992764        26.88629
1.252                  0.9935793        26.40405
1.256                  0.9885643        26.05473
1.26                   0.9851601        25.81242
1.264                  0.9840269         25.6291
1.268                  0.9854194        25.44337
1.272                  0.9891254        25.19249
1.276                  0.9944998        24.82535
1.28                    1.000586        24.31236
1.284                   1.006291        23.65005
1.288                   1.010584        22.86069
1.292                   1.012668        21.98761
1.296                   1.012117         21.0879
1.3                     1.008949        20.22376
1.304                   1.003638        19.45329
1.308                  0.9970463        18.82103
1.312                   0.990306        18.34933
1.316                  0.9846253        18.03201
1.32                   0.9810713        17.83261
1.324                  0.9803565        17.68911
1.328                  0.9826825         17.5253
1.332                  0.9876843        17.26651
1.336                  0.9944928        16.85507
1.34                    1.001898        16.26123
1.344                   1.008572        15.48741
1.348                     1.0133        14.56616
1.352                   1.015188        13.55362
1.356                   1.013802         12.5206
1.36                    1.009255        11.54258
1.364                   1.002206        10.68889
1.368                  0.9937797        10.01154
1.372                  0.9854107        9.534431
1.376                  0.9786047        9.245226
1.38                   0.9746624        9.092982
1.384                  0.9744088        8.994685
1.388                  0.9780001        8.850988
1.392                  0.9848678        8.567389
1.396                   0.993818        8.074252
1.4                     1.003257        7.339683
1.404                    1.01148        6.373065
1.408                   1.016964        5.220757
1.412                   1.018614        3.957183
1.416                   1.015934        2.673953
1.42                    1.009126        1.468157
1.424                  0.9990958       0.4296761
1.428                  0.9873657      -0.3729837
1.432                  0.9758746      -0.9077799
1.436                  0.9666766       -1.192281
1.44                   0.9615557       -1.299324
1.444                  0.9616372       -1.349161
1.448                  0.9671005       -1.486306
1.452                  0.9770927        -1.84714
1.456                  0.9898782       -2.530028
1.46                    1.003167       -3.577918
1.464                   1.014525       -4.975897
1.468                   1.021767       -6.659427
1.472                    1.02328        -8.52706
1.476                    1.01826        -10.4535
1.48                    1.006857       -12.30209
1.484                  0.9902393       -13.93855
1.488                  0.9705422       -15.24894
1.492                  0.9506832       -16.16442
1.496                  0.9339818       -16.69103
1.5                    0.9235733       -16.93476
1.504                  0.9216892       -17.10412
1.508                  0.9290106       -17.47594
1.512                  0.9443596       -18.33116
1.516                  0.9648618       -19.89108
1.52                   0.9864822        -22.2838
1.524                   1.004691       -25.54768
1.528                    1.01505       -29.65718
1.532                   1.013628       -34.55317
1.536                  0.9972604       -40.16812
1.54                   0.9636856       -46.44426
1.544                  0.9116125       -53.34817
1.548                  0.8407402       -60.88721
1.552                  0.7517626       -69.13756
