! TOUCHSTONE file generated by CST MICROWAVE STUDIO
! Date and time: Thu Jun  9 15:16:45 2022
! Project name: AppElm_antenne_patch_Alumina.cst
! Parameters = {L=30.5; W=41.8; e=0.035; h=1.6; lambda=0.190476; ls=90; w0=1.12; w1=0.373; ws=90; y0=14; y1=11.5}
! Header version: 2018
! Port assignment regex: !\s*Touchstone port\s*([0-9]+)\s*=\s*(CST MWS port|CST DS port)\s*([0-9]+|Zmin|Zmax)\s*\(\"(.*)\"\)(\s*mode\s*([0-9]+))?.*
! Touchstone port assignment:
! Touchstone port 1 = CST MWS port 1 ("")
# GHz S MA R 50
0                      0.9803556              -0
0.004                  0.9814505       -10.41234
0.008                  0.9845879       -20.71421
0.012                  0.9893498       -30.80199
0.016                  0.9951122       -40.58442
0.02                    1.001138       -49.98563
0.024                   1.006681       -58.94595
0.028                   1.011081       -67.42078
0.032                   1.013849       -75.37866
0.036                   1.014715       -82.79946
0.04                    1.013657       -89.67296
0.044                   1.010897       -95.99851
0.048                   1.006868       -101.7855
0.052                   1.002155       -107.0543
0.056                  0.9974188       -111.8371
0.06                   0.9933035       -116.1781
0.064                  0.9903467       -120.1321
0.068                  0.9889036        -123.761
0.072                  0.9890979       -127.1292
0.076                  0.9908099       -130.2976
0.08                   0.9937039       -133.3183
0.084                  0.9972898       -136.2302
0.088                   1.001003       -139.0577
0.092                   1.004291       -141.8103
0.096                   1.006695       -144.4851
0.1                     1.007906       -147.0698
0.104                   1.007806       -149.5472
0.108                   1.006473        -151.899
0.112                   1.004166       -154.1099
0.116                   1.001276       -156.1712
0.12                   0.9982757       -158.0831
0.124                  0.9956359       -159.8557
0.128                  0.9937588       -161.5089
0.132                  0.9929145       -163.0696
0.136                  0.9931996       -164.5686
0.14                   0.9945276       -166.0361
0.144                  0.9966479       -167.4969
0.148                  0.9991928       -168.9679
0.152                   1.001741        -170.456
0.156                   1.003885        -171.958
0.16                    1.005298       -173.4622
0.164                   1.005777       -174.9512
0.168                   1.005275       -176.4048
0.172                     1.0039       -177.8036
0.176                   1.001898       -179.1323
0.18                   0.9996077        179.6178
0.184                  0.9974124         178.447
0.188                  0.9956709        177.3469
0.192                  0.9946616        176.3018
0.196                  0.9945362        175.2905
0.2                     0.995297        174.2906
0.204                  0.9967976        173.2813
0.208                  0.9987722        172.2476
0.212                   1.000882        171.1821
0.216                   1.002776        170.0854
0.22                    1.004143        168.9663
0.224                    1.00477        167.8395
0.228                   1.004564         166.723
0.232                   1.003576        165.6353
0.236                   1.001981        164.5921
0.24                    1.000055        163.6038
0.244                  0.9981258        162.6739
0.248                  0.9965195        161.7979
0.252                  0.9955045        160.9642
0.256                  0.9952463        160.1557
0.26                   0.9957797        159.3531
0.264                  0.9970039         158.538
0.268                  0.9987011         157.696
0.272                   1.000577        156.8194
0.276                   1.002311        155.9077
0.28                    1.003612        154.9682
0.284                   1.004264        154.0135
0.288                   1.004166        153.0604
0.292                   1.003339        152.1263
0.296                   1.001932        151.2265
0.3                     1.000187        150.3718
0.304                  0.9984057        149.5666
0.308                  0.9968939        148.8078
0.312                  0.9959103        148.0856
0.316                  0.9956215        147.3846
0.32                   0.9960729        146.6871
0.324                  0.9971812        145.9757
0.328                  0.9987499        145.2367
0.332                   1.000505        144.4624
0.336                   1.002142         143.652
0.34                    1.003381        142.8119
0.344                   1.004013        141.9545
0.348                   1.003931        141.0954
0.352                   1.003155        140.2514
0.356                    1.00182        139.4377
0.36                    1.000158        138.6649
0.364                  0.9984576        137.9374
0.368                   0.997014        137.2525
0.372                  0.9960785        136.6009
0.376                  0.9958137        135.9679
0.38                   0.9962641        135.3363
0.384                  0.9973485        134.6894
0.388                  0.9988751        134.0139
0.392                   1.000576        133.3024
0.396                   1.002154        132.5544
0.4                     1.003337        131.7764
0.404                    1.00392        130.9804
0.408                   1.003803        130.1822
0.412                   1.003009        129.3983
0.416                   1.001676        128.6434
0.42                    1.000034         127.928
0.424                  0.9983719         127.256
0.428                  0.9969796        126.6247
0.432                  0.9961026        126.0243
0.436                  0.9958955        125.4401
0.44                   0.9963944        124.8551
0.444                  0.9975109        124.2528
0.448                  0.9990472        123.6204
0.452                   1.000733        122.9511
0.456                   1.002272        122.2448
0.46                    1.003394        121.5086
0.464                   1.003905         120.755
0.468                   1.003714             120
0.472                   1.002854        119.2602
0.476                   1.001475          118.55
0.48                   0.9998161        117.8793
0.484                  0.9981685        117.2515
0.488                  0.9968234        116.6631
0.492                  0.9960192        116.1036
0.496                  0.9959004        115.5579
0.5                     0.996489        115.0086
0.504                  0.9976813        114.4393
0.508                  0.9992664        113.8379
0.512                   1.000964         113.198
0.516                   1.002475        112.5208
0.52                    1.003533        111.8141
0.524                   1.003952        111.0913
0.528                   1.003657        110.3689
0.532                   1.002697        109.6635
0.536                   1.001238        108.9895
0.54                   0.9995359        108.3562
0.544                  0.9978904        107.7659
0.548                  0.9965935         107.214
0.552                  0.9958775        106.6891
0.556                  0.9958724        106.1751
0.56                   0.9965809        105.6542
0.564                  0.9978787        105.1101
0.568                  0.9995354        104.5312
0.572                   1.001257        103.9122
0.576                   1.002739        103.2555
0.58                    1.003718        102.5701
0.584                   1.004019        101.8705
0.588                   1.003587        101.1738
0.592                   1.002494        100.4971
0.596                   1.000929        99.85433
0.6                    0.9991657        99.25394
0.604                  0.9975168        98.69728
0.608                  0.9962764        98.17813
0.612                  0.9956684        97.68368
0.616                  0.9958047        97.19677
0.62                   0.9966639        96.69908
0.624                  0.9980948        96.17441
0.628                  0.9998433        95.61176
0.632                   1.001598        95.00718
0.636                   1.003048         94.3644
0.64                    1.003934        93.69417
0.644                   1.004096        93.01216
0.648                   1.003503        92.33642
0.652                   1.002253        91.68426
0.656                   1.000564        91.06924
0.66                   0.9987326        90.49884
0.664                  0.9970849        89.97289
0.668                   0.995917        89.48341
0.672                  0.9954417        89.01595
0.676                  0.9957487        88.55209
0.68                   0.9967869        88.07284
0.684                  0.9983731        87.56221
0.688                   1.000225         87.0101
0.692                   1.002013        86.41407
0.696                   1.003418        85.77969
0.7                     1.004188        85.11945
0.704                   1.004181        84.45059
0.708                   1.003394        83.79207
0.712                    1.00196        83.16147
0.716                   1.000128        82.57182
0.72                   0.9982207        82.02934
0.724                  0.9965794        81.53206
0.728                  0.9955004        81.06998
0.732                  0.9951824         80.6267
0.736                  0.9956878        80.18241
0.74                   0.9969302        79.71746
0.744                    0.99869        79.21616
0.748                   1.000653        78.66958
0.752                    1.00247        78.07708
0.756                   1.003813        77.44632
0.76                    1.004442        76.79188
0.764                   1.004238         76.1326
0.768                    1.00323        75.48849
0.772                    1.00159        74.87729
0.776                  0.9996039        74.31132
0.78                   0.9976234        73.79526
0.784                  0.9960041        73.32501
0.788                   0.995041        72.88818
0.792                  0.9949135        72.46624
0.796                  0.9956512         72.0378
0.8                    0.9971269        71.58271
0.804                  0.9990789        71.08572
0.808                   1.001159        70.53939
0.812                   1.002994        69.94519
0.816                   1.004254        69.31323
0.82                     1.00471        68.66037
0.824                   1.004273        68.00727
0.828                    1.00301        67.37496
0.832                   1.001139        66.78128
0.836                   0.998985        66.23757
0.84                   0.9969315        65.74667
0.844                  0.9953486        65.30197
0.848                  0.9945268        64.88839
0.852                  0.9946213          64.485
0.856                  0.9956229        64.06879
0.86                   0.9973567        63.61915
0.864                   0.999514        63.12158
0.868                   1.001709        62.57039
0.872                   1.003547        61.96955
0.876                   1.004695        61.33194
0.88                    1.004942        60.67695
0.884                   1.004234        60.02721
0.888                   1.002684        59.40478
0.892                   1.000558        58.82739
0.896                  0.9982288        58.30518
0.9                    0.9961123         57.8387
0.904                  0.9945923        57.41846
0.908                  0.9939508        57.02626
0.912                  0.9943129        56.63853
0.916                  0.9956225        56.23063
0.92                     0.99765        55.78156
0.924                   1.000034        55.27787
0.928                   1.002349        54.71604
0.932                   1.004176        54.10296
0.936                   1.005185        53.45461
0.94                    1.005186        52.79321
0.944                   1.004165         52.1435
0.948                   1.002291        51.52858
0.952                  0.9998853        50.96588
0.956                  0.9973721        50.46404
0.96                   0.9952017        50.02091
0.964                  0.9937708        49.62357
0.968                  0.9933481        49.25038
0.972                  0.9940217        48.87484
0.976                  0.9956803        48.47061
0.98                   0.9980316        48.01651
0.984                   1.000656        47.50048
0.988                   1.003082         46.9216
0.992                   1.004872        46.29015
0.996                   1.005697        45.62567
1                       1.005396        44.95351
1.004                   1.004006        44.30068
1.008                   1.001757        43.69129
1.012                  0.9990361        43.14235
1.016                  0.9963234        42.66052
1.02                   0.9941075        42.24045
1.024                  0.9927966        41.86526
1.028                  0.9926411        41.50927
1.032                   0.993683        41.14277
1.036                  0.9957462        40.73761
1.04                   0.9984658        40.27262
1.044                   1.001356        39.73748
1.048                   1.003898        39.13445
1.052                   1.005629        38.47774
1.056                   1.006229         37.7909
1.06                    1.005572        37.10284
1.064                   1.003755        36.44307
1.068                   1.001079        35.83677
1.072                  0.9980064        35.30026
1.076                  0.9950818        34.83783
1.08                   0.9928353        34.44028
1.084                  0.9916858        34.08602
1.088                  0.9918586        33.74476
1.092                  0.9933402         33.3831
1.096                  0.9958766        32.97099
1.1                    0.9990186        32.48749
1.104                   1.002204        31.92452
1.108                   1.004859        31.28812
1.112                   1.006498        30.59711
1.116                   1.006811        29.87976
1.12                    1.005717        29.16908
1.124                   1.003382        28.49747
1.128                   1.000194        27.89123
1.132                  0.9967034        27.36588
1.136                  0.9935309        26.92276
1.14                   0.9912551          26.548
1.144                   0.990305        26.21442
1.148                  0.9908754        25.88611
1.152                   0.992884        25.52539
1.156                  0.9959836        25.10006
1.16                   0.9996243        24.58957
1.164                   1.003153        23.98862
1.168                   1.005933        23.30774
1.172                   1.007451        22.57133
1.176                   1.007411        21.81321
1.18                    1.005785        21.07131
1.184                   1.002824        20.38149
1.188                  0.9990201        19.77147
1.192                  0.9950323        19.25574
1.196                  0.9915728        18.83205
1.2                    0.9892795        18.48082
1.204                  0.9885941        18.16772
1.208                  0.9896724        17.85009
1.212                  0.9923471        17.48486
1.216                  0.9961552        17.03724
1.22                    1.000421        16.48716
1.224                   1.004381        15.83281
1.228                   1.007316        15.09033
1.232                    1.00868        14.29091
1.236                   1.008191        13.47534
1.24                    1.005887        12.68772
1.244                    1.00212        11.96839
1.248                  0.9975176        11.34716
1.252                  0.9928742        10.83749
1.256                  0.9890229        10.43275
1.26                   0.9866812        10.10602
1.264                  0.9863117        9.813976
1.268                  0.9880233        9.504803
1.272                  0.9915419        9.128425
1.276                   0.996256        8.646435
1.28                    1.001328        8.039293
1.284                   1.005846        7.309405
1.288                   1.008984        6.480043
1.292                   1.010144        5.591023
1.296                   1.009057        4.692258
1.3                     1.005838        3.836158
1.304                   1.000976        3.069508
1.308                  0.9952693        2.425492
1.312                  0.9897021        1.916819
1.316                  0.9852778        1.531447
1.32                   0.9828338        1.232606
1.324                  0.9828724       0.9642697
1.328                  0.9854489       0.6616205
1.332                   0.990148       0.2641413
1.336                  0.9961543      -0.2722346
1.34                    1.002402      -0.9670185
1.344                   1.007766       -1.812499
1.348                   1.011256       -2.776069
1.352                   1.012185       -3.806088
1.356                   1.010282       -4.839823
1.36                    1.005754       -5.812505
1.364                  0.9992673       -6.667012
1.368                  0.9918673       -7.363674
1.372                  0.9848193       -7.889087
1.376                  0.9793983       -8.261887
1.38                    0.976648       -8.532891
1.384                  0.9771623       -8.777643
1.388                  0.9809438       -9.081939
1.392                  0.9873816       -9.523973
1.396                  0.9953573       -10.15836
1.4                     1.003449       -11.00639
1.404                   1.010183        -12.0539
1.408                   1.014284       -13.25534
1.412                   1.014881       -14.54172
1.416                   1.011653        -15.8304
1.42                    1.004902       -17.03588
1.424                  0.9955414       -18.08172
1.428                  0.9850023       -18.91341
1.432                  0.9750345       -19.51148
1.436                  0.9674237       -19.90156
1.44                   0.9636512       -20.15685
1.444                   0.964567       -20.38866
1.448                  0.9701684       -20.72467
1.452                  0.9795582       -21.28124
1.456                  0.9910979         -22.139
1.46                    1.002706        -23.3293
1.464                   1.012219       -24.83284
1.468                   1.017735       -26.58686
1.472                     1.0179       -28.49629
1.476                   1.012112       -30.44545
1.48                     1.00065       -32.31006
1.484                  0.9847144       -33.97083
1.488                  0.9663616       -35.33129
1.492                  0.9483037       -36.34092
1.496                  0.9335335       -37.02101
1.5                    0.9247756       -37.48373
1.504                  0.9238502       -37.92925
1.508                  0.9311354       -38.61186
1.512                  0.9453423       -39.78348
1.516                  0.9636924       -41.64066
1.52                   0.9824021       -44.29803
1.524                  0.9972688       -47.79226
1.528                    1.00419       -52.10452
1.532                  0.9995384       -57.18694
1.536                  0.9804068       -62.98544
1.54                   0.9447407       -69.45743
1.544                  0.8914115       -76.58749
1.548                  0.8202497       -84.40698
1.552                  0.7320722       -93.02847
