! TOUCHSTONE file generated by CST MICROWAVE STUDIO
! Date and time: Thu Jun  9 15:16:38 2022
! Project name: AppElm_antenne_patch_Alumina.cst
! Parameters = {L=30.5; W=41.8; e=0.035; h=1.6; lambda=0.190476; ls=90; w0=1.12; w1=0.373; ws=90; y0=14; y1=8}
! Header version: 2018
! Port assignment regex: !\s*Touchstone port\s*([0-9]+)\s*=\s*(CST MWS port|CST DS port)\s*([0-9]+|Zmin|Zmax)\s*\(\"(.*)\"\)(\s*mode\s*([0-9]+))?.*
! Touchstone port assignment:
! Touchstone port 1 = CST MWS port 1 ("")
# GHz S MA R 50
0                      0.9780276              -0
0.004                  0.9792017       -10.30358
0.008                   0.982573       -20.49807
0.012                  0.9877114        -30.4813
0.016                  0.9939721        -40.1634
0.02                    1.000588       -49.46988
0.024                   1.006772       -58.34222
0.028                   1.011818       -66.73664
0.032                   1.015178       -74.62198
0.036                   1.016524       -81.97758
0.04                    1.015779       -88.79177
0.044                   1.013119       -95.06141
0.048                   1.008949       -100.7923
0.052                   1.003852       -106.0003
0.056                  0.9985202        -110.713
0.06                     0.99366       -114.9703
0.064                  0.9899015       -118.8239
0.068                  0.9877082       -122.3352
0.072                  0.9873126       -125.5705
0.076                  0.9886853       -128.5953
0.08                   0.9915461       -131.4683
0.084                  0.9954135       -134.2356
0.088                  0.9996845       -136.9282
0.092                   1.003727        -139.561
0.096                   1.006969        -142.134
0.1                     1.008979       -144.6353
0.104                   1.009518       -147.0456
0.108                   1.008564       -149.3422
0.112                   1.006313       -151.5035
0.116                   1.003144       -153.5134
0.12                   0.9995656       -155.3647
0.124                  0.9961371       -157.0613
0.128                  0.9933868        -158.619
0.132                  0.9917275       -160.0642
0.136                  0.9913927       -161.4305
0.14                   0.9924008       -162.7541
0.144                   0.994556        -164.068
0.148                   0.997484       -165.3977
0.152                   1.000699       -166.7575
0.156                   1.003683       -168.1495
0.16                    1.005968       -169.5643
0.164                   1.007209       -170.9833
0.168                   1.007232       -172.3824
0.172                   1.006057       -173.7356
0.176                   1.003894       -175.0198
0.18                    1.001105        -176.218
0.184                  0.9981551       -177.3225
0.188                  0.9955289       -178.3368
0.192                   0.993656        -179.275
0.196                  0.9928389        179.8396
0.2                    0.9932002        178.9787
0.204                  0.9946639        178.1135
0.208                  0.9969697        177.2199
0.212                  0.9997208        176.2818
0.216                   1.002453        175.2944
0.22                    1.004714        174.2633
0.224                   1.006136         173.204
0.228                   1.006492        172.1385
0.232                   1.005736        171.0919
0.236                   1.004003        170.0881
0.24                    1.001589        169.1463
0.244                  0.9989041        168.2774
0.248                  0.9964034        167.4822
0.252                  0.9945117        166.7508
0.256                  0.9935489        166.0641
0.26                   0.9936753        165.3968
0.264                  0.9948619        164.7221
0.268                  0.9968974        164.0164
0.272                  0.9994268        163.2632
0.276                   1.002014        162.4562
0.28                    1.004219        161.5995
0.284                    1.00567        160.7069
0.288                   1.006127        159.7993
0.292                   1.005517        158.9009
0.296                   1.003948        158.0357
0.3                      1.00169        157.2231
0.304                  0.9991299        156.4753
0.308                  0.9967093        155.7943
0.312                  0.9948466        155.1716
0.316                  0.9938651        154.5895
0.32                   0.9939341        154.0241
0.324                  0.9950386        153.4491
0.328                  0.9969825        152.8415
0.332                   0.999424        152.1849
0.336                   1.001937        151.4726
0.34                    1.004088        150.7085
0.344                   1.005508         149.906
0.348                   1.005956        149.0856
0.352                   1.005356        148.2715
0.356                   1.003814        147.4875
0.36                    1.001594        146.7531
0.364                  0.9990814        146.0802
0.368                  0.9967135         145.471
0.372                  0.9949049        144.9171
0.376                  0.9939744        144.4008
0.38                   0.9940865        143.8982
0.384                  0.9952211        143.3834
0.388                  0.9971768        142.8337
0.392                  0.9996084         142.233
0.396                   1.002089        141.5753
0.4                     1.004187         140.865
0.404                   1.005537         140.116
0.408                   1.005907        139.3493
0.412                   1.005233         138.589
0.416                    1.00363        137.8592
0.42                    1.001376        137.1789
0.424                  0.9988622        136.5595
0.428                  0.9965296        136.0025
0.432                  0.9947907        135.4986
0.436                  0.9939546        135.0294
0.44                   0.9941718        134.5704
0.444                  0.9954041        134.0959
0.448                  0.9974333        133.5832
0.452                  0.9998988        133.0172
0.456                   1.002367        132.3928
0.46                    1.004402        131.7157
0.464                   1.005651        131.0009
0.468                   1.005894          130.27
0.472                   1.005087         129.548
0.476                   1.003369        128.8585
0.48                    1.001036        128.2204
0.484                  0.9984974        127.6439
0.488                  0.9962001        127.1293
0.492                  0.9945537        126.6658
0.496                   0.993854        126.2337
0.5                    0.9942288        125.8077
0.504                  0.9956132        125.3616
0.508                  0.9977615        124.8735
0.512                   1.000292        124.3292
0.516                   1.002757        123.7252
0.52                    1.004723        123.0687
0.524                   1.005843        122.3762
0.528                   1.005919        121.6707
0.532                   1.004936        120.9777
0.536                   1.003062        120.3208
0.54                    1.000623        119.7181
0.544                   0.998046        119.1787
0.548                  0.9957892        118.7008
0.552                  0.9942565        118.2719
0.556                  0.9937261        117.8706
0.56                   0.9942966        117.4704
0.564                  0.9958684        117.0451
0.568                  0.9981619        116.5731
0.572                   1.000768        116.0418
0.576                   1.003225        115.4494
0.58                    1.005098        114.8054
0.584                   1.006054         114.128
0.588                   1.005924        113.4417
0.592                   1.004725        112.7726
0.596                   1.002663        112.1441
0.6                     1.000097        111.5736
0.604                  0.9974791        111.0682
0.608                   0.995276        110.6241
0.612                  0.9938851        110.2265
0.616                  0.9935606        109.8519
0.62                   0.9943657        109.4728
0.624                  0.9961588        109.0625
0.628                  0.9986206        108.6004
0.632                   1.001312        108.0756
0.636                   1.003754        107.4887
0.64                    1.005514        106.8514
0.644                   1.006279        106.1841
0.648                    1.00591        105.5127
0.652                   1.004466        104.8641
0.656                   1.002196        104.2616
0.66                   0.9994959        103.7211
0.664                  0.9968447        103.2478
0.668                  0.9947175        102.8354
0.672                  0.9935003        102.4663
0.676                  0.9934183        102.1149
0.68                   0.9944921        101.7523
0.684                  0.9965319         101.352
0.688                  0.9991738        100.8943
0.692                   1.001946        100.3704
0.696                   1.004354        99.78361
0.7                      1.00597        99.14827
0.704                   1.006504        98.48724
0.708                   1.005856        97.82802
0.712                   1.004134        97.19807
0.716                   1.001633        96.62028
0.72                   0.9987917        96.10894
0.724                  0.9961158          95.667
0.728                   0.994087        95.28496
0.732                   0.993076        94.94238
0.736                  0.9932721        94.61135
0.74                   0.9946465        94.26174
0.744                  0.9969553        93.86697
0.748                  0.9997856        93.40897
0.752                   1.002632         92.8814
0.756                   1.004985        92.29048
0.76                    1.006426        91.65361
0.764                   1.006695        90.99613
0.768                   1.005736        90.34722
0.772                    1.00371        89.73487
0.776                   1.000967        89.18127
0.78                   0.9979904        88.69884
0.784                  0.9953116        88.28761
0.788                  0.9934161         87.9348
0.792                  0.9926537        87.61669
0.796                  0.9931708        87.30291
0.8                     0.994881        86.96214
0.804                  0.9974804         86.5682
0.808                   1.000504         86.1049
0.812                    1.00341        85.56876
0.816                    1.00568        84.96934
0.82                    1.006907        84.32736
0.824                   1.006866        83.67085
0.828                   1.005555        83.03063
0.832                   1.003195        82.43509
0.836                   1.000194        81.90548
0.84                   0.9970827        81.45193
0.844                  0.9944187        81.07116
0.848                  0.9926879        80.74664
0.852                  0.9922122         80.4511
0.856                  0.9930874         80.1516
0.86                   0.9951623        79.81582
0.864                   0.998067        79.41828
0.868                    1.00128        78.94503
0.872                   1.004227        78.39591
0.876                   1.006378        77.78429
0.88                    1.007347        77.13439
0.884                   1.006952        76.47705
0.888                   1.005249        75.84475
0.892                   1.002528        75.26611
0.896                  0.9992618        74.76107
0.9                    0.9960288        74.33703
0.904                  0.9934123        73.98691
0.908                  0.9918932        73.68994
0.912                  0.9917586        73.41499
0.916                  0.9930442        73.12655
0.92                   0.9955257        72.79141
0.924                    0.99876        72.38519
0.928                   1.002167        71.89667
0.932                   1.005137        71.32953
0.936                   1.007137        70.70126
0.94                    1.007803        70.03995
0.944                   1.007005        69.37943
0.948                   1.004869        68.75378
0.952                   1.001758        68.19169
0.956                  0.9982152         67.7114
0.96                   0.9948708         67.3171
0.964                  0.9923318        66.99736
0.968                  0.9910694         66.7267
0.972                  0.9913263        66.46985
0.976                  0.9930692        66.18861
0.98                   0.9959912        65.84917
0.984                  0.9995692        65.42863
0.988                   1.003161        64.91906
0.992                   1.006123        64.32848
0.996                    1.00792        63.67901
1                       1.008222        63.00292
1.004                   1.006959        62.33715
1.008                   1.004333        61.71743
1.012                   1.000793        61.17227
1.016                  0.9969569        60.71788
1.02                   0.9935117        60.35454
1.024                  0.9910865        60.06587
1.028                  0.9901361        59.82102
1.032                  0.9908505        59.58022
1.036                  0.9931148         59.3025
1.04                   0.9965289        58.95361
1.044                   1.000481        58.51268
1.048                   1.004263        57.97561
1.052                   1.007194        57.35537
1.056                   1.008746        56.67925
1.06                    1.008626        55.98409
1.064                   1.006833        55.31024
1.068                    1.00366        54.69508
1.072                  0.9996499        54.16677
1.076                  0.9955065        53.73892
1.08                   0.9919752        53.40742
1.084                  0.9897074           53.15
1.088                   0.989135        52.92979
1.092                  0.9903836        52.70202
1.096                  0.9932438        52.42277
1.1                    0.9972081         52.0577
1.104                   1.001566        51.58843
1.108                   1.005536        51.01542
1.112                   1.008402        50.35734
1.116                   1.009642        49.64731
1.12                    1.009012        48.92732
1.124                   1.006592         48.2415
1.128                   1.002779        47.62905
1.132                  0.9982254        47.11763
1.136                  0.9937317         46.7178
1.14                   0.9901113        46.42014
1.144                  0.9880379         46.1955
1.148                  0.9879151        45.99997
1.152                  0.9897909        45.78302
1.156                  0.9933442        45.49749
1.16                   0.9979431        45.10909
1.164                   1.002763        44.60254
1.168                   1.006939        43.98365
1.172                   1.009716        43.27765
1.176                    1.01058        42.52444
1.18                    1.009345        41.77198
1.184                   1.006188        41.06879
1.188                   1.001626        40.45626
1.192                    0.99644        39.96146
1.196                  0.9915482        39.59131
1.2                    0.9878434        39.32996
1.204                  0.9860261           39.14
1.208                  0.9864637        38.96906
1.212                   0.989111        38.75948
1.216                  0.9935116        38.46053
1.22                   0.9988836        38.03797
1.224                   1.004265        37.48021
1.228                    1.00869        36.79962
1.232                   1.011355        36.02926
1.236                   1.011755        35.21715
1.24                    1.009771        34.41854
1.244                   1.005693        33.68746
1.248                   1.000188        33.06827
1.252                  0.9941974        32.58767
1.256                   0.988784        32.24837
1.26                   0.9849454        32.02664
1.264                  0.9834207        31.87471
1.268                  0.9845375         31.7292
1.272                  0.9881362        31.52366
1.276                  0.9935927        31.20232
1.28                   0.9999366        30.73087
1.284                   1.006031         30.1023
1.288                   1.010779        29.33674
1.292                   1.013307        28.47707
1.296                   1.013115        27.58149
1.3                     1.010159        26.71469
1.304                   1.004871        25.93836
1.308                  0.9981061        25.30145
1.312                  0.9910171        24.83095
1.316                  0.9848676        24.52475
1.32                   0.9808059        24.34898
1.324                  0.9796367        24.24185
1.328                  0.9816473         24.1248
1.332                  0.9865339         23.9186
1.336                  0.9934506        23.55997
1.34                     1.00117        23.01377
1.344                   1.008311        22.27834
1.348                   1.013583        21.38383
1.352                   1.015999        20.38586
1.356                   1.015042        19.35651
1.36                    1.010749        18.37403
1.364                    1.00373        17.51191
1.368                  0.9950963        16.82733
1.372                   0.986304        16.34991
1.376                  0.9789251        16.07249
1.38                   0.9743583        15.94761
1.384                  0.9735433        15.89276
1.388                  0.9767443        15.80568
1.392                    0.98347        15.58612
1.396                  0.9925568        15.15742
1.4                     1.002391        14.48102
1.404                   1.011204        13.56128
1.408                   1.017379        12.44163
1.412                   1.019712        11.19577
1.416                   1.017598        9.916493
1.42                    1.011145        8.703893
1.424                   1.001189        7.652601
1.428                  0.9892213         6.83752
1.432                  0.9772018        6.298264
1.436                   0.967259        6.024845
1.44                   0.9613027        5.950103
1.444                  0.9606141        5.955464
1.448                  0.9655255        5.892992
1.452                   0.975299        5.618542
1.456                  0.9882506        5.023976
1.46                    1.002073        4.057182
1.464                   1.014255        2.726229
1.468                   1.022493        1.091626
1.472                   1.025034      -0.7466668
1.476                   1.020924       -2.662717
1.48                    1.010177       -4.517267
1.484                  0.9938398       -6.171131
1.488                  0.9739717       -7.502563
1.492                  0.9534732       -8.431525
1.496                  0.9357321       -8.950191
1.5                    0.9240498       -9.150945
1.504                  0.9209078       -9.233974
1.508                  0.9272696       -9.477498
1.512                  0.9421994        -10.1737
1.516                  0.9629667       -11.56001
1.52                   0.9855661       -13.77926
1.524                   1.005403       -16.87929
1.528                   1.017912       -20.83829
1.532                    1.01901       -25.59646
1.536                   1.005365       -31.08266
1.54                   0.9745562       -37.23351
1.544                  0.9251354        -44.0078
1.548                  0.8566538       -51.40161
1.552                  0.7696605       -59.47275
