! TOUCHSTONE file generated by CST MICROWAVE STUDIO
! Date and time: Thu Jun  9 15:16:44 2022
! Project name: AppElm_antenne_patch_Alumina.cst
! Parameters = {L=30.5; W=41.8; e=0.035; h=1.6; lambda=0.190476; ls=90; w0=1.12; w1=0.373; ws=90; y0=14; y1=11}
! Header version: 2018
! Port assignment regex: !\s*Touchstone port\s*([0-9]+)\s*=\s*(CST MWS port|CST DS port)\s*([0-9]+|Zmin|Zmax)\s*\(\"(.*)\"\)(\s*mode\s*([0-9]+))?.*
! Touchstone port assignment:
! Touchstone port 1 = CST MWS port 1 ("")
# GHz S MA R 50
0                      0.9799742              -0
0.004                  0.9810827       -10.39449
0.008                  0.9842604       -20.67881
0.012                  0.9890874       -30.74969
0.016                  0.9949365       -40.51614
0.02                    1.001066        -49.9026
0.024                   1.006722        -58.8496
0.028                   1.011238       -67.31273
0.032                   1.014112       -75.26055
0.036                   1.015066       -82.67288
0.04                    1.014066       -89.53919
0.044                   1.011326       -95.85838
0.048                   1.007273       -101.6392
0.052                   1.002491        -106.901
0.056                  0.9976467       -111.6753
0.06                   0.9933943       -116.0054
0.064                  0.9902887       -119.9455
0.068                  0.9887045       -123.5573
0.072                  0.9887858       -126.9055
0.076                  0.9904297       -130.0519
0.08                   0.9933118       -133.0497
0.084                  0.9969442       -135.9392
0.088                   1.000756        -138.746
0.092                    1.00418       -141.4806
0.096                   1.006738       -144.1405
0.1                     1.008099       -146.7139
0.104                   1.008121        -149.183
0.108                   1.006864       -151.5288
0.112                   1.004572       -153.7349
0.116                   1.001636       -155.7912
0.12                   0.9985321       -157.6965
0.124                  0.9957479       -159.4597
0.128                  0.9937087       -161.0998
0.132                    0.99271       -162.6438
0.136                  0.9928749       -164.1228
0.14                   0.9941367        -165.568
0.144                  0.9962561       -167.0058
0.148                  0.9988654       -168.4547
0.152                   1.001532       -169.9229
0.156                   1.003831       -171.4082
0.16                    1.005407       -172.8997
0.164                   1.006032       -174.3796
0.168                   1.005634        -175.827
0.172                   1.004305       -177.2215
0.176                    1.00228       -178.5463
0.18                   0.9999049       -179.7912
0.184                  0.9975736        179.0457
0.188                  0.9956686        177.9569
0.192                   0.994496        176.9269
0.196                  0.9942361        175.9344
0.2                     0.994914        174.9559
0.204                  0.9963981        173.9692
0.208                   0.998425        172.9576
0.212                   1.000648         171.912
0.216                   1.002694         170.832
0.22                    1.004228        169.7257
0.224                   1.005007        168.6079
0.228                   1.004914        167.4971
0.232                   1.003979        166.4131
0.236                   1.002369         165.373
0.24                    1.000361        164.3889
0.244                  0.9982968        163.4657
0.248                  0.9965254        162.6001
0.252                  0.9953439        161.7807
0.256                  0.9949472        160.9903
0.26                   0.9953942        160.2086
0.264                  0.9965993        159.4155
0.268                  0.9983483        158.5951
0.272                   1.000337         157.738
0.276                   1.002226        156.8425
0.28                    1.003696        155.9151
0.284                   1.004504        154.9687
0.288                   1.004518        154.0205
0.292                   1.003745        153.0892
0.296                    1.00232        152.1917
0.3                     1.000491        151.3405
0.304                  0.9985718        150.5414
0.308                  0.9968926        149.7924
0.312                  0.9957415         149.084
0.316                  0.9953147        148.4007
0.32                   0.9956823        147.7235
0.324                  0.9967757        147.0337
0.328                  0.9984013        146.3156
0.332                   1.000274        145.5599
0.336                    1.00207        144.7647
0.34                    1.003481        143.9359
0.344                   1.004267        143.0855
0.348                   1.004296        142.2303
0.352                   1.003568        141.3883
0.356                   1.002209        140.5761
0.36                    1.000455        139.8061
0.364                  0.9986101        139.0842
0.368                  0.9969954        138.4088
0.372                  0.9958919        137.7708
0.376                  0.9954918        137.1551
0.38                   0.9958639        136.5435
0.384                  0.9969411        135.9175
0.388                  0.9985327        135.2622
0.392                   1.000359        134.5685
0.396                   1.002101        133.8346
0.4                     1.003457        133.0665
0.404                   1.004193        132.2765
0.408                   1.004181        131.4809
0.412                   1.003427         130.698
0.416                    1.00206        129.9439
0.42                    1.000317        129.2307
0.424                  0.9985037        128.5641
0.428                  0.9969368         127.942
0.432                  0.9958921        127.3551
0.436                  0.9955547        126.7882
0.44                   0.9959839        126.2228
0.444                  0.9971041        125.6409
0.448                  0.9987164        125.0279
0.452                   1.000537        124.3751
0.456                   1.002245        123.6817
0.46                    1.003543        122.9541
0.464                   1.004203        122.2052
0.468                    1.00411        121.4517
0.472                    1.00328        120.7118
0.476                   1.001855        120.0016
0.48                    1.000084        119.3328
0.484                   0.998277        118.7102
0.488                  0.9967529         118.131
0.492                  0.9957827        117.5851
0.496                  0.9955397        117.0564
0.5                    0.9960686        116.5265
0.504                  0.9972766        115.9771
0.508                  0.9989498        115.3941
0.512                   1.000792        114.7698
0.516                   1.002479        114.1042
0.52                    1.003712        113.4047
0.524                   1.004276        112.6852
0.528                   1.004069        111.9632
0.532                   1.003126        111.2569
0.536                   1.001608        110.5823
0.54                   0.9997823        109.9506
0.544                  0.9979689        109.3655
0.548                    0.99649         108.823
0.552                  0.9956102        108.3118
0.556                   0.995489         107.815
0.56                   0.9961503        107.3133
0.564                  0.9974779        106.7886
0.568                  0.9992365        106.2274
0.572                   1.001114        105.6228
0.576                   1.002777        104.9763
0.58                    1.003932        104.2967
0.584                   1.004372        103.5991
0.588                   1.004018        102.9017
0.592                   1.002928        102.2232
0.596                    1.00129        101.5794
0.6                    0.9993903        100.9806
0.604                   0.997565        100.4292
0.608                  0.9961396        99.91978
0.612                  0.9953713        99.43935
0.616                   0.995401        98.96983
0.62                   0.9962264        98.49123
0.624                  0.9977026        97.98547
0.628                  0.9995672        97.43965
0.632                   1.001489        96.84835
0.636                   1.003125        96.21451
0.64                    1.004186        95.54876
0.644                    1.00448        94.86746
0.648                   1.003951        94.19001
0.652                   1.002689        93.53539
0.656                   1.000911         92.9191
0.66                   0.9989293        92.35027
0.664                  0.9970966        91.82999
0.668                  0.9957416        91.35078
0.672                  0.9951107        90.89787
0.676                  0.9953219        90.45171
0.68                   0.9963414        89.99158
0.684                  0.9979895        89.49946
0.688                  0.9999731        88.96341
0.692                   1.001938         88.3796
0.696                   1.003535        87.75289
0.7                     1.004477        87.09584
0.704                   1.004594        86.42655
0.708                   1.003859        85.76541
0.712                   1.002396        85.13184
0.716                   1.000458        84.54081
0.72                   0.9983877        84.00018
0.724                  0.9965534        83.50913
0.728                  0.9952862        83.05803
0.732                   0.994819        82.62996
0.736                  0.9952412        82.20377
0.74                   0.9964817          81.758
0.744                  0.9983212        81.27487
0.748                   1.000432        80.74361
0.752                   1.002436        80.16224
0.756                   1.003976        79.53792
0.76                    1.004773        78.88542
0.764                   1.004682        78.22465
0.768                   1.003711        77.57719
0.772                   1.002024        76.96266
0.776                  0.9999147         76.3954
0.78                   0.9977567        75.88168
0.784                  0.9959363        75.41844
0.788                  0.9947846        74.99349
0.792                  0.9945153        74.58759
0.796                  0.9951838        74.17786
0.8                    0.9966754        73.74212
0.804                  0.9987256        73.26305
0.808                   1.000968        72.73133
0.812                   1.003002         72.1473
0.816                   1.004462        71.52062
0.82                    1.005083        70.86859
0.824                   1.004747        70.21307
0.828                   1.003504        69.57684
0.832                   1.001567        68.97969
0.836                  0.9992721        68.43499
0.84                   0.9970273        67.94714
0.844                  0.9952364        67.51047
0.848                  0.9942271        67.10989
0.852                  0.9941894        66.72353
0.856                  0.9951374        66.32674
0.86                   0.9969068        65.89671
0.864                  0.9991822         65.4168
0.868                   1.001557        64.87958
0.872                   1.003604        64.28794
0.876                   1.004954        63.65451
0.88                     1.00536        62.99932
0.884                    1.00474        62.34634
0.888                   1.003192        61.71952
0.892                    1.00098        61.13867
0.896                   0.998491        60.61597
0.9                    0.9961689        60.15348
0.904                  0.9944339        59.74249
0.908                  0.9936068         59.3646
0.912                  0.9938466        58.99508
0.916                  0.9951195        58.60743
0.92                   0.9972028        58.17834
0.924                  0.9997256        57.69219
0.928                   1.002236        57.14376
0.932                   1.004282          56.539
0.936                   1.005494        55.89385
0.94                    1.005647        55.23135
0.944                     1.0047        54.57775
0.948                   1.002808        53.95819
0.952                   1.000295        53.39231
0.956                  0.9976029        52.89072
0.96                   0.9952128        52.45277
0.964                  0.9935611        52.06616
0.968                   0.992956        51.70883
0.972                  0.9935193        51.35289
0.976                  0.9951602        50.96988
0.98                   0.9975895        50.53626
0.984                   1.000374        50.03773
0.988                   1.003013        49.47175
0.992                   1.005032        48.84784
0.996                   1.006062        48.18564
1                       1.005906        47.51154
1.004                   1.004574        46.85429
1.008                   1.002287        46.24014
1.012                  0.9994363        45.68841
1.016                  0.9965243        45.20779
1.02                   0.9940744         44.7943
1.024                  0.9925365        44.43152
1.028                  0.9922024        44.09314
1.032                  0.9931472        43.74778
1.036                  0.9952123        43.36499
1.04                   0.9980329        42.92108
1.044                   1.001105         42.4035
1.048                   1.003877        41.81298
1.052                   1.005847         41.1631
1.056                   1.006652        40.47773
1.06                    1.006131        39.78706
1.064                   1.004355        39.12249
1.068                   1.001619        38.51149
1.072                  0.9983924        37.97282
1.076                  0.9952471        37.51279
1.08                   0.9927514        37.12351
1.084                  0.9913688        36.78366
1.088                  0.9913675        36.46206
1.092                  0.9927658        36.12337
1.096                  0.9953256        35.73503
1.1                    0.9985934        35.27342
1.104                   1.001985        34.72824
1.108                   1.004889         34.1041
1.112                   1.006777        33.41936
1.116                   1.007297        32.70283
1.12                     1.00633        31.98896
1.124                   1.004019        31.31225
1.128                   1.000748        30.70155
1.132                  0.9970787        30.17478
1.136                  0.9936629        29.73544
1.14                   0.9911215        29.37089
1.144                  0.9899317        29.05395
1.148                  0.9903322        28.74763
1.152                  0.9922725        28.41199
1.156                  0.9954181        28.01204
1.16                   0.9992108        27.52448
1.164                   1.002971        26.94173
1.168                    1.00602        26.27302
1.172                     1.0078        25.54241
1.176                   1.007968        24.78459
1.18                     1.00646          24.039
1.184                   1.003505        23.34391
1.188                  0.9995925        22.72968
1.192                  0.9953983        22.21349
1.196                  0.9916692        21.79521
1.2                    0.9890907        21.45637
1.204                  0.9881563        21.16259
1.208                  0.9890675        20.86971
1.212                  0.9916883        20.53217
1.216                   0.995566          20.112
1.22                    1.000013        19.58629
1.224                   1.004232        18.95092
1.228                   1.007461        18.22086
1.232                   1.009103        17.42705
1.236                   1.008827        16.61137
1.24                    1.006634        15.81969
1.244                   1.002857        15.09495
1.248                  0.9981198        14.46987
1.252                  0.9932398        13.96074
1.256                  0.9890893        13.56319
1.26                   0.9864389        13.25143
1.264                  0.9858072        12.98182
1.268                  0.9873524        12.70074
1.272                  0.9908315        12.35518
1.276                  0.9956409        11.90336
1.28                    1.000926        11.32259
1.284                   1.005738        10.61295
1.288                   1.009201        9.796547
1.292                    1.01066        8.913205
1.296                   1.009798        8.013996
1.3                     1.006688        7.153431
1.304                   1.001798        6.381119
1.308                  0.9959292         5.73345
1.312                  0.9900887        5.226269
1.316                  0.9853263        4.850007
1.32                   0.9825391        4.569092
1.324                  0.9822922         4.32701
1.328                  0.9846949        4.056757
1.332                  0.9893648        3.694407
1.336                  0.9954927        3.192057
1.34                    1.001992        2.526754
1.344                   1.007693        1.703764
1.348                   1.011551       0.7545246
1.352                   1.012814      -0.2691967
1.356                   1.011159       -1.303355
1.36                    1.006747       -2.280855
1.364                   1.000222        -3.14144
1.368                    0.99263       -3.841812
1.372                  0.9852639       -4.364935
1.376                  0.9794511       -4.726523
1.38                    0.976305       -4.975926
1.384                   0.976493       -5.189265
1.388                  0.9800801        -5.45498
1.392                  0.9864937       -5.855347
1.396                  0.9946213       -6.449498
1.4                     1.003016       -7.262678
1.404                   1.010153       -8.283444
1.408                   1.014693       -9.467523
1.412                   1.015694       -10.74579
1.416                   1.012769       -12.03421
1.42                    1.006168       -13.24481
1.424                  0.9967738       -14.29761
1.428                  0.9860145       -15.13389
1.432                  0.9756676       -15.72957
1.436                  0.9675792       -16.10629
1.44                    0.963315       -16.33492
1.444                  0.9638184       -16.52707
1.448                  0.9691688       -16.81362
1.452                  0.9785207       -17.31612
1.456                  0.9902472       -18.12097
1.46                     1.00224       -19.26448
1.464                   1.012276       -20.73066
1.468                   1.018376        -22.4584
1.472                   1.019101       -24.35268
1.476                   1.013767       -26.29663
1.48                    1.002581       -28.16358
1.484                  0.9866915       -29.83059
1.488                  0.9681318       -31.19602
1.492                  0.9496299       -32.20276
1.496                  0.9342417       -32.86499
1.5                    0.9248016       -33.28895
1.504                   0.923271       -33.67265
1.508                  0.9301683       -34.27333
1.512                  0.9443088       -35.35017
1.516                  0.9629599       -37.10826
1.52                   0.9823245       -39.66915
1.524                  0.9981419       -43.07338
1.528                   1.006227       -47.30292
1.532                   1.002861       -52.30856
1.536                  0.9850429       -58.03334
1.54                    0.950633       -64.43061
1.544                  0.8984211       -71.47956
1.548                  0.8281626       -79.20368
1.552                  0.7405981       -87.70286
