! TOUCHSTONE file generated by CST MICROWAVE STUDIO
! Date and time: Thu Jun  9 15:16:43 2022
! Project name: AppElm_antenne_patch_Alumina.cst
! Parameters = {L=30.5; W=41.8; e=0.035; h=1.6; lambda=0.190476; ls=90; w0=1.12; w1=0.373; ws=90; y0=14; y1=10.5}
! Header version: 2018
! Port assignment regex: !\s*Touchstone port\s*([0-9]+)\s*=\s*(CST MWS port|CST DS port)\s*([0-9]+|Zmin|Zmax)\s*\(\"(.*)\"\)(\s*mode\s*([0-9]+))?.*
! Touchstone port assignment:
! Touchstone port 1 = CST MWS port 1 ("")
# GHz S MA R 50
0                      0.9796027              -0
0.004                  0.9807235        -10.3808
0.008                  0.9839372       -20.65157
0.012                   0.988822       -30.70915
0.016                  0.9947471       -40.46273
0.02                    1.000966       -49.83689
0.024                   1.006717       -58.77234
0.028                   1.011328       -67.22473
0.032                   1.014289       -75.16273
0.036                   1.015311       -82.56601
0.04                    1.014355       -89.42392
0.044                   1.011627       -95.73497
0.048                   1.007552       -101.5074
0.052                   1.002713         -106.76
0.056                  0.9977824       -111.5237
0.06                   0.9934236       -115.8411
0.064                   0.990205        -119.766
0.068                  0.9885168       -123.3602
0.072                   0.988518       -126.6887
0.076                  0.9901182        -129.814
0.08                   0.9930003       -132.7901
0.084                  0.9966766       -135.6585
0.088                    1.00057       -138.4456
0.092                   1.004104       -141.1627
0.096                    1.00678       -143.8078
0.1                     1.008253       -146.3689
0.104                   1.008362        -148.828
0.108                   1.007155       -151.1653
0.112                   1.004867       -153.3637
0.116                   1.001888        -155.412
0.12                   0.9987003       -157.3078
0.124                  0.9958041       -159.0594
0.128                  0.9936423       -160.6851
0.132                  0.9925314       -162.2119
0.136                  0.9926127       -163.6715
0.14                   0.9938342       -165.0957
0.144                  0.9959631       -166.5122
0.148                  0.9986305       -167.9407
0.152                   1.001394       -169.3905
0.156                   1.003811       -170.8601
0.16                    1.005509       -172.3385
0.164                    1.00624       -173.8082
0.168                   1.005912       -175.2475
0.172                   1.004606       -176.6351
0.176                   1.002555        -177.953
0.18                    1.000106       -179.1898
0.184                  0.9976668        179.6571
0.188                  0.9956376        178.5812
0.192                  0.9943461        177.5671
0.196                  0.9939932         176.593
0.2                    0.9946202        175.6346
0.204                  0.9961044        174.6686
0.208                  0.9981825         173.677
0.212                   1.000498        172.6495
0.216                   1.002663         171.585
0.22                    1.004321        170.4912
0.224                   1.005208        169.3831
0.228                   1.005189        168.2797
0.232                   1.004281        167.2018
0.236                   1.002645        166.1678
0.24                    1.000563        165.1909
0.244                  0.9983898        164.2771
0.248                  0.9964921        163.4236
0.252                  0.9951893        162.6194
0.256                  0.9946979        161.8468
0.26                   0.9950934        161.0845
0.264                  0.9962995        160.3116
0.268                  0.9981012        159.5106
0.272                   1.000186        158.6709
0.276                   1.002196        157.7901
0.28                    1.003791        156.8743
0.284                   1.004707        155.9367
0.288                   1.004794        154.9951
0.292                   1.004044        154.0692
0.296                    1.00259        153.1771
0.3                     1.000684        152.3324
0.304                  0.9986528        151.5421
0.308                  0.9968466        150.8048
0.312                   0.995576        150.1111
0.316                  0.9950587        149.4451
0.32                   0.9953809        148.7869
0.324                  0.9964824        148.1164
0.328                  0.9981679        147.4168
0.332                   1.000142        146.6775
0.336                   1.002063        145.8959
0.34                      1.0036        145.0775
0.344                   1.004492        144.2347
0.348                   1.004589        143.3849
0.352                   1.003877        142.5472
0.356                   1.002481        141.7395
0.36                    1.000642        140.9755
0.364                  0.9986804        140.2619
0.368                  0.9969363        139.5978
0.372                  0.9957143        138.9742
0.376                  0.9952278        138.3754
0.38                   0.9955612        137.7822
0.384                  0.9966543        137.1748
0.388                  0.9983137         136.537
0.392                   1.000247        135.8585
0.396                   1.002116        135.1369
0.4                     1.003597        134.3779
0.404                   1.004433        133.5942
0.408                   1.004481        132.8031
0.412                   1.003732        132.0236
0.416                   1.002317        131.2734
0.42                    1.000481        130.5658
0.424                  0.9985449        129.9073
0.428                  0.9968469        129.2964
0.432                  0.9956869        128.7237
0.436                  0.9952705        128.1734
0.44                   0.9956713        127.6259
0.444                  0.9968186        127.0619
0.448                  0.9985092        126.4654
0.452                   1.000444        125.8267
0.456                   1.002284        125.1442
0.46                    1.003706        124.4243
0.464                   1.004461        123.6804
0.468                   1.004418        122.9302
0.472                   1.003582        122.1929
0.476                   1.002099         121.486
0.48                    1.000226        120.8224
0.484                  0.9982912        120.2078
0.488                  0.9966364        119.6398
0.492                  0.9955554        119.1079
0.496                  0.9952427        118.5957
0.5                     0.995755        118.0831
0.504                  0.9970027        117.5508
0.508                  0.9987647        116.9832
0.512                   1.000729        116.3716
0.516                   1.002549        115.7155
0.52                    1.003904        115.0224
0.524                   1.004555        114.3067
0.528                   1.004386        113.5868
0.532                   1.003425        112.8824
0.536                   1.001837        112.2107
0.54                   0.9998998         111.584
0.544                  0.9979539        111.0069
0.548                  0.9963449        110.4757
0.552                  0.9953613        109.9786
0.556                  0.9951812         109.498
0.56                   0.9958394        109.0132
0.564                  0.9972206        108.5048
0.568                  0.9990795        107.9578
0.572                   1.001086        107.3646
0.576                   1.002885        106.7262
0.58                    1.004156        106.0516
0.584                   1.004675        105.3564
0.588                   1.004347        104.6603
0.592                   1.003226         103.983
0.596                   1.001504        103.3418
0.6                    0.9994843        102.7479
0.604                  0.9975224        102.2047
0.608                  0.9959689        101.7067
0.612                  0.9951038        101.2405
0.616                  0.9950861         100.787
0.62                    0.995922        100.3248
0.624                  0.9974646        99.83448
0.628                  0.9994396        99.30181
0.632                   1.001495        98.72056
0.636                   1.003266        98.09342
0.64                    1.004436        97.43135
0.644                   1.004796        96.75154
0.648                   1.004278        96.07457
0.652                   1.002968        95.42083
0.656                   1.001094        94.80708
0.66                   0.9989824        94.24355
0.664                  0.9970096        93.73184
0.668                  0.9955299        93.26453
0.672                  0.9948119        92.82619
0.676                  0.9949896        92.39605
0.68                   0.9960358        91.95202
0.684                  0.9977656        91.47462
0.688                  0.9998712        90.95069
0.692                   1.001977        90.37571
0.696                   1.003708        89.75443
0.7                     1.004753        89.09992
0.704                   1.004925        88.43121
0.708                   1.004187        87.76999
0.712                   1.002664        87.13708
0.716                   1.000618        86.54872
0.72                   0.9984119        86.01377
0.724                  0.9964379        85.53182
0.728                  0.9950532        85.09306
0.732                  0.9945117        84.67977
0.736                   0.994917        84.26952
0.74                   0.9962015        83.83932
0.744                  0.9981376        83.36998
0.748                    1.00038        82.84962
0.752                   1.002528        82.27573
0.756                   1.004198        81.65549
0.76                    1.005088        81.00436
0.764                   1.005036        80.34332
0.768                   1.004043         79.6953
0.772                   1.002277        79.08139
0.776                   1.000046        78.51713
0.78                   0.9977428         78.0097
0.784                  0.9957806        77.55632
0.788                  0.9945161         77.1444
0.792                  0.9941834        76.75374
0.796                  0.9948495        76.36008
0.8                    0.9963999        75.93964
0.804                  0.9985594         75.4737
0.808                   1.000942        74.95198
0.812                    1.00312        74.37438
0.816                   1.004703        73.75085
0.82                    1.005405        73.09945
0.824                   1.005092        72.44328
0.828                   1.003811        71.80653
0.832                    1.00178        71.21043
0.836                  0.9993521        70.66956
0.84                    0.996959        70.18903
0.844                  0.9950311        69.76326
0.848                  0.9939216        69.37664
0.852                   0.993839        69.00612
0.856                  0.9948064        68.62551
0.86                    0.996656        68.21043
0.864                  0.9990582        67.74289
0.868                   1.001583         67.2146
0.872                   1.003778        66.62823
0.876                   1.005248        65.99685
0.88                    1.005723        65.34144
0.884                   1.005111        64.68732
0.888                   1.003507        64.05994
0.892                   1.001186        63.48052
0.896                  0.9985545        62.96236
0.9                    0.9960807        62.50811
0.904                  0.9942132        62.10894
0.908                  0.9932971        61.74575
0.912                  0.9935081        61.39248
0.916                  0.9948182        61.02095
0.92                   0.9969976         60.6063
0.924                  0.9996578        60.13163
0.928                   1.002322        59.59106
0.932                   1.004511        58.99049
0.936                   1.005829         58.3465
0.94                    1.006031        57.68325
0.944                   1.005069        57.02846
0.948                   1.003099        56.40877
0.952                   1.000458        55.84523
0.956                  0.9976098        55.34948
0.96                   0.9950639        54.92125
0.964                  0.9932843        54.54796
0.968                  0.9926032        54.20656
0.972                  0.9931563        53.86766
0.976                  0.9948542        53.50112
0.98                   0.9973978        53.08176
0.984                   1.000332        52.59416
0.988                   1.003131        52.03528
0.992                   1.005288        51.41483
0.996                   1.006412        50.75327
1                       1.006289        50.07829
1.004                   1.004923        49.42014
1.008                    1.00254        48.80667
1.012                  0.9995475        48.25852
1.016                  0.9964735        47.78527
1.02                   0.9938708        47.38316
1.024                  0.9922175        47.03523
1.028                   0.991827        46.71396
1.032                  0.9927851        46.38633
1.036                  0.9949314         46.0201
1.04                   0.9978862        45.59003
1.044                   1.001121        45.08262
1.048                   1.004055        44.49828
1.052                   1.006157        43.85105
1.056                   1.007041        43.16582
1.06                    1.006532        42.47419
1.064                     1.0047        41.80919
1.068                   1.001846        41.19991
1.072                  0.9984635        40.66632
1.076                  0.9951502        40.21546
1.08                   0.9925058        39.83944
1.084                  0.9910213        39.51617
1.088                  0.9909847          39.213
1.092                  0.9924218        38.89279
1.096                  0.9950869        38.52113
1.1                     0.998508        38.07299
1.104                   1.002073        37.53727
1.108                   1.005139        36.91852
1.112                   1.007151        36.23578
1.116                   1.007733        35.51909
1.12                    1.006756        34.80449
1.124                   1.004366        34.12814
1.128                   1.000958        33.52045
1.132                  0.9971201        33.00051
1.136                  0.9935334        32.57237
1.14                   0.9908512        32.22307
1.144                  0.9895772         31.9244
1.148                  0.9899665         31.6377
1.152                  0.9919713        31.32105
1.156                  0.9952451        30.93769
1.16                   0.9992061        30.46293
1.164                   1.003144         29.8887
1.168                   1.006348        29.22451
1.172                   1.008231        28.49532
1.176                   1.008433         27.7372
1.18                    1.006882        26.99142
1.184                   1.003814        26.29791
1.188                  0.9997369        25.68863
1.192                   0.995354        25.18169
1.196                  0.9914459        24.77735
1.2                    0.9887307        24.45652
1.204                  0.9877273         24.1835
1.208                    0.98865        23.91218
1.212                  0.9913603        23.59482
1.216                  0.9953882        23.19179
1.22                    1.000017        22.67898
1.224                   1.004418        22.05207
1.228                   1.007793        21.32649
1.232                    1.00952        20.53449
1.236                   1.009254        19.71948
1.24                    1.006992        18.92926
1.244                   1.003079        18.20849
1.248                  0.9981634        17.59136
1.252                  0.9930941        17.09494
1.256                  0.9887797        16.71488
1.26                    0.986023        16.42443
1.264                  0.9853655         16.1782
1.268                  0.9869724        15.92034
1.272                  0.9905916        15.59565
1.276                  0.9955948        15.16064
1.28                    1.001093        14.59181
1.284                   1.006101        13.88934
1.288                   1.009709        13.07626
1.292                   1.011238        12.19395
1.296                   1.010358        11.29534
1.3                     1.007149         10.4369
1.304                   1.002094        9.670034
1.308                  0.9960232        9.032456
1.312                  0.9899822        8.540618
1.316                  0.9850582        8.184614
1.32                   0.9821808         7.92753
1.324                  0.9819338        7.710699
1.328                  0.9844273        7.464618
1.332                  0.9892614        7.123116
1.336                  0.9955948        6.636812
1.34                    1.002301        5.982318
1.344                   1.008172        5.165482
1.348                   1.012128        4.219129
1.352                   1.013399        3.196929
1.356                   1.011657        2.165059
1.36                    1.007073        1.192712
1.364                   1.000319       0.3419465
1.368                   0.992476      -0.3427286
1.372                  0.9848833      -0.8439704
1.376                  0.9789101       -1.178329
1.38                   0.9757019       -1.397163
1.384                    0.97594       -1.579435
1.388                  0.9796815       -1.816596
1.392                  0.9863242       -2.193326
1.396                  0.9947121        -2.76999
1.4                      1.00335       -3.571731
1.404                    1.01067       -4.585857
1.408                     1.0153       -5.766086
1.412                   1.016283       -7.040905
1.416                   1.013237       -8.323819
1.42                    1.006431       -9.524581
1.424                   0.996789       -10.56143
1.428                  0.9857849       -11.37462
1.432                  0.9752511       -11.94027
1.436                  0.9670812       -12.28171
1.44                   0.9628713       -12.47295
1.444                  0.9635688       -12.62958
1.448                   0.969227       -12.88621
1.452                  0.9789491       -13.36683
1.456                  0.9910441       -14.15836
1.46                     1.00334       -15.29583
1.464                   1.013564       -16.76077
1.468                   1.019706       -18.48899
1.472                   1.020318        -20.3823
1.476                   1.014731       -22.32077
1.48                    1.003191       -24.17498
1.484                  0.9869024       -25.81972
1.488                  0.9679705       -27.15201
1.492                  0.9492022       -28.11502
1.496                  0.9337243        -28.7256
1.5                     0.924416       -29.09533
1.504                  0.9232371       -29.42936
1.508                  0.9306532       -29.99146
1.512                  0.9453837        -31.0444
1.516                  0.9645836       -32.79297
1.52                    0.984352       -35.35538
1.524                   1.000351       -38.76753
1.528                   1.008346       -43.00699
1.532                     1.0046       -48.02085
1.536                  0.9861174       -53.74939
1.54                   0.9507769       -60.14381
1.544                  0.8974031        -67.1814
1.548                  0.8257917       -74.88394
1.552                  0.7367264        -83.3499
