! TOUCHSTONE file generated by CST MICROWAVE STUDIO
! Date and time: Thu Jun  9 15:16:46 2022
! Project name: AppElm_antenne_patch_Alumina.cst
! Parameters = {L=30.5; W=41.8; e=0.035; h=1.6; lambda=0.190476; ls=90; w0=1.12; w1=0.373; ws=90; y0=14; y1=12}
! Header version: 2018
! Port assignment regex: !\s*Touchstone port\s*([0-9]+)\s*=\s*(CST MWS port|CST DS port)\s*([0-9]+|Zmin|Zmax)\s*\(\"(.*)\"\)(\s*mode\s*([0-9]+))?.*
! Touchstone port assignment:
! Touchstone port 1 = CST MWS port 1 ("")
# GHz S MA R 50
0                      0.9807476              -0
0.004                  0.9818294       -10.42907
0.008                  0.9849285        -20.7474
0.012                  0.9896283       -30.85112
0.016                  0.9953085        -40.6487
0.02                    1.001236       -50.06405
0.024                   1.006672       -59.03727
0.028                   1.010964       -67.52361
0.032                   1.013632       -75.49158
0.036                   1.014415        -82.9211
0.04                    1.013302       -89.80222
0.044                   1.010522        -96.1347
0.048                   1.006514       -101.9286
0.052                   1.001864       -107.2049
0.056                  0.9972268       -111.9968
0.06                   0.9932362       -116.3491
0.064                  0.9904152       -120.3172
0.068                  0.9891005       -123.9631
0.072                  0.9893969       -127.3509
0.076                  0.9911693       -130.5408
0.08                   0.9940728       -133.5836
0.084                  0.9976149       -136.5175
0.088                   1.001236       -139.3652
0.092                   1.004399       -142.1356
0.096                    1.00666       -144.8251
0.1                     1.007734       -147.4215
0.104                   1.007523       -149.9077
0.108                   1.006121       -152.2662
0.112                   1.003799       -154.4828
0.116                   1.000952       -156.5499
0.12                    0.998046       -158.4691
0.124                  0.9955381       -160.2517
0.128                  0.9938094       -161.9179
0.132                  0.9931056       -163.4952
0.136                  0.9935003       -165.0139
0.14                   0.9948883       -166.5029
0.144                   0.997009       -167.9859
0.148                  0.9994946       -169.4784
0.152                   1.001933       -170.9858
0.156                   1.003937       -172.5041
0.16                    1.005201       -174.0212
0.164                   1.005547       -175.5198
0.168                    1.00495       -176.9801
0.172                   1.003533       -178.3841
0.176                    1.00155       -179.7175
0.18                   0.9993392        179.0267
0.184                  0.9972683        177.8477
0.188                  0.9956762        176.7363
0.192                   0.994816        175.6761
0.196                  0.9948136        174.6465
0.2                    0.9956496        173.6258
0.204                  0.9971651        172.5948
0.208                  0.9990916        171.5398
0.212                   1.001099        170.4548
0.216                   1.002853        169.3418
0.22                    1.004068        168.2099
0.224                   1.004554        167.0738
0.228                   1.004246         165.951
0.232                   1.003209        164.8588
0.236                   1.001628        163.8117
0.24                   0.9997766        162.8185
0.244                  0.9979707        161.8814
0.248                   0.996515        160.9949
0.252                  0.9956517         160.147
0.256                  0.9955199        159.3209
0.26                    0.996132        158.4982
0.264                  0.9973732        157.6619
0.268                  0.9990234        156.7992
0.272                   1.000796        155.9037
0.276                   1.002389        154.9763
0.28                    1.003535        154.0245
0.284                   1.004046        153.0614
0.288                   1.003843        152.1028
0.292                   1.002969         151.165
0.296                   1.001577        150.2621
0.3                    0.9999102        149.4033
0.304                  0.9982553        148.5915
0.308                  0.9968966        147.8228
0.312                  0.9960658        147.0868
0.316                  0.9959032        146.3688
0.32                   0.9964311        145.6517
0.324                  0.9975528        144.9197
0.328                  0.9990697        144.1607
0.332                   1.000716        143.3683
0.336                   1.002209         142.543
0.34                    1.003292        141.6919
0.344                   1.003782        140.8269
0.348                     1.0036        139.9633
0.352                    1.00278        139.1167
0.356                   1.001467        138.3007
0.36                   0.9998888        137.5243
0.364                  0.9983196        136.7907
0.368                  0.9970321        136.0963
0.372                    0.99625        135.4313
0.376                  0.9961083        134.7816
0.38                   0.9966297        134.1309
0.384                  0.9977204         133.464
0.388                  0.9991874        132.7693
0.392                   1.000773        132.0407
0.396                   1.002202         131.279
0.4                     1.003226         130.491
0.404                    1.00367        129.6888
0.408                   1.003458        128.8872
0.412                   1.002628        128.1016
0.416                   1.001325        127.3452
0.42                   0.9997762        126.6268
0.424                  0.9982519        125.9492
0.428                  0.9970194        125.3085
0.432                  0.9962952        124.6949
0.436                  0.9962067        124.0942
0.44                   0.9967691        123.4905
0.444                  0.9978823        122.8688
0.448                  0.9993493         122.218
0.452                   1.000912        121.5326
0.456                   1.002296        120.8138
0.46                    1.003259        120.0689
0.464                   1.003634        119.3104
0.468                   1.003354        118.5532
0.472                   1.002468        117.8126
0.476                    1.00113        117.1016
0.48                   0.9995737        116.4283
0.484                  0.9980718        115.7951
0.488                  0.9968896        115.1974
0.492                  0.9962371        114.6247
0.496                  0.9962307        114.0626
0.5                     0.996873        113.4949
0.504                  0.9980502        112.9068
0.508                  0.9995544        112.2877
0.512                    1.00112        111.6329
0.516                    1.00247        110.9444
0.52                    1.003369        110.2305
0.524                   1.003656         109.504
0.528                    1.00328        108.7805
0.532                   1.002305        108.0753
0.536                     1.0009         107.401
0.54                   0.9993122        106.7654
0.544                  0.9978198        106.1697
0.548                   0.996689        105.6085
0.552                  0.9961222        105.0703
0.556                  0.9962221        104.5399
0.56                   0.9969732        104.0007
0.564                  0.9982428        103.4383
0.568                  0.9998061        102.8426
0.572                   1.001386        102.2098
0.576                   1.002702        101.5431
0.58                    1.003521        100.8517
0.584                   1.003697        100.1496
0.588                   1.003194        99.45295
0.592                     1.0021        98.77715
0.596                   1.000602        98.13458
0.6                    0.9989648        97.53209
0.604                   0.997477        96.96984
0.608                  0.9964049        96.44102
0.612                  0.9959423        95.93301
0.616                  0.9961747        95.42956
0.62                   0.9970634        94.91377
0.624                  0.9984518         94.3712
0.628                   1.000093        93.79255
0.632                   1.001696        93.17521
0.636                   1.002976        92.52371
0.64                    1.003703        91.84877
0.644                   1.003746        91.16549
0.648                   1.003094        90.49069
0.652                   1.001857        89.84007
0.656                    1.00025        89.22553
0.66                   0.9985565        88.65294
0.664                  0.9970775        88.12106
0.668                  0.9960796        87.62145
0.672                  0.9957448           87.14
0.676                  0.9961374        86.65932
0.68                   0.9971907        86.16201
0.684                  0.9987187        85.63389
0.688                    1.00045        85.06657
0.692                   1.002076        84.45885
0.696                   1.003306        83.81692
0.7                      1.00392        83.15322
0.704                   1.003803        82.48415
0.708                   1.002971        81.82737
0.712                   1.001565        81.19877
0.716                  0.9998307        80.60967
0.72                    0.998074        80.06472
0.724                  0.9966087        79.56098
0.728                  0.9957004        79.08808
0.732                  0.9955166        78.63019
0.736                  0.9960955        78.16866
0.74                   0.9973374        77.68558
0.744                  0.9990226        77.16715
0.748                   1.000851        76.60606
0.752                   1.002495        76.00286
0.756                   1.003661        75.36571
0.76                    1.004136        74.70892
0.764                   1.003832        74.05039
0.768                   1.002793        73.40869
0.772                   1.001199        72.79977
0.776                  0.9993269        72.23419
0.78                   0.9975092        71.71516
0.784                  0.9960726        71.23765
0.788                  0.9952794        70.78915
0.792                  0.9952784        70.35181
0.796                   0.996076        69.90563
0.8                    0.9975338        69.43227
0.804                  0.9993937        68.91842
0.808                   1.001323        68.35826
0.812                   1.002977        67.75431
0.816                   1.004057        67.11705
0.82                    1.004365        66.46286
0.824                   1.003839        65.81134
0.828                   1.002562        65.18195
0.832                   1.000754        64.59062
0.836                  0.9987313        64.04695
0.84                   0.9968531        63.55235
0.844                  0.9954591         63.0994
0.848                  0.9948056        62.67307
0.852                  0.9950175        62.25331
0.856                  0.9960637        61.81871
0.86                   0.9977613        61.35056
0.864                  0.9998082        60.83634
0.868                   1.001838        60.27191
0.872                   1.003486         59.6622
0.876                   1.004453        59.02027
0.88                    1.004558        58.36487
0.884                   1.003774         57.7174
0.888                   1.002227        57.09817
0.892                   1.000183        56.52299
0.896                  0.9980024        56.00022
0.9                    0.9960735        55.52906
0.904                  0.9947475        55.09933
0.908                  0.9942711        54.69311
0.912                  0.9947394        54.28789
0.916                  0.9960767        53.86082
0.92                   0.9980482        53.39294
0.924                   1.000303        52.87273
0.928                   1.002438        52.29822
0.932                   1.004067        51.67708
0.936                   1.004893         51.0253
0.94                     1.00476        50.36431
0.944                   1.003678        49.71739
0.948                   1.001825        49.10579
0.952                  0.9995226        48.54498
0.956                  0.9971751        48.04176
0.96                   0.9952044        47.59271
0.964                   0.993972        47.18444
0.968                  0.9937102        46.79574
0.972                  0.9944775        46.40144
0.976                  0.9961456        45.97712
0.98                   0.9984203        45.50378
0.984                   1.000896         44.9713
0.988                   1.003127         44.3802
0.992                   1.004711        43.74144
0.996                   1.005355         43.0743
1                       1.004929        42.40319
1.004                   1.003494         41.7535
1.008                   1.001287        41.14736
1.012                  0.9986894        40.59972
1.016                  0.9961606        40.11542
1.02                   0.9941567        39.68794
1.024                  0.9930476         39.3001
1.028                  0.9930473        38.92688
1.032                   0.994169        38.54013
1.036                  0.9962217        38.11381
1.04                   0.9988428        37.62903
1.044                   1.001564        37.07742
1.048                   1.003895        36.46256
1.052                   1.005413        35.79913
1.056                   1.005833        35.11029
1.06                    1.005062        34.42379
1.064                   1.003216        33.76736
1.068                   1.000604        33.16403
1.072                  0.9976766        32.62802
1.076                  0.9949545         32.1618
1.08                   0.9929321         31.7551
1.084                  0.9919875        31.38623
1.088                  0.9923087        31.02578
1.092                  0.9938547        30.64218
1.096                  0.9963596        30.20768
1.1                    0.9993796        29.70371
1.104                   1.002375        29.12411
1.108                   1.004804        28.47614
1.112                   1.006223        27.77891
1.116                   1.006358         27.0601
1.12                    1.005161        26.35134
1.124                   1.002816        25.68306
1.128                  0.9997142        25.07935
1.132                  0.9963926        24.55343
1.136                  0.9934424        24.10493
1.14                    0.991403          23.719
1.144                  0.9906608         23.3685
1.148                  0.9913721        23.01876
1.152                  0.9934285        22.63412
1.156                  0.9964739        22.18496
1.16                    0.999968        21.65308
1.164                   1.003284        21.03517
1.168                   1.005822        20.34281
1.172                   1.007112         19.6005
1.176                   1.006897        18.84128
1.18                    1.005179        18.10152
1.184                   1.002227         17.4149
1.188                  0.9985332        16.80671
1.192                  0.9947386         16.2892
1.196                  0.9915224        15.85824
1.2                    0.9894791        15.49348
1.204                  0.9890049        15.16085
1.208                  0.9902163        14.81918
1.212                  0.9929211        14.42773
1.216                  0.9966506        13.95448
1.22                    1.000744        13.38188
1.224                   1.004466        12.70997
1.228                   1.007142        11.95591
1.232                   1.008268        11.15075
1.236                   1.007605         10.3343
1.24                     1.00522        9.548856
1.244                   1.001484        8.832422
1.248                  0.9970165        8.212229
1.252                  0.9925937        7.699282
1.256                  0.9890097        7.285163
1.26                   0.9869347        6.942166
1.264                  0.9867819          6.6275
1.268                  0.9886198        6.291156
1.272                  0.9921508        5.885747
1.276                  0.9967605        5.375843
1.28                     1.00163        4.744556
1.284                   1.005883        3.996146
1.288                    1.00874        3.154708
1.292                   1.009649        2.259807
1.296                   1.008387        1.360144
1.3                     1.005097       0.5061208
1.304                   1.000284      -0.2580453
1.308                   0.994741      -0.9019787
1.312                  0.9894252       -1.415589
1.316                  0.9852976       -1.812834
1.32                    0.983142       -2.131197
1.324                  0.9834073       -2.425937
1.328                  0.9861059       -2.759699
1.332                  0.9907991       -3.189904
1.336                  0.9966722        -3.75732
1.34                    1.002683       -4.478646
1.344                   1.007747       -5.344312
1.348                   1.010926       -6.320998
1.352                   1.011582       -7.357476
1.356                   1.009495        -8.39242
1.36                    1.004901       -9.363287
1.364                  0.9984824       -10.21578
1.368                   0.991276       -10.91335
1.372                  0.9845176       -11.44553
1.376                  0.9794329       -11.83314
1.38                   0.9770045       -12.12775
1.384                  0.9777658       -12.40392
1.388                  0.9816716       -12.74483
1.392                  0.9880866       -13.22502
1.396                  0.9958951       -13.89532
1.4                     1.003704       -14.77394
1.404                   1.010088        -15.8448
1.408                   1.013829       -17.06169
1.412                   1.014115       -18.35615
1.416                   1.010674        -19.6471
1.42                    1.003847       -20.85147
1.424                   0.994566       -21.89593
1.428                  0.9842529       -22.72961
1.432                  0.9746251       -23.33659
1.436                   0.967411       -23.74535
1.44                   0.9640192       -24.03027
1.444                  0.9652252       -24.30159
1.448                  0.9709675       -24.68374
1.452                  0.9803181        -25.2885
1.456                   0.991642       -26.19189
1.46                    1.002892       -27.42162
1.464                   1.011961       -28.95624
1.468                   1.017015       -30.73238
1.472                   1.016767        -32.6555
1.476                   1.010678       -34.61152
1.48                   0.9990753       -36.47863
1.484                   0.983187       -38.14097
1.488                  0.9650722       -39.50646
1.492                  0.9474126       -40.52967
1.496                  0.9331347       -41.23688
1.5                     0.924867       -41.74353
1.504                  0.9243196       -42.24984
1.508                  0.9317744       -43.00617
1.512                   0.945883       -44.25805
1.516                  0.9638577       -46.19546
1.52                   0.9819497       -48.92842
1.524                  0.9960197       -52.49168
1.528                   1.002041       -56.86672
1.532                  0.9964649       -62.00755
1.536                  0.9764553       -67.86297
1.54                   0.9400225       -74.39395
1.544                  0.8860946       -81.58979
1.548                  0.8145534       -89.48833
1.552                  0.7262666       -98.21237
