! TOUCHSTONE file generated by CST MICROWAVE STUDIO
! Date and time: Tue Jun  7 20:32:26 2022
! Project name: AppElm_antenne_patch_FR4.cst
! Parameters = {L=45; W=58.5; e=0.035; h=1.6; lambda=0.190476; ls=120; w0=1.6; w1=0.533333; ws=120; y0=15; y1=23.8095}
! Header version: 2018
! Port assignment regex: !\s*Touchstone port\s*([0-9]+)\s*=\s*(CST MWS port|CST DS port)\s*([0-9]+|Zmin|Zmax)\s*\(\"(.*)\"\)(\s*mode\s*([0-9]+))?.*
! Touchstone port assignment:
! Touchstone port 1 = CST MWS port 1 ("")
# GHz S MA R 50
0                      0.9887454              -0
0.004                  0.9894166       -9.927492
0.008                  0.9913375       -19.76579
0.012                   0.994245       -29.43012
0.016                  0.9977448       -38.84391
0.02                    1.001371       -47.94117
0.024                   1.004655       -56.66777
0.028                   1.007184       -64.98146
0.032                    1.00866       -72.85133
0.036                   1.008934       -80.25708
0.04                    1.008022       -87.18837
0.044                   1.006096       -93.64464
0.048                   1.003461       -99.63498
0.052                    1.00051       -105.1783
0.056                  0.9976647       -110.3031
0.06                     0.99532        -115.046
0.064                  0.9937842       -119.4507
0.068                  0.9932352       -123.5642
0.072                  0.9936999       -127.4338
0.076                  0.9950532       -131.1031
0.08                   0.9970453       -134.6088
0.084                  0.9993444       -137.9786
0.088                    1.00159       -141.2301
0.092                   1.003451       -144.3718
0.096                   1.004668       -147.4039
0.1                     1.005094       -150.3217
0.104                   1.004707       -153.1176
0.108                   1.003608       -155.7841
0.112                   1.002003       -158.3169
0.116                   1.000165        -160.716
0.12                   0.9983949       -162.9874
0.124                  0.9969697       -165.1433
0.128                  0.9961017       -167.2006
0.132                  0.9959059       -169.1798
0.136                  0.9963851       -171.1017
0.14                   0.9974336       -172.9851
0.144                  0.9988579       -174.8448
0.148                   1.000412       -176.6895
0.152                   1.001841       -178.5216
0.156                   1.002917        179.6622
0.16                     1.00348        177.8699
0.164                   1.003457        176.1122
0.168                   1.002874        174.4002
0.172                   1.001843        172.7434
0.176                   1.000547        171.1481
0.18                   0.9992069        169.6155
0.184                  0.9980449        168.1423
0.188                  0.9972473        166.7198
0.192                  0.9969355        165.3363
0.196                  0.9971466        163.9782
0.2                    0.9978296        162.6322
0.204                  0.9988567        161.2878
0.208                   1.000046        159.9381
0.212                   1.001195        158.5812
0.216                   1.002112        157.2198
0.22                    1.002651        155.8609
0.224                   1.002731        154.5138
0.228                    1.00235        153.1887
0.232                   1.001581        151.8949
0.236                   1.000562        150.6394
0.24                     0.99947        149.4252
0.244                  0.9984896        148.2511
0.248                  0.9977842        147.1116
0.252                  0.9974683        145.9981
0.256                  0.9975872           144.9
0.26                   0.9981126        143.8066
0.264                  0.9989471        142.7089
0.268                  0.9999427        141.6011
0.272                   1.000928        140.4813
0.276                   1.001735        139.3516
0.28                     1.00223        138.2179
0.284                   1.002336        137.0883
0.288                    1.00204        135.9721
0.292                   1.001398         134.878
0.296                   1.000525        133.8126
0.3                    0.9995722        132.7792
0.304                  0.9987044        131.7776
0.308                  0.9980685        130.8033
0.312                  0.9977708        129.8494
0.316                   0.997858        128.9065
0.32                   0.9983099        127.9654
0.324                  0.9990442         127.018
0.328                  0.9999307        126.0591
0.332                   1.000815        125.0866
0.336                   1.001545        124.1027
0.34                    1.001997        123.1124
0.344                   1.002097        122.1233
0.348                    1.00183         121.144
0.352                   1.001246        120.1826
0.356                   1.000448        119.2453
0.36                   0.9995744        118.3355
0.364                  0.9987777         117.453
0.368                  0.9981946        116.5941
0.372                  0.9979245        115.7522
0.376                  0.9980117        114.9188
0.38                   0.9984388        114.0855
0.384                  0.9991285        113.2447
0.388                  0.9999593        112.3915
0.392                   1.000786        111.5241
0.396                   1.001465        110.6445
0.4                      1.00188        109.7576
0.404                    1.00196        108.8708
0.408                   1.001695         107.992
0.412                   1.001131        107.1292
0.416                   1.000368        106.2882
0.42                   0.9995387        105.4723
0.424                  0.9987888        104.6811
0.428                  0.9982488        103.9111
0.432                  0.9980124        103.1558
0.436                  0.9981201        102.4072
0.44                   0.9985517         101.657
0.444                  0.9992307        100.8982
0.448                   1.000037         100.126
0.452                    1.00083        99.33917
0.456                   1.001471        98.53964
0.46                    1.001847        97.73249
0.464                   1.001895         96.9249
0.468                   1.001606        96.12492
0.472                   1.001031        95.34009
0.476                   1.000271        94.57611
0.48                   0.9994581        93.83585
0.484                  0.9987349        93.11886
0.488                  0.9982285        92.42131
0.492                  0.9980277        91.73672
0.496                  0.9981672        91.05709
0.5                    0.9986222        90.37423
0.504                  0.9993121        89.68135
0.508                   1.000115        88.97411
0.512                   1.000889        88.25146
0.516                   1.001498         87.5158
0.52                    1.001834        86.77243
0.524                   1.001838        86.02867
0.528                   1.001509        85.29265
0.532                   1.000903        84.57177
0.536                   1.000127        83.87151
0.54                    0.999315         83.1944
0.544                  0.9986114        82.53959
0.548                  0.9981401        81.90286
0.552                  0.9979849        81.27743
0.556                  0.9981738        80.65509
0.56                    0.998674         80.0277
0.564                  0.9993973        79.38858
0.568                   1.000216        78.73381
0.572                   1.000985        78.06279
0.576                   1.001568        77.37835
0.58                    1.001863        76.68629
0.584                   1.001815        75.99428
0.588                   1.001431         75.3106
0.592                   1.000778        74.64264
0.596                    0.99997        73.99563
0.6                    0.9991483        73.37169
0.604                  0.9984585        72.76942
0.608                  0.9980235        72.18404
0.612                  0.9979217        71.60829
0.616                  0.9981719        71.03365
0.62                    0.998731        70.45185
0.624                  0.9995003        69.85642
0.628                   1.000343        69.24381
0.632                    1.00111          68.614
0.636                   1.001664         67.9705
0.64                    1.001906         67.3197
0.644                   1.001789        66.66979
0.648                   1.001332         66.0293
0.652                   1.000614        65.40563
0.656                  0.9997586        64.80372
0.66                   0.9989173        64.22518
0.664                   0.998239        63.66792
0.668                  0.9978453        63.12641
0.672                  0.9978078        62.59273
0.676                   0.998135        62.05791
0.68                   0.9987702        61.51354
0.684                  0.9996011        60.95332
0.688                    1.00048        60.37418
0.692                   1.001251        59.77679
0.696                   1.001775         59.1655
0.7                     1.001957        58.54746
0.704                   1.001762        57.93147
0.708                    1.00122        57.32641
0.712                   1.000426        56.73967
0.716                  0.9995181        56.17588
0.72                   0.9986567        55.63597
0.724                  0.9979963        55.11698
0.728                  0.9976565        54.61251
0.732                  0.9977004        54.11381
0.736                  0.9981233        53.61137
0.74                   0.9988519         53.0966
0.744                  0.9997576        52.56345
0.748                   1.000679        52.00945
0.752                   1.001453        51.43615
0.756                   1.001937        50.84888
0.76                    1.002044        50.25572
0.764                    1.00175        49.66624
0.768                   1.001102        49.08968
0.772                   1.000213        48.53346
0.776                  0.9992368        48.00173
0.78                   0.9983474        47.49464
0.784                  0.9977041        47.00821
0.788                  0.9974238        46.53492
0.792                  0.9975597         46.0651
0.796                  0.9980901        45.58859
0.8                    0.9989226        45.09665
0.804                  0.9999093        44.58353
0.808                   1.000873        44.04751
0.812                   1.001641        43.49119
0.816                   1.002072        42.92106
0.82                    1.002085        42.34633
0.824                   1.001671        41.77737
0.828                   1.000899        41.22386
0.832                  0.9999002        40.69312
0.836                  0.9988507        40.18877
0.84                   0.9979367        39.70995
0.844                  0.9973234         39.2514
0.848                  0.9971235        38.80433
0.852                   0.997377        38.35793
0.856                  0.9980422        37.90137
0.86                    0.999003        37.42574
0.864                   1.000089        36.92574
0.868                   1.001105        36.40056
0.872                   1.001868        35.85407
0.876                   1.002238        35.29416
0.88                    1.002142         34.7313
0.884                   1.001591        34.17679
0.888                   1.000677        33.64078
0.892                  0.9995569        33.13044
0.896                  0.9984288        32.64865
0.9                    0.9974944        32.19336
0.904                  0.9969234         31.7578
0.908                  0.9968229        31.33167
0.912                  0.9972161        30.90292
0.916                  0.9980369        30.45995
0.92                   0.9991412        29.99381
0.924                   1.000333        29.49973
0.928                   1.001396         28.9781
0.932                   1.002138        28.43431
0.936                    1.00242        27.87788
0.94                    1.002184        27.32075
0.944                   1.001461        26.77528
0.948                   1.000373        26.25206
0.952                  0.9991081        25.75803
0.956                  0.9978884        25.29513
0.96                   0.9969332        24.85981
0.964                  0.9964172         24.4435
0.968                  0.9964386        24.03412
0.972                  0.9969999        23.61815
0.976                  0.9980056         23.1832
0.98                   0.9992785        22.72028
0.984                   1.000592         22.2254
0.988                   1.001708        21.70035
0.992                   1.002422        21.15237
0.996                   1.002599        20.59288
1                       1.002197         20.0355
1.004                   1.001278        19.49378
1.008                  0.9999953        18.97875
1.012                  0.9985724        18.49697
1.016                  0.9972617        18.04919
1.02                   0.9963007        17.63001
1.024                   0.995868        17.22872
1.028                  0.9960498        16.83108
1.032                  0.9968218        16.42196
1.036                  0.9980524         15.9881
1.04                   0.9995249        15.52058
1.044                   1.000976        15.01645
1.048                   1.002143        14.47929
1.052                   1.002809        13.91854
1.056                   1.002845        13.34792
1.06                    1.002231        12.78306
1.064                   1.001062        12.23886
1.068                  0.9995349        11.72684
1.072                  0.9979142        11.25303
1.076                  0.9964877        10.81667
1.08                   0.9955146        10.41012
1.084                  0.9951768        10.02001
1.088                  0.9955446        9.629581
1.092                  0.9965609        9.221765
1.096                  0.9980497        8.782329
1.1                    0.9997467        8.302546
1.104                   1.001346        7.780795
1.108                   1.002554        7.222839
1.112                   1.003144        6.640833
1.116                   1.002994         6.05125
1.12                    1.002111        5.472098
1.124                   1.000635        4.919853
1.128                  0.9988121        4.406555
1.132                  0.9969601        3.937431
1.136                  0.9954089         3.50986
1.14                   0.9944426        3.113273
1.144                   0.994246        2.731027
1.148                  0.9948678        2.343168
1.152                  0.9962087        1.930269
1.156                  0.9980364        1.476963
1.16                    1.000027       0.9748478
1.164                   1.001821       0.4240063
1.168                   1.003089      -0.1670117
1.172                   1.003588      -0.7826653
1.176                   1.003209       -1.403035
1.18                    1.001993       -2.007151
1.184                   1.000133       -2.576552
1.188                  0.9979417       -3.098588
1.192                  0.9958012       -3.568921
1.196                  0.9940949       -3.992717
1.2                    0.9931386        -4.38415
1.204                  0.9931192       -4.764136
1.208                  0.9940579       -5.156582
1.212                  0.9958004       -5.583937
1.216                  0.9980428       -6.062945
1.22                    1.000384       -6.601528
1.224                   1.002398        -7.19736
1.228                   1.003708       -7.838288
1.232                   1.004053       -8.504398
1.236                   1.003337         -9.1713
1.24                    1.001649       -9.814155
1.244                   0.999252       -10.41186
1.248                  0.9965459       -10.95088
1.252                   0.993999       -11.42809
1.256                  0.9920668       -11.85192
1.26                   0.9911091       -12.24149
1.264                  0.9913183       -12.62347
1.268                  0.9926787       -13.02727
1.272                  0.9949636       -13.47951
1.276                  0.9977722       -13.99892
1.28                      1.0006        -14.5929
1.284                   1.002927       -15.25621
1.288                    1.00431       -15.97195
1.292                   1.004463       -16.71435
1.296                   1.003304       -17.45293
1.3                     1.000983       -18.15748
1.304                  0.9978583       -18.80309
1.308                  0.9944485       -19.37478
1.312                  0.9913433       -19.87088
1.316                   0.989103       -20.30431
1.32                   0.9881521       -20.70115
1.324                  0.9886938       -21.09639
1.328                  0.9906633       -21.52754
1.332                  0.9937311       -22.02741
1.336                  0.9973568       -22.61786
1.34                    1.000884       -23.30581
1.344                   1.003654       -24.08206
1.348                   1.005121       -24.92299
1.352                   1.004948       -25.79441
1.356                   1.003071       -26.65684
1.36                   0.9997184       -27.47172
1.364                  0.9953869       -28.20781
1.368                  0.9907718       -28.84711
1.372                  0.9866541        -29.3893
1.376                  0.9837653       -29.85357
1.38                   0.9826463       -30.27665
1.384                  0.9835346        -30.7069
1.388                  0.9863039       -31.19533
1.392                  0.9904734       -31.78564
1.396                  0.9952863       -32.50588
1.4                    0.9998413        -33.3634
1.404                   1.003247       -34.34392
1.408                   1.004774        -35.4141
1.412                   1.003983       -36.52681
1.416                   1.000804       -37.62801
1.42                    0.995573       -38.66477
1.424                  0.9889977       -39.59378
1.428                  0.9820686       -40.38992
1.432                  0.9759084        -41.0532
1.436                  0.9715769       -41.61255
1.44                   0.9698645       -42.12389
1.444                  0.9711164       -42.66165
1.448                  0.9751348       -43.30503
1.452                  0.9811862       -44.12236
1.456                   0.988118       -45.15816
1.46                   0.9945508       -46.42588
1.464                  0.9991065       -47.90706
1.468                    1.00063        -49.5553
1.472                  0.9983722       -51.30356
1.476                  0.9921265        -53.0729
1.48                   0.9822925       -54.78271
1.484                  0.9698706       -56.36262
1.488                  0.9563669       -57.76632
1.492                  0.9435975       -58.98642
1.496                  0.9333926        -60.0671
1.5                    0.9272285        -61.1087
1.504                  0.9258636       -62.25874
1.508                   0.929076        -63.6887
1.512                  0.9355947       -65.56332
1.516                  0.9432403       -68.01424
1.52                   0.9492239        -71.1266
1.524                  0.9505051       -74.94067
1.528                  0.9441299       -79.46319
1.532                  0.9275003       -84.68332
1.536                  0.8985693       -90.58886
1.54                   0.8559723       -97.18256
1.544                  0.7991146       -104.5012
1.548                  0.7282414       -112.6437
1.552                  0.6445301       -121.8224
