! TOUCHSTONE file generated by CST MICROWAVE STUDIO
! Date and time: Tue Jun  7 20:32:33 2022
! Project name: AppElm_antenne_patch_FR4.cst
! Parameters = {L=45; W=58.5; e=0.035; h=1.6; lambda=0.190476; ls=120; w0=1.6; w1=0.533333; ws=120; y0=22; y1=23.8095}
! Header version: 2018
! Port assignment regex: !\s*Touchstone port\s*([0-9]+)\s*=\s*(CST MWS port|CST DS port)\s*([0-9]+|Zmin|Zmax)\s*\(\"(.*)\"\)(\s*mode\s*([0-9]+))?.*
! Touchstone port assignment:
! Touchstone port 1 = CST MWS port 1 ("")
# GHz S MA R 50
0                      0.9902225              -0
0.004                  0.9908256        -9.94248
0.008                  0.9925498       -19.79796
0.012                  0.9951522       -29.48365
0.016                  0.9982708       -38.92445
0.02                    1.001479       -48.05544
0.024                   1.004348       -56.82308
0.028                   1.006508       -65.18545
0.032                   1.007697       -73.11182
0.036                   1.007792        -80.5821
0.04                    1.006825       -87.58639
0.044                   1.004974       -94.12467
0.048                   1.002534       -100.2068
0.052                  0.9998742       -105.8523
0.056                  0.9973834       -111.0899
0.06                   0.9954133       -115.9563
0.064                  0.9942258       -120.4942
0.068                  0.9939568        -124.749
0.072                   0.994598       -128.7655
0.076                  0.9960036       -132.5844
0.08                   0.9979192       -136.2392
0.084                   1.000025       -139.7547
0.088                   1.001989       -143.1463
0.092                   1.003518       -146.4206
0.096                   1.004399       -149.5776
0.1                      1.00453       -152.6127
0.104                   1.003928       -155.5195
0.108                   1.002723       -158.2925
0.112                   1.001136       -160.9298
0.116                  0.9994374        -163.434
0.12                   0.9979064       -165.8137
0.124                  0.9967854       -168.0827
0.128                  0.9962415       -170.2592
0.132                   0.996341       -172.3634
0.136                  0.9970427       -174.4149
0.14                   0.9982077       -176.4305
0.144                  0.9996264       -178.4223
0.148                   1.001056        179.6038
0.152                   1.002259        177.6479
0.156                   1.003046         175.715
0.16                    1.003302        173.8141
0.164                   1.003002        171.9557
0.168                   1.002213        170.1498
0.172                   1.001081        168.4039
0.176                  0.9998058        166.7215
0.18                   0.9986056        165.1015
0.184                  0.9976806        163.5374
0.188                  0.9971799        162.0191
0.192                   0.997177        160.5338
0.196                    0.99766        159.0681
0.2                    0.9985334        157.6103
0.204                   0.999639        156.1521
0.208                   1.000782        154.6894
0.212                   1.001768        153.2231
0.216                   1.002433        151.7584
0.22                    1.002669        150.3038
0.224                   1.002446        148.8691
0.228                   1.001809        147.4641
0.232                   1.000876        146.0965
0.236                  0.9998103        144.7708
0.24                   0.9987964        143.4871
0.244                  0.9980077        142.2413
0.248                  0.9975761        141.0257
0.252                    0.99757        139.8301
0.256                  0.9979841        138.6437
0.26                   0.9987395        137.4567
0.264                  0.9997005        136.2621
0.268                   1.000698        135.0569
0.272                   1.001559        133.8421
0.276                   1.002136        132.6226
0.28                    1.002335        131.4063
0.284                   1.002125        130.2024
0.288                   1.001547        129.0199
0.292                   1.000705        127.8663
0.296                  0.9997464        126.7457
0.3                    0.9988387        125.6587
0.304                  0.9981392        124.6017
0.308                  0.9977674         123.568
0.312                  0.9977854        122.5484
0.316                  0.9981865        121.5331
0.32                   0.9988967        120.5136
0.324                  0.9997899        119.4836
0.328                   1.000709        118.4405
0.332                   1.001492        117.3857
0.336                   1.002006        116.3239
0.34                    1.002163        115.2627
0.344                   1.001937         114.211
0.348                   1.001371        113.1774
0.352                   1.000564        112.1688
0.356                   0.999659        111.1891
0.36                    0.998814        110.2388
0.364                  0.9981772        109.3143
0.368                  0.9978595        108.4091
0.372                  0.9979154        107.5143
0.376                  0.9983338        106.6209
0.38                   0.9990397        105.7207
0.384                   0.999908        104.8081
0.388                   1.000786         103.881
0.392                   1.001519        102.9409
0.396                    1.00198         101.993
0.4                     1.002089        101.0447
0.404                   1.001827        100.1048
0.408                   1.001241         99.1816
0.412                   1.000435        98.28176
0.416                  0.9995477        97.40886
0.42                   0.9987373        96.56287
0.424                  0.9981458        95.74014
0.428                  0.9978774        94.93386
0.432                  0.9979793         94.1354
0.436                   0.998433        93.33572
0.44                   0.9991582        92.52708
0.444                   1.000026        91.70427
0.448                   1.000884        90.86565
0.452                   1.001581        90.01328
0.456                   1.001993        89.15258
0.46                    1.002049        88.29132
0.464                   1.001737        87.43829
0.468                   1.001112        86.60173
0.472                   1.000284        85.78791
0.476                  0.9993982        85.00007
0.48                   0.9986106        84.23772
0.484                   0.998061        83.49667
0.488                  0.9978477        82.76979
0.492                  0.9980092         82.0482
0.496                  0.9985177        81.32293
0.5                    0.9992833        80.58641
0.504                   1.000171        79.83387
0.508                   1.001024        79.06423
0.512                    1.00169        78.28015
0.516                   1.002052         77.4876
0.52                    1.002045        76.69476
0.524                   1.001668         75.9106
0.528                   1.000986        75.14337
0.532                   1.000118         74.3991
0.536                  0.9992173        73.68051
0.54                   0.9984426        72.98651
0.544                  0.9979322        72.31226
0.548                  0.9977783        71.65009
0.552                  0.9980091        70.99076
0.556                  0.9985853        70.32511
0.56                    0.999405        69.64581
0.564                   1.000323        68.94855
0.568                   1.001177        68.23289
0.572                   1.001814        67.50219
0.576                   1.002121        66.76314
0.58                     1.00204        66.02448
0.584                   1.001584        65.29551
0.588                   1.000832        64.58447
0.592                   0.999914        63.89709
0.596                  0.9989929        63.23551
0.6                    0.9982324         62.5979
0.604                  0.9977694        61.97859
0.608                  0.9976886        61.36918
0.612                  0.9980065         60.7599
0.616                  0.9986685        60.14149
0.62                   0.9995585        59.50675
0.624                   1.000519        58.85191
0.628                   1.001378        58.17732
0.632                   1.001983        57.48727
0.636                   1.002225        56.78926
0.64                    1.002056        56.09275
0.644                   1.001505        55.40741
0.648                   1.000666        54.74153
0.652                   0.999685        54.10047
0.656                   0.998736        53.48569
0.66                   0.9979886        52.89442
0.664                  0.9975778        52.32005
0.668                  0.9975796        51.75324
0.672                  0.9979965        51.18368
0.676                  0.9987563        50.60186
0.68                   0.9997251        50.00086
0.684                   1.000731        49.37755
0.688                   1.001593        48.73316
0.692                   1.002157        48.07308
0.696                    1.00232        47.40583
0.7                     1.002048         46.7416
0.704                   1.001386        46.09054
0.708                   1.000447        45.46091
0.712                  0.9993969        44.85761
0.716                  0.9984216        44.28127
0.72                   0.9976966        43.72797
0.724                  0.9973542        43.18995
0.728                  0.9974594        42.65686
0.732                  0.9979972        42.11771
0.736                  0.9988744         41.5628
0.74                   0.9999364        40.98551
0.744                   1.000994        40.38353
0.748                   1.001858        39.75922
0.752                   1.002372        39.11918
0.756                    1.00244        38.47311
0.76                    1.002045        37.83211
0.764                   1.001253        37.20678
0.768                     1.0002        36.60533
0.772                  0.9990713        36.03207
0.776                  0.9980675         35.4866
0.78                   0.9973703        34.96371
0.784                  0.9971076        34.45426
0.788                  0.9973312        33.94678
0.792                   0.998005        33.42952
0.796                  0.9990115        32.89263
0.8                     1.000172        32.32996
0.804                    1.00128        31.74016
0.808                   1.002135        31.12689
0.812                   1.002581         30.4982
0.816                   1.002534        29.86512
0.82                    1.001994        29.23972
0.824                   1.001053        28.63303
0.828                  0.9998731        28.05312
0.832                  0.9986623        27.50356
0.836                  0.9976372        26.98267
0.84                   0.9969847        26.48369
0.844                  0.9968267        25.99592
0.848                  0.9971973        25.50656
0.852                  0.9980355        25.00312
0.856                  0.9991949        24.47564
0.86                     1.00047        23.91858
0.864                   1.001633        23.33177
0.868                   1.002474        22.72046
0.872                   1.002838        22.09435
0.876                   1.002653        21.46596
0.88                    1.001945        20.84844
0.884                   1.000833        20.25328
0.888                  0.9995103        19.68829
0.892                  0.9982101         19.1561
0.896                  0.9971667        18.65352
0.9                    0.9965711        18.17199
0.904                  0.9965366        17.69899
0.908                   0.997076         17.2203
0.912                  0.9980984        16.72263
0.916                  0.9994244        16.19602
0.92                    1.000818        15.63573
0.924                    1.00203        15.04305
0.928                   1.002838        14.42504
0.932                   1.003092        13.79334
0.936                   1.002738        13.16213
0.94                     1.00183        12.54571
0.944                    1.00052          11.956
0.948                  0.9990371        11.40042
0.952                  0.9976441        10.88038
0.956                  0.9965931        10.39087
0.96                   0.9960788        9.921161
0.964                  0.9962021        9.456666
0.968                  0.9969494        8.981545
0.972                   0.998194        8.481653
0.976                  0.9997176        7.947157
0.98                    1.001249         7.37433
0.984                   1.002514        6.766213
0.988                    1.00328        6.132053
0.992                   1.003403        5.485704
0.996                   1.002849        4.843258
1                       1.001707        4.220297
1.004                    1.00017        3.629175
1.008                  0.9985061        3.076751
1.012                  0.9970114        2.562973
1.016                  0.9959583        2.080649
1.02                   0.9955442        1.616528
1.024                  0.9958534        1.153612
1.028                  0.9968409        0.674249
1.032                   0.998337       0.1634262
1.036                   1.000078      -0.3884456
1.04                    1.001753      -0.9837872
1.044                    1.00306       -1.617439
1.048                   1.003756       -2.277583
1.052                   1.003705       -2.947772
1.056                   1.002902       -3.609718
1.06                    1.001475       -4.246399
1.064                  0.9996654       -4.845048
1.068                  0.9977896       -5.399548
1.072                  0.9961828       -5.911787
1.076                  0.9951397       -6.391636
1.08                   0.9948591       -6.855402
1.084                  0.9954049       -7.322963
1.088                   0.996692       -7.814081
1.092                  0.9984994       -8.344814
1.096                   1.000509       -8.924315
1.1                     1.002362       -9.553403
1.104                   1.003722       -10.22435
1.108                   1.004337       -10.92225
1.112                   1.004082       -11.62757
1.116                   1.002983       -12.31941
1.12                    1.001217       -12.97901
1.124                  0.9990839        -13.5931
1.128                  0.9969582       -14.15654
1.132                  0.9952216        -14.6734
1.136                  0.9941951        -15.1568
1.14                   0.9940785       -15.62678
1.144                  0.9949105       -16.10668
1.148                   0.996557       -16.61882
1.152                  0.9987341       -17.18033
1.156                   1.001057       -17.79991
1.16                    1.003109       -18.47636
1.164                   1.004516       -19.19876
1.168                   1.005011       -19.94843
1.172                   1.004482       -20.70203
1.176                   1.002997       -21.43541
1.18                    1.000794        -22.1277
1.184                  0.9982466       -22.76501
1.188                  0.9958005       -23.34322
1.192                  0.9938969       -23.86926
1.196                  0.9928918       -24.36041
1.2                    0.9929875        -24.8414
1.204                  0.9941905       -25.34007
1.208                  0.9963057       -25.88208
1.212                  0.9989689       -26.48602
1.216                   1.001711       -27.16008
1.22                     1.00404       -27.90052
1.224                    1.00553        -28.6925
1.228                   1.005892       -29.51257
1.232                   1.005032       -30.33251
1.236                   1.003065       -31.12393
1.24                    1.000307       -31.86301
1.244                  0.9972239       -32.53483
1.248                  0.9943567       -33.13648
1.252                  0.9922262       -33.67835
1.256                  0.9912368       -34.18304
1.26                   0.9915976       -34.68155
1.264                  0.9932762        -35.2077
1.268                  0.9959989       -35.79167
1.272                  0.9992965       -36.45423
1.276                   1.002586       -37.20297
1.28                    1.005275       -38.03103
1.284                   1.006863       -38.91841
1.288                    1.00703       -39.83533
1.292                   1.005695       -40.74692
1.296                   1.003037        -41.6188
1.3                    0.9994731       -42.42274
1.304                  0.9955992       -43.14186
1.308                  0.9920905       -43.77443
1.312                  0.9895864       -44.33535
1.316                  0.9885697       -44.85456
1.32                   0.9892691       -45.37212
1.324                  0.9916064       -45.93078
1.328                  0.9952023       -46.56774
1.332                  0.9994391       -47.30752
1.336                    1.00357       -48.15752
1.34                    1.006847       -49.10697
1.344                   1.008654       -50.12891
1.348                   1.008609       -51.18463
1.352                   1.006637       -52.22951
1.356                   1.002993       -53.21991
1.36                   0.9982349       -54.12022
1.364                  0.9931464       -54.90943
1.368                  0.9886121       -55.58636
1.372                  0.9854646        -56.1718
1.376                  0.9843262       -56.70656
1.38                   0.9854777       -57.24493
1.384                  0.9887893       -57.84436
1.388                  0.9937284       -58.55419
1.392                  0.9994485       -59.40612
1.396                   1.004936        -60.4085
1.4                     1.009185       -61.54545
1.404                   1.011364       -62.77984
1.408                   1.010961         -64.059
1.412                   1.007876       -65.32227
1.416                   1.002456       -66.50955
1.42                   0.9954728       -67.57061
1.424                  0.9880232       -68.47435
1.428                  0.9813706       -69.21717
1.432                  0.9767288       -69.82759
1.436                  0.9750283        -70.3649
1.44                   0.9767124        -70.9103
1.444                  0.9816152        -71.5513
1.448                  0.9889633       -72.36403
1.452                  0.9974982       -73.39815
1.456                   1.005691       -74.66846
1.46                    1.011994       -76.15383
1.464                   1.015094       -77.80166
1.468                   1.014117        -79.5356
1.472                   1.008779       -81.26492
1.476                   0.999482       -82.89512
1.48                   0.9873113       -84.34026
1.484                  0.9739583       -85.53816
1.488                  0.9615193       -86.46728
1.492                  0.9521763       -87.16238
1.496                  0.9477782       -87.72152
1.5                    0.9494042       -88.29723
1.504                  0.9570314       -89.06934
1.508                  0.9694233       -90.20768
1.512                  0.9842749        -91.8389
1.516                  0.9985486       -94.02905
1.52                    1.008884       -96.78354
1.524                    1.01198       -100.0576
1.528                   1.004901       -103.7694
1.532                  0.9852861       -107.8094
1.536                  0.9515037       -112.0436
1.54                   0.9027484       -116.3078
1.544                  0.8391287       -120.3914
1.548                  0.7617758       -124.0029
1.552                  0.6730435       -126.7035
