! TOUCHSTONE file generated by CST MICROWAVE STUDIO
! Date and time: Tue Jun  7 20:32:28 2022
! Project name: AppElm_antenne_patch_FR4.cst
! Parameters = {L=45; W=58.5; e=0.035; h=1.6; lambda=0.190476; ls=120; w0=1.6; w1=0.533333; ws=120; y0=17; y1=23.8095}
! Header version: 2018
! Port assignment regex: !\s*Touchstone port\s*([0-9]+)\s*=\s*(CST MWS port|CST DS port)\s*([0-9]+|Zmin|Zmax)\s*\(\"(.*)\"\)(\s*mode\s*([0-9]+))?.*
! Touchstone port assignment:
! Touchstone port 1 = CST MWS port 1 ("")
# GHz S MA R 50
0                       0.980001              -0
0.004                  0.9806608       -9.925743
0.008                  0.9825499       -19.76332
0.012                   0.985411       -29.42893
0.016                  0.9888594       -38.84676
0.02                   0.9924392       -47.95148
0.024                  0.9956898       -56.68934
0.028                   0.998206       -65.01833
0.032                   0.999693       -72.90759
0.036                          1       -80.33676
0.04                   0.9991364       -87.29529
0.044                  0.9972667       -93.78222
0.048                  0.9946853       -99.80619
0.052                  0.9917736       -105.3854
0.056                  0.9889468       -110.5475
0.06                   0.9865937       -115.3285
0.064                  0.9850225       -119.7711
0.068                  0.9844166       -123.9217
0.072                  0.9848109       -127.8273
0.076                  0.9860924       -131.5312
0.08                   0.9880233       -135.0703
0.084                  0.9902819       -138.4727
0.088                  0.9925155       -141.7566
0.092                  0.9943933       -144.9309
0.096                  0.9956556       -147.9965
0.1                    0.9961466        -150.949
0.104                  0.9958333       -153.7809
0.108                  0.9948048       -156.4849
0.112                  0.9932543       -159.0558
0.116                  0.9914468       -161.4936
0.12                   0.9896767       -163.8033
0.124                  0.9882211       -165.9965
0.128                  0.9872977       -168.0896
0.132                  0.9870312       -170.1025
0.136                  0.9874372       -172.0559
0.14                   0.9884228       -173.9691
0.144                  0.9898067        -175.857
0.148                  0.9913506       -177.7293
0.152                  0.9928003       -179.5891
0.156                  0.9939271        178.5663
0.16                   0.9945622        176.7443
0.164                  0.9946214        174.9553
0.168                  0.9941153        173.2106
0.172                  0.9931448          171.52
0.176                  0.9918825        169.8902
0.18                   0.9905433        168.3235
0.184                  0.9893491         166.817
0.188                   0.988492         165.363
0.192                  0.9881038          163.95
0.196                  0.9882349        162.5646
0.2                    0.9888488        161.1935
0.204                  0.9898293        159.8255
0.208                  0.9910031         158.453
0.212                  0.9921699        157.0733
0.216                  0.9931354        155.6885
0.22                   0.9937444        154.3048
0.224                  0.9939042        152.9313
0.228                  0.9935984        151.5782
0.232                  0.9928876        150.2552
0.236                  0.9918989        148.9698
0.24                   0.9908026        147.7259
0.244                  0.9897845         146.523
0.248                  0.9890143        145.3564
0.252                  0.9886165         144.218
0.256                  0.9886514        143.0973
0.26                   0.9891043        141.9834
0.264                  0.9898904        140.8669
0.268                  0.9908704        139.7411
0.272                  0.9918741        138.6032
0.276                  0.9927314        137.4547
0.28                   0.9932994        136.3007
0.284                  0.9934867        135.1491
0.288                  0.9932672        134.0093
0.292                  0.9926835        132.8902
0.296                  0.9918395        131.7992
0.3                    0.9908821        130.7403
0.304                  0.9899752        129.7141
0.308                  0.9892733        128.7171
0.312                  0.9888942        127.7425
0.316                  0.9888991        126.7813
0.32                   0.9892821         125.824
0.324                  0.9899735        124.8619
0.328                  0.9908505        123.8889
0.332                  0.9917608        122.9024
0.336                  0.9925479        121.9033
0.34                   0.9930784        120.8963
0.344                  0.9932637        119.8888
0.348                  0.9930757        118.8892
0.352                  0.9925496        117.9062
0.356                  0.9917787        116.9466
0.36                   0.9908971        116.0147
0.364                  0.9900582        115.1112
0.368                  0.9894061        114.2329
0.372                  0.9890533        113.3739
0.376                  0.9890584        112.5258
0.38                    0.989419        111.6797
0.384                  0.9900697        110.8275
0.388                   0.990896        109.9635
0.392                  0.9917536         109.085
0.396                  0.9924938        108.1932
0.4                    0.9929893        107.2924
0.404                  0.9931559        106.3896
0.408                  0.9929659        105.4932
0.412                   0.992454        104.6114
0.416                  0.9917103        103.7509
0.42                   0.9908644        102.9157
0.424                  0.9900637        102.1063
0.428                  0.9894481          101.32
0.432                  0.9891246        100.5508
0.436                  0.9891489        99.79047
0.44                   0.9895161        99.03053
0.444                  0.9901607        98.26315
0.448                  0.9909692        97.48286
0.452                  0.9917997        96.68732
0.456                  0.9925072        95.87778
0.46                   0.9929681        95.05876
0.464                  0.9931022        94.23726
0.468                  0.9928866        93.42153
0.472                  0.9923585        92.61968
0.476                  0.9916105        91.83819
0.48                   0.9907728        91.08087
0.484                  0.9899921        90.34809
0.488                  0.9894056        89.63673
0.492                  0.9891164        88.94064
0.496                  0.9891754        88.25174
0.5                    0.9895721        87.56142
0.504                  0.9902365        86.86209
0.508                  0.9910513         86.1485
0.512                  0.9918727        85.41871
0.516                  0.9925561         84.6743
0.52                   0.9929809        83.92014
0.524                  0.9930717        83.16346
0.528                  0.9928119        82.41269
0.532                  0.9922454        81.67588
0.536                  0.9914709        80.95939
0.54                   0.9906238        80.26667
0.544                  0.9898532        79.59775
0.548                   0.989295        78.94903
0.552                  0.9890489        78.31397
0.556                  0.9891589         77.6842
0.56                   0.9896063        77.05102
0.564                  0.9903125         76.4069
0.568                  0.9911529        75.74693
0.572                  0.9919784        75.06958
0.576                  0.9926429          74.377
0.58                    0.993028        73.67458
0.584                  0.9930643        72.97005
0.588                  0.9927437        72.27207
0.592                  0.9921205        71.58879
0.596                   0.991303        70.92639
0.6                    0.9904348        70.28794
0.604                  0.9896694        69.67288
0.608                  0.9891432        69.07699
0.612                   0.988951        68.49313
0.616                  0.9891286        67.91246
0.62                   0.9896461        67.32603
0.624                  0.9904126        66.72645
0.628                  0.9912926        66.10911
0.632                  0.9921299        65.47311
0.636                  0.9927752        64.82128
0.64                   0.9931127        64.15977
0.644                  0.9930804        63.49692
0.648                  0.9926813        62.84179
0.652                  0.9919832        62.20268
0.656                  0.9911078         61.5855
0.66                   0.9902092        60.99287
0.664                   0.989447        60.42347
0.668                  0.9889585        59.87224
0.672                  0.9888327        59.33124
0.676                  0.9890941        58.79105
0.68                   0.9896989        58.24242
0.684                  0.9905405        57.67804
0.688                  0.9914699         57.0938
0.692                  0.9923212        56.48948
0.696                  0.9929419        55.86888
0.7                    0.9932192        55.23901
0.704                  0.9931007        54.60901
0.708                  0.9926034        53.98845
0.712                  0.9918123        53.38571
0.716                   0.990865        52.80647
0.72                   0.9899292        52.25265
0.724                  0.9891717        51.72204
0.728                  0.9887295        51.20853
0.732                  0.9886849        50.70318
0.736                  0.9890482        50.19588
0.74                   0.9897578        49.67708
0.744                  0.9906881        49.13957
0.748                  0.9916738        48.57984
0.752                  0.9925383        47.99862
0.756                  0.9931251        47.40078
0.76                   0.9933265        46.79448
0.764                  0.9931019        46.18974
0.768                   0.992486        45.59668
0.772                  0.9915846        45.02377
0.776                  0.9905543        44.47633
0.78                   0.9895782        43.95545
0.784                  0.9888313        43.45774
0.788                  0.9884496        42.97587
0.792                  0.9885053        42.49977
0.796                   0.988992        42.01846
0.8                    0.9898258        41.52208
0.804                   0.990859        41.00369
0.808                   0.991907        40.46052
0.812                  0.9927814        39.89442
0.816                  0.9933228        39.31162
0.82                   0.9934296        38.72156
0.824                  0.9930771        38.13529
0.828                  0.9923219        37.56353
0.832                  0.9912931         37.0148
0.836                  0.9901711        36.49388
0.84                   0.9891553        36.00083
0.844                  0.9884296        35.53086
0.848                  0.9881275        35.07514
0.852                  0.9883078        34.62227
0.856                   0.988943        34.16039
0.86                   0.9899226        33.67934
0.864                  0.9910731        33.17255
0.868                   0.992188         32.6382
0.872                  0.9930665        32.07956
0.876                  0.9935465        31.50442
0.88                   0.9935363        30.92372
0.884                  0.9930302        30.34966
0.888                  0.9921114        29.79361
0.892                  0.9909376        29.26403
0.896                  0.9897154        28.76498
0.9                    0.9886634        28.29523
0.904                  0.9879731        27.84831
0.908                  0.9877738         27.4136
0.912                  0.9881071        26.97822
0.916                  0.9889191        26.52932
0.92                   0.9900679        26.05652
0.924                  0.9913497        25.55377
0.928                  0.9925342         25.0205
0.932                  0.9934059        24.46166
0.936                  0.9938032         23.8869
0.94                    0.993647         23.3089
0.944                   0.992956        22.74114
0.948                  0.9918444         22.1956
0.952                  0.9905045        21.68063
0.956                  0.9891726        21.19933
0.96                   0.9880885        20.74882
0.964                  0.9874514        20.32063
0.968                  0.9873825        19.90207
0.972                  0.9879021        19.47852
0.976                  0.9889234         19.0361
0.98                   0.9902677        18.56427
0.984                  0.9916953        18.05775
0.988                  0.9929488        17.51752
0.992                  0.9937989        16.95058
0.996                  0.9940853        16.36878
1                      0.9937461        15.78678
1.004                    0.99283         15.2195
1.008                  0.9914898        14.67958
1.012                  0.9899577        14.17505
1.016                   0.988505        13.70778
1.02                   0.9873945        13.27289
1.024                  0.9868323        12.85944
1.028                  0.9869285        12.45231
1.032                  0.9876753        12.03488
1.036                  0.9889459        11.59215
1.04                   0.9905172        11.11355
1.044                  0.9921079        10.59485
1.048                  0.9934298        10.03894
1.052                  0.9942386         9.45533
1.056                  0.9943784        8.858483
1.06                   0.9938095        8.265369
1.064                  0.9926184        7.692561
1.068                  0.9910044        7.153354
1.072                  0.9892475        6.655307
1.076                    0.98766        6.198678
1.08                   0.9865309        5.776087
1.084                  0.9860726        5.373598
1.088                  0.9863789        4.973131
1.092                  0.9874067         4.55576
1.096                  0.9889797         4.10526
1.1                    0.9908204        3.611136
1.104                  0.9925982         3.07056
1.108                  0.9939892        2.488861
1.112                  0.9947332        1.878593
1.116                  0.9946811        1.257383
1.12                   0.9938225       0.6449659
1.124                  0.9922907      0.05983766
1.128                  0.9903429      -0.4839942
1.132                  0.9883173      -0.9796542
1.136                  0.9865755        -1.42895
1.14                   0.9854375        -1.84243
1.144                  0.9851208       -2.237772
1.148                  0.9856982       -2.636683
1.152                  0.9870802       -3.060883
1.156                  0.9890286       -3.528011
1.16                   0.9911985       -4.048314
1.164                   0.993199        -4.62279
1.168                  0.9946626       -5.243018
1.172                  0.9953115       -5.892637
1.176                  0.9950063       -6.550096
1.18                   0.9937744        -7.19224
1.184                  0.9918091       -7.798219
1.188                  0.9894398       -8.353176
1.192                  0.9870787       -8.851156
1.196                  0.9851496       -9.296648
1.2                    0.9840101       -9.704282
1.204                  0.9838841       -10.09655
1.208                  0.9848152       -10.49981
1.212                  0.9866541        -10.9393
1.216                  0.9890829        -11.4344
1.22                   0.9916697       -11.99498
1.224                  0.9939466        -12.6196
1.228                  0.9954908       -13.29586
1.232                  0.9960014        -14.0025
1.236                  0.9953529       -14.71291
1.24                   0.9936213        -15.3995
1.244                  0.9910775       -16.03832
1.248                  0.9881463       -16.61334
1.252                  0.9853375       -17.11978
1.256                  0.9831573       -17.56566
1.26                   0.9820149       -17.97106
1.264                  0.9821425       -18.36496
1.268                  0.9835456       -18.77999
1.272                  0.9859952        -19.2462
1.276                  0.9890654       -19.78533
1.28                   0.9922078       -20.40675
1.284                   0.994849       -21.10584
1.288                  0.9964907       -21.86487
1.292                  0.9967984         -22.656
1.296                  0.9956619       -23.44575
1.3                    0.9932219       -24.20036
1.304                  0.9898538       -24.89139
1.308                  0.9861146       -25.50094
1.312                  0.9826517       -26.02554
1.316                  0.9800907         -26.478
1.32                   0.9789184       -26.88609
1.324                   0.979384       -27.28817
1.328                  0.9814429       -27.72609
1.332                  0.9847544       -28.23708
1.336                  0.9887391       -28.84661
1.34                   0.9926792       -29.56366
1.344                  0.9958449       -30.37933
1.348                  0.9976218       -31.26846
1.352                  0.9976176       -32.19386
1.356                  0.9957355       -33.11193
1.36                   0.9922008       -33.97954
1.364                  0.9875395       -34.76093
1.368                  0.9825045       -35.43447
1.372                  0.9779569       -35.99788
1.376                  0.9747166       -36.47065
1.38                   0.9734049       -36.89241
1.384                  0.9743143       -37.31651
1.388                  0.9773363       -37.80013
1.392                  0.9819638       -38.39299
1.396                  0.9873765       -39.12759
1.4                    0.9925825        -40.0135
1.404                  0.9965903       -41.03611
1.408                   0.998577        -42.1594
1.412                  0.9980296       -43.33172
1.416                    0.99484       -44.49317
1.42                   0.9893434       -45.58429
1.424                  0.9822935       -46.55535
1.428                  0.9747673       -47.37586
1.432                  0.9680061       -48.04284
1.436                  0.9632014       -48.58559
1.44                   0.9612629       -49.06431
1.444                  0.9626162       -49.56119
1.448                  0.9670834        -50.1648
1.452                  0.9738855       -50.95228
1.456                  0.9817659       -51.97425
1.46                    0.989204       -53.24655
1.464                  0.9946684       -54.74912
1.468                  0.9968621       -56.43069
1.472                  0.9949286       -58.21661
1.476                  0.9886006       -60.01824
1.48                   0.9782818       -61.74383
1.484                  0.9650486       -63.31101
1.488                  0.9505608       -64.66212
1.492                  0.9368578        -65.7814
1.496                   0.926036       -66.71063
1.5                    0.9198346       -67.55621
1.504                  0.9192095       -68.48005
1.508                  0.9240167       -69.67268
1.512                  0.9329199        -71.3164
1.516                  0.9435489       -73.55332
1.52                   0.9528393       -76.46966
1.524                  0.9574415       -80.09793
1.528                  0.9540921       -84.43055
1.532                   0.939906       -89.43716
1.536                  0.9125743       -95.08113
1.54                   0.8704902        -101.334
1.544                  0.8128188       -108.1898
1.548                  0.7395332       -115.6854
1.552                  0.6514386       -123.9366
