! TOUCHSTONE file generated by CST MICROWAVE STUDIO
! Date and time: Tue Jun  7 20:32:27 2022
! Project name: AppElm_antenne_patch_FR4.cst
! Parameters = {L=45; W=58.5; e=0.035; h=1.6; lambda=0.190476; ls=120; w0=1.6; w1=0.533333; ws=120; y0=16; y1=23.8095}
! Header version: 2018
! Port assignment regex: !\s*Touchstone port\s*([0-9]+)\s*=\s*(CST MWS port|CST DS port)\s*([0-9]+|Zmin|Zmax)\s*\(\"(.*)\"\)(\s*mode\s*([0-9]+))?.*
! Touchstone port assignment:
! Touchstone port 1 = CST MWS port 1 ("")
# GHz S MA R 50
0                      0.9887789              -0
0.004                   0.989447       -9.926531
0.008                  0.9913597       -19.76438
0.012                  0.9942554       -29.42925
0.016                  0.9977433       -38.84493
0.02                    1.001361       -47.94579
0.024                    1.00464       -56.67786
0.028                   1.007173       -64.99901
0.032                    1.00866        -72.8784
0.036                   1.008952       -80.29566
0.04                    1.008061       -87.24035
0.044                   1.006156       -93.71178
0.048                   1.003539        -99.7188
0.052                   1.000598         -105.28
0.056                  0.9977529       -110.4234
0.06                   0.9953973       -115.1855
0.064                  0.9938397       -119.6092
0.068                  0.9932615       -123.7416
0.072                  0.9936933       -127.6294
0.076                  0.9950153       -131.3163
0.08                   0.9969826        -134.839
0.084                  0.9992671       -138.2253
0.088                   1.001511       -141.4931
0.092                   1.003383       -144.6511
0.096                   1.004623       -147.6999
0.1                     1.005079       -150.6348
0.104                   1.004724       -153.4484
0.108                   1.003654       -156.1334
0.112                   1.002069        -158.685
0.116                   1.000241       -161.1031
0.12                   0.9984665       -163.3935
0.124                  0.9970238        -165.568
0.128                  0.9961278       -167.6433
0.132                  0.9958985       -169.6395
0.136                  0.9963442       -171.5774
0.14                   0.9973652       -173.4759
0.144                  0.9987728         -175.35
0.148                   1.000325       -177.2086
0.152                   1.001765       -179.0547
0.156                   1.002865        179.1149
0.16                    1.003462         177.308
0.164                   1.003476        175.5349
0.168                   1.002927        173.8068
0.172                   1.001922        172.1335
0.176                   1.000639        170.5212
0.18                   0.9992969        168.9718
0.184                  0.9981179         167.482
0.188                  0.9972914        166.0438
0.192                  0.9969435        164.6454
0.196                  0.9971176        163.2734
0.2                    0.9977692        161.9147
0.204                  0.9987756        160.5581
0.208                   0.999959        159.1969
0.212                   1.001117        157.8285
0.216                   1.002057        156.4555
0.22                    1.002629        155.0843
0.224                   1.002745        153.7242
0.228                   1.002399        152.3854
0.232                   1.001656        151.0774
0.236                   1.000651        149.8073
0.24                    0.999556        148.5784
0.244                  0.9985577          147.39
0.248                   0.997822        146.2369
0.252                   0.997468        145.1108
0.256                  0.9975482        144.0011
0.26                   0.9980403        142.8972
0.264                  0.9988525        141.7898
0.268                  0.9998413        140.6728
0.272                   1.000835        139.5438
0.276                   1.001666        138.4047
0.28                    1.002196         137.261
0.284                   1.002341        136.1207
0.288                   1.002081         134.993
0.292                   1.001467        133.8868
0.296                   1.000609        132.8088
0.3                    0.9996554        131.7629
0.304                  0.9987705         130.749
0.308                  0.9981051        129.7632
0.312                  0.9977705        128.7987
0.316                  0.9978196        127.8463
0.32                   0.9982399        126.8967
0.324                  0.9989541        125.9416
0.328                  0.9998361        124.9754
0.332                   1.000732        123.9957
0.336                   1.001489        123.0042
0.34                    1.001979        122.0057
0.344                   1.002119        121.0076
0.348                   1.001891        120.0184
0.352                   1.001336        119.0464
0.356                   1.000552        118.0982
0.36                   0.9996765        117.1774
0.364                  0.9988613        116.2843
0.368                  0.9982465        115.4155
0.372                  0.9979373        114.5646
0.376                  0.9979852        113.7235
0.38                   0.9983791        112.8833
0.384                  0.9990482        112.0364
0.388                  0.9998742        111.1775
0.392                   1.000713        110.3045
0.396                   1.001419        109.4188
0.4                      1.00187        108.5252
0.404                   1.001991        107.6306
0.408                   1.001761        106.7434
0.412                   1.001223        105.8714
0.416                    1.00047        105.0209
0.42                    0.999634        104.1954
0.424                  0.9988607         103.395
0.428                  0.9982847        102.6166
0.432                  0.9980057         101.854
0.436                  0.9980716        101.0992
0.44                   0.9984696        100.3438
0.444                  0.9991287        99.58042
0.448                  0.9999326        98.80408
0.452                    1.00074        98.01295
0.456                   1.001411        97.20863
0.46                    1.001827        96.39592
0.464                   1.001916        95.58184
0.468                   1.001664        94.77444
0.472                   1.001115         93.9815
0.476                   1.000364        93.20903
0.48                   0.9995427        92.46033
0.484                   0.998795        91.73535
0.488                  0.9982519        91.03064
0.492                  0.9980092        90.33994
0.496                   0.998109        89.65529
0.5                    0.9985341        88.96833
0.504                  0.9992089        88.27197
0.508                   1.000014        87.56148
0.512                   1.000809        86.83537
0.516                   1.001453        86.09561
0.52                    1.001833        85.34724
0.524                   1.001881        84.59748
0.528                   1.001589        83.85449
0.532                   1.001007        83.12595
0.536                   1.000236        82.41772
0.54                    0.999412        81.73274
0.544                   0.998679        81.07061
0.548                  0.9981669        80.42748
0.552                  0.9979669        79.79673
0.556                   0.998115        79.17018
0.56                   0.9985854        78.53949
0.564                  0.9992955        77.89765
0.568                    1.00012        77.24027
0.572                   1.000912        76.56627
0.576                   1.001533        75.87814
0.58                    1.001872        75.18138
0.584                   1.001867        74.48363
0.588                   1.001518        73.79325
0.592                   1.000884        73.11794
0.596                   1.000076        72.46334
0.6                    0.9992361        71.83202
0.604                  0.9985117        71.22305
0.608                  0.9980322        70.63198
0.612                  0.9978839        70.05167
0.616                  0.9980943        69.47357
0.62                   0.9986274        68.88916
0.624                  0.9993892        68.29158
0.628                   1.000245        67.67677
0.632                   1.001043        67.04424
0.636                   1.001641        66.39712
0.64                    1.001931        65.74162
0.644                   1.001859        65.08584
0.648                   1.001437         64.4385
0.652                   1.000735        63.80736
0.656                  0.9998763        63.19786
0.66                   0.9990115        62.61205
0.664                  0.9982943        62.04829
0.668                  0.9978531        61.50138
0.672                  0.9977686        60.96349
0.676                  0.9980575        60.42555
0.68                   0.9986702        59.87882
0.684                  0.9994991        59.31655
0.688                   1.000397        58.73515
0.692                   1.001204        58.13485
0.696                   1.001775        57.51957
0.7                     1.002007        56.89634
0.704                   1.001854        56.27399
0.708                   1.001342        55.66164
0.712                   1.000556        55.06711
0.716                  0.9996349        54.49552
0.72                   0.9987402        53.94834
0.724                  0.9980321        53.42304
0.728                  0.9976386        52.91348
0.732                  0.9976322        52.41098
0.736                  0.9980172        51.90581
0.74                   0.9987269        51.38901
0.744                  0.9996365        50.85396
0.748                   1.000584        50.29769
0.752                     1.0014        49.72123
0.756                   1.001937        49.12958
0.76                    1.002097        48.53074
0.764                   1.001845        47.93435
0.768                   1.001224        47.35002
0.772                   1.000338         46.7856
0.776                  0.9993434        46.24585
0.78                   0.9984156        45.73143
0.784                  0.9977211        45.23878
0.788                  0.9973868         44.7606
0.792                  0.9974758        44.28716
0.796                  0.9979755        43.80804
0.8                    0.9987997        43.31398
0.804                  0.9998022        42.79868
0.808                   1.000805        42.25981
0.812                   1.001626        41.69952
0.816                   1.002118          41.124
0.82                    1.002187        40.54244
0.824                   1.001815         39.9654
0.828                   1.001064          39.403
0.832                   1.000061        38.86313
0.836                  0.9989823        38.35002
0.84                   0.9980197        37.86337
0.844                  0.9973468         37.3983
0.848                  0.9970875        36.94617
0.852                  0.9972924        36.49604
0.856                  0.9979292        36.03669
0.86                   0.9988865        35.55864
0.864                  0.9999951        35.05591
0.868                   1.001056        34.52711
0.872                   1.001878        33.97567
0.876                   1.002308        33.40924
0.88                    1.002266        32.83837
0.884                    1.00175        32.27467
0.888                   1.000845        31.72881
0.892                  0.9997071        31.20862
0.896                   0.998536        30.71765
0.9                    0.9975405        30.25438
0.904                  0.9969017         29.8124
0.908                  0.9967387        29.38144
0.912                   0.997086        28.94919
0.916                  0.9978866        28.50352
0.92                   0.9990002        28.03479
0.924                   1.000229        27.53752
0.928                   1.001353        27.01146
0.932                   1.002166        26.46159
0.936                   1.002518         25.8973
0.94                    1.002338        25.33071
0.944                   1.001649         24.7746
0.948                   1.000565        24.24023
0.952                  0.9992731        23.73528
0.956                  0.9980012        23.26239
0.96                   0.9969775        22.81855
0.964                  0.9963898        22.39547
0.968                    0.99635        21.98098
0.972                  0.9968722        21.56118
0.976                  0.9978689          21.123
0.98                   0.9991655        20.65664
0.984                   1.000531        20.15735
0.988                   1.001719         19.6263
0.992                   1.002513        19.07039
0.996                   1.002762          18.501
1                       1.002411        17.93211
1.004                   1.001513        17.37785
1.008                   1.000216        16.85004
1.012                  0.9987459        16.35611
1.016                   0.997362        15.89754
1.02                   0.9963147        15.46947
1.024                  0.9957981        15.06132
1.028                  0.9959135        14.65866
1.032                  0.9966491        14.24576
1.036                  0.9978801         13.8085
1.04                   0.9993902        13.33705
1.044                   1.000909         12.8276
1.048                   1.002163        12.28312
1.052                   1.002919         11.7128
1.056                   1.003031        11.13047
1.06                    1.002466        10.55226
1.064                    1.00131        9.993831
1.068                  0.9997553        9.467654
1.072                  0.9980726        8.980696
1.076                  0.9965604        8.532982
1.08                   0.9954934        8.117317
1.084                  0.9950718        7.720357
1.088                  0.9953825        7.324914
1.092                  0.9963803         6.91309
1.096                  0.9978943        6.469619
1.1                    0.9996573        5.984702
1.104                   1.001353        5.455823
1.108                   1.002672        4.888187
1.112                   1.003367        4.293818
1.116                   1.003299        3.689502
1.12                    1.002461        3.093966
1.124                   1.000981        2.524693
1.128                  0.9991091        1.994842
1.132                  0.9971686        1.510773
1.136                  0.9955055        1.070631
1.14                    0.994424       0.6642545
1.144                  0.9941303       0.2748219
1.148                  0.9946913      -0.1182493
1.152                  0.9960197      -0.5354971
1.156                  0.9978859      -0.9935569
1.16                   0.9999596       -1.502051
1.164                   1.001866       -2.061831
1.168                   1.003256       -2.664837
1.172                   1.003864       -3.295491
1.176                   1.003558        -3.93332
1.18                    1.002366       -4.556361
1.184                   1.000474       -5.144879
1.188                  0.9981991       -5.684865
1.192                  0.9959352        -6.17077
1.196                  0.9940873        -6.60694
1.2                    0.9929966       -7.007315
1.204                  0.9928761       -7.393234
1.208                  0.9937665       -7.789655
1.212                  0.9955246       -8.220488
1.216                  0.9978459       -8.704074
1.22                    1.000318       -9.249761
1.224                   1.002492       -9.856207
1.228                   1.003964       -10.51165
1.232                   1.004447       -11.19592
1.236                   1.003819       -11.88376
1.24                    1.002155       -12.54899
1.244                  0.9997129       -13.16887
1.248                  0.9968996       -13.72824
1.252                  0.9942029       -14.22255
1.256                  0.9921068       -14.65943
1.26                   0.9910031       -15.05791
1.264                  0.9911145       -15.44543
1.268                  0.9924471       -15.85289
1.272                  0.9947831       -16.30883
1.276                  0.9977161       -16.83395
1.28                    1.000722       -17.43725
1.284                   1.003251        -18.1145
1.288                   1.004826       -18.84898
1.292                   1.005124       -19.61432
1.296                   1.004038       -20.37874
1.3                       1.0017       -21.11013
1.304                  0.9984689       -21.78146
1.308                  0.9948763       -22.37563
1.312                   0.991542       -22.88929
1.316                  0.9890656       -23.33446
1.32                   0.9879146       -23.73739
1.324                  0.9883307       -24.13438
1.328                   0.990275       -24.56511
1.332                  0.9934251       -25.06506
1.336                  0.9972288       -25.65863
1.34                       1.001       -26.35472
1.344                   1.004037       -27.14517
1.348                    1.00575       -28.00638
1.352                   1.005756       -28.90309
1.356                   1.003959       -29.79392
1.36                    1.000569       -30.63775
1.364                  0.9960874       -31.40045
1.368                  0.9912326        -32.0613
1.372                  0.9868296       -32.61788
1.376                  0.9836656       -33.08846
1.38                   0.9823406       -33.51038
1.384                  0.9831416       -33.93415
1.388                   0.985972       -34.41413
1.392                  0.9903547       -34.99784
1.396                  0.9955081       -35.71678
1.4                     1.000483       -36.58078
1.404                   1.004325        -37.5766
1.408                   1.006237       -38.67053
1.412                   1.005719       -39.81367
1.416                   1.002657       -40.94908
1.42                   0.9973615       -42.02004
1.424                  0.9905488       -42.97903
1.428                   0.983247       -43.79671
1.432                  0.9766445       -44.46986
1.436                  0.9718874        -45.0258
1.44                    0.969856       -45.52128
1.444                  0.9709716       -46.03412
1.448                  0.9750802       -46.64874
1.452                  0.9814507       -47.43933
1.456                  0.9888882       -48.45555
1.46                   0.9959364       -49.71418
1.464                   1.001118       -51.19785
1.468                   1.003174       -52.85904
1.472                   1.001261       -54.62759
1.476                  0.9950998       -56.41958
1.48                   0.9850562       -58.14795
1.484                  0.9721423       -59.73449
1.488                  0.9579308       -61.12454
1.492                  0.9443624       -62.30303
1.496                  0.9334382       -63.30917
1.5                    0.9268279       -64.24332
1.504                  0.9254652       -65.25889
1.508                   0.929244       -66.53799
1.512                  0.9369198       -68.25753
1.516                  0.9462477       -70.55884
1.52                   0.9542988       -73.53202
1.524                  0.9578476       -77.21684
1.528                  0.9537359       -81.61507
1.532                  0.9391609       -86.70728
1.536                   0.911881       -92.46947
1.54                   0.8703471       -98.88901
1.544                  0.8137868       -105.9815
1.548                  0.7422577       -113.8155
1.552                  0.6567074       -122.5565
