! TOUCHSTONE file generated by CST MICROWAVE STUDIO
! Date and time: Thu May 12 18:27:56 2022
! Project name: AppElm_antenne_dipole_FR4.cst
! Parameters = {L=38.8; e=0.035; f=2.45e+09; h=1.6; i=0.8; l1=4; lambda=122.449; ls=28.5; wl=1.7; ws=80}
! Header version: 2018
! Port assignment regex: !\s*Touchstone port\s*([0-9]+)\s*=\s*(CST MWS port|CST DS port)\s*([0-9]+|Zmin|Zmax)\s*\(\"(.*)\"\)(\s*mode\s*([0-9]+))?.*
! Touchstone port assignment:
! Touchstone port 1 = CST MWS port 1 ("")
# GHz S MA R 50
0                      0.9999188              -0
0.004                  0.9999186     -0.05506756
0.008                  0.9999177      -0.1101344
0.012                  0.9999164      -0.1651999
0.016                  0.9999145      -0.2202633
0.02                   0.9999119       -0.275324
0.024                  0.9999089      -0.3303812
0.028                  0.9999053      -0.3854344
0.032                  0.9999012      -0.4404827
0.036                  0.9998966      -0.4955257
0.04                   0.9998913      -0.5505626
0.044                  0.9998856      -0.6055929
0.048                  0.9998795      -0.6606159
0.052                  0.9998728      -0.7156309
0.056                  0.9998656      -0.7706378
0.06                   0.9998579      -0.8256354
0.064                  0.9998498      -0.8806237
0.068                  0.9998412       -0.935602
0.072                  0.9998321      -0.9905699
0.076                  0.9998227       -1.045527
0.08                    0.999813       -1.100472
0.084                  0.9998027       -1.155406
0.088                  0.9997921       -1.210328
0.092                  0.9997812       -1.265237
0.096                  0.9997699       -1.320134
0.1                    0.9997583       -1.375018
0.104                  0.9997464       -1.429889
0.108                  0.9997342       -1.484747
0.112                  0.9997219       -1.539591
0.116                  0.9997092       -1.594422
0.12                   0.9996963       -1.649239
0.124                  0.9996832       -1.704043
0.128                  0.9996699       -1.758834
0.132                  0.9996566       -1.813612
0.136                  0.9996431       -1.868376
0.14                   0.9996295       -1.923128
0.144                  0.9996159       -1.977867
0.148                  0.9996021       -2.032595
0.152                  0.9995885        -2.08731
0.156                  0.9995748       -2.142015
0.16                   0.9995611       -2.196708
0.164                  0.9995475       -2.251392
0.168                   0.999534       -2.306067
0.172                  0.9995206       -2.360732
0.176                  0.9995073        -2.41539
0.18                   0.9994942       -2.470041
0.184                  0.9994813       -2.524687
0.188                  0.9994687       -2.579327
0.192                  0.9994563       -2.633963
0.196                  0.9994441       -2.688597
0.2                    0.9994322       -2.743229
0.204                  0.9994209       -2.797861
0.208                  0.9994096       -2.852495
0.212                  0.9993989       -2.907131
0.216                  0.9993886       -2.961771
0.22                   0.9993785       -3.016418
0.224                  0.9993692       -3.071071
0.228                  0.9993602       -3.125734
0.232                  0.9993517       -3.180409
0.236                  0.9993437       -3.235096
0.24                   0.9993363       -3.289797
0.244                  0.9993294       -3.344517
0.248                  0.9993233       -3.399254
0.252                  0.9993176       -3.454013
0.256                  0.9993126       -3.508796
0.26                   0.9993082       -3.563604
0.264                  0.9993045        -3.61844
0.268                  0.9993015       -3.673306
0.272                  0.9992991       -3.728205
0.276                  0.9992974       -3.783139
0.28                   0.9992965       -3.838111
0.284                  0.9992962       -3.893124
0.288                  0.9992967        -3.94818
0.292                  0.9992979       -4.003282
0.296                  0.9992998       -4.058431
0.3                    0.9993025       -4.113632
0.304                   0.999306       -4.168886
0.308                  0.9993101       -4.224198
0.312                   0.999315       -4.279568
0.316                  0.9993207       -4.335001
0.32                    0.999327       -4.390499
0.324                  0.9993341       -4.446064
0.328                  0.9993419         -4.5017
0.332                  0.9993505       -4.557409
0.336                  0.9993597       -4.613195
0.34                   0.9993695        -4.66906
0.344                    0.99938       -4.725007
0.348                  0.9993912       -4.781037
0.352                   0.999403       -4.837155
0.356                  0.9994153       -4.893364
0.36                   0.9994282       -4.949666
0.364                  0.9994418       -5.006062
0.368                  0.9994558       -5.062556
0.372                  0.9994703        -5.11915
0.376                  0.9994853       -5.175847
0.38                   0.9995008       -5.232649
0.384                  0.9995167       -5.289558
0.388                  0.9995328       -5.346576
0.392                  0.9995495       -5.403706
0.396                  0.9995663       -5.460951
0.4                    0.9995834       -5.518311
0.404                  0.9996007       -5.575788
0.408                  0.9996182       -5.633385
0.412                  0.9996358       -5.691103
0.416                  0.9996535       -5.748944
0.42                   0.9996713       -5.806908
0.424                  0.9996891       -5.864999
0.428                  0.9997069       -5.923215
0.432                  0.9997245        -5.98156
0.436                   0.999742       -6.040034
0.44                   0.9997592       -6.098637
0.444                  0.9997764        -6.15737
0.448                  0.9997931       -6.216235
0.452                  0.9998097       -6.275231
0.456                  0.9998257       -6.334359
0.46                   0.9998415       -6.393619
0.464                  0.9998567       -6.453012
0.468                  0.9998713       -6.512537
0.472                  0.9998854       -6.572194
0.476                   0.999899       -6.631982
0.48                   0.9999118       -6.691901
0.484                  0.9999239       -6.751952
0.488                  0.9999354       -6.812132
0.492                   0.999946       -6.872442
0.496                  0.9999557        -6.93288
0.5                    0.9999646       -6.993446
0.504                  0.9999726       -7.054138
0.508                  0.9999797       -7.114954
0.512                  0.9999857       -7.175895
0.516                  0.9999907       -7.236955
0.52                   0.9999947       -7.298138
0.524                  0.9999975       -7.359438
0.528                  0.9999993       -7.420855
0.532                  0.9999999       -7.482387
0.536                  0.9999995       -7.544032
0.54                   0.9999978       -7.605789
0.544                  0.9999948       -7.667653
0.548                  0.9999908       -7.729624
0.552                  0.9999854       -7.791699
0.556                  0.9999787       -7.853876
0.56                    0.999971       -7.916152
0.564                  0.9999618       -7.978529
0.568                  0.9999516       -8.040998
0.572                  0.9999398       -8.103561
0.576                   0.999927       -8.166211
0.58                    0.999913       -8.228952
0.584                  0.9998976       -8.291777
0.588                   0.999881       -8.354686
0.592                  0.9998633       -8.417673
0.596                  0.9998444       -8.480742
0.6                    0.9998242       -8.543885
0.604                  0.9998029       -8.607103
0.608                  0.9997805       -8.670391
0.612                  0.9997571        -8.73375
0.616                  0.9997326       -8.797176
0.62                   0.9997071       -8.860668
0.624                  0.9996806       -8.924224
0.628                   0.999653       -8.987844
0.632                  0.9996248       -9.051521
0.636                  0.9995956        -9.11526
0.64                   0.9995657       -9.179058
0.644                  0.9995351        -9.24291
0.648                  0.9995037       -9.306819
0.652                  0.9994716       -9.370784
0.656                  0.9994391       -9.434802
0.66                   0.9994061       -9.498874
0.664                  0.9993725       -9.563001
0.668                  0.9993387        -9.62718
0.672                  0.9993045       -9.691411
0.676                  0.9992701       -9.755699
0.68                   0.9992354        -9.82004
0.684                  0.9992008       -9.884434
0.688                   0.999166       -9.948887
0.692                  0.9991313        -10.0134
0.696                  0.9990967       -10.07796
0.7                    0.9990622       -10.14259
0.704                  0.9990281       -10.20728
0.708                  0.9989942       -10.27203
0.712                  0.9989608       -10.33685
0.716                  0.9989278       -10.40173
0.72                   0.9988953       -10.46669
0.724                  0.9988634       -10.53172
0.728                  0.9988323       -10.59683
0.732                  0.9988018       -10.66202
0.736                  0.9987721        -10.7273
0.74                   0.9987434       -10.79266
0.744                  0.9987156       -10.85811
0.748                  0.9986887       -10.92366
0.752                  0.9986628       -10.98932
0.756                  0.9986381       -11.05508
0.76                   0.9986145       -11.12095
0.764                  0.9985922       -11.18693
0.768                   0.998571       -11.25304
0.772                  0.9985512       -11.31927
0.776                  0.9985326       -11.38564
0.78                   0.9985155       -11.45214
0.784                  0.9984998       -11.51879
0.788                  0.9984855       -11.58559
0.792                  0.9984726       -11.65254
0.796                  0.9984612       -11.71966
0.8                    0.9984513       -11.78695
0.804                  0.9984428       -11.85441
0.808                  0.9984359       -11.92205
0.812                  0.9984305       -11.98989
0.816                  0.9984266       -12.05792
0.82                   0.9984242       -12.12615
0.824                  0.9984232        -12.1946
0.828                  0.9984238       -12.26326
0.832                  0.9984257       -12.33214
0.836                  0.9984291       -12.40125
0.84                    0.998434        -12.4706
0.844                  0.9984402        -12.5402
0.848                  0.9984475       -12.61004
0.852                  0.9984562       -12.68014
0.856                  0.9984662       -12.75051
0.86                   0.9984773       -12.82114
0.864                  0.9984894       -12.89206
0.868                  0.9985028       -12.96326
0.872                  0.9985169       -13.03474
0.876                  0.9985321       -13.10652
0.88                    0.998548        -13.1786
0.884                  0.9985647       -13.25099
0.888                  0.9985819       -13.32369
0.892                  0.9985999       -13.39671
0.896                  0.9986182       -13.47005
0.9                    0.9986369       -13.54371
0.904                   0.998656       -13.61771
0.908                  0.9986752       -13.69205
0.912                  0.9986944       -13.76673
0.916                  0.9987137       -13.84175
0.92                   0.9987329       -13.91711
0.924                  0.9987516       -13.99283
0.928                  0.9987701        -14.0689
0.932                  0.9987881       -14.14533
0.936                  0.9988055       -14.22212
0.94                   0.9988221       -14.29927
0.944                   0.998838       -14.37678
0.948                  0.9988529       -14.45465
0.952                  0.9988669       -14.53289
0.956                  0.9988795        -14.6115
0.96                   0.9988908       -14.69048
0.964                  0.9989008       -14.76982
0.968                  0.9989092       -14.84952
0.972                   0.998916        -14.9296
0.976                   0.998921       -15.01004
0.98                   0.9989241       -15.09085
0.984                  0.9989253       -15.17202
0.988                  0.9989245       -15.25355
0.992                  0.9989213       -15.33544
0.996                   0.998916       -15.41769
1                      0.9989083       -15.50029
1.004                  0.9988982       -15.58325
1.008                  0.9988854       -15.66656
1.012                  0.9988701       -15.75022
1.016                  0.9988519       -15.83422
1.02                   0.9988311       -15.91856
1.024                  0.9988073       -16.00323
1.028                  0.9987807       -16.08823
1.032                  0.9987512       -16.17358
1.036                  0.9987186       -16.25923
1.04                   0.9986829       -16.34521
1.044                   0.998644       -16.43148
1.048                  0.9986021       -16.51809
1.052                   0.998557       -16.60503
1.056                  0.9985086       -16.69223
1.06                   0.9984571       -16.77972
1.064                  0.9984024       -16.86753
1.068                  0.9983444       -16.95561
1.072                  0.9982833       -17.04399
1.076                   0.998219       -17.13259
1.08                   0.9981514       -17.22152
1.084                  0.9980807        -17.3107
1.088                   0.998007       -17.40014
1.092                  0.9979301       -17.48984
1.096                  0.9978502        -17.5798
1.1                    0.9977674       -17.67002
1.104                  0.9976817       -17.76045
1.108                  0.9975931       -17.85113
1.112                  0.9975016       -17.94208
1.116                  0.9974077       -18.03325
1.12                   0.9973109       -18.12463
1.124                  0.9972117       -18.21627
1.128                  0.9971101       -18.30813
1.132                  0.9970063       -18.40021
1.136                  0.9969002       -18.49252
1.14                   0.9967921       -18.58505
1.144                  0.9966819        -18.6778
1.148                    0.99657       -18.77077
1.152                  0.9964562       -18.86396
1.156                  0.9963411       -18.95738
1.16                   0.9962243       -19.05102
1.164                  0.9961063       -19.14488
1.168                  0.9959871       -19.23897
1.172                  0.9958669       -19.33329
1.176                  0.9957457       -19.42784
1.18                    0.995624       -19.52262
1.184                  0.9955014       -19.61764
1.188                  0.9953786       -19.71291
1.192                  0.9952554       -19.80842
1.196                  0.9951321       -19.90418
1.2                    0.9950086       -20.00021
1.204                  0.9948854        -20.0965
1.208                  0.9947625       -20.19306
1.212                    0.99464       -20.28991
1.216                  0.9945181       -20.38704
1.22                   0.9943968       -20.48448
1.224                  0.9942764       -20.58222
1.228                   0.994157       -20.68027
1.232                  0.9940385       -20.77866
1.236                  0.9939214       -20.87738
1.24                   0.9938055       -20.97645
1.244                   0.993691       -21.07589
1.248                  0.9935781        -21.1757
1.252                  0.9934668        -21.2759
1.256                  0.9933572       -21.37649
1.26                   0.9932493       -21.47751
1.264                  0.9931434       -21.57895
1.268                  0.9930393       -21.68084
1.272                  0.9929372       -21.78318
1.276                  0.9928373         -21.886
1.28                   0.9927392       -21.98931
1.284                  0.9926432       -22.09312
1.288                  0.9925494       -22.19746
1.292                  0.9924576       -22.30234
1.296                  0.9923681       -22.40777
1.3                    0.9922805       -22.51378
1.304                  0.9921951       -22.62037
1.308                  0.9921116       -22.72757
1.312                  0.9920301        -22.8354
1.316                  0.9919505       -22.94388
1.32                    0.991873         -23.053
1.324                   0.991797       -23.16282
1.328                  0.9917227       -23.27332
1.332                  0.9916501       -23.38454
1.336                  0.9915789       -23.49649
1.34                    0.991509        -23.6092
1.344                  0.9914403       -23.72267
1.348                  0.9913727       -23.83692
1.352                  0.9913061       -23.95197
1.356                    0.99124       -24.06784
1.36                   0.9911746       -24.18454
1.364                  0.9911095       -24.30209
1.368                  0.9910445       -24.42051
1.372                  0.9909795       -24.53981
1.376                  0.9909142       -24.66001
1.38                   0.9908484       -24.78113
1.384                   0.990782       -24.90317
1.388                  0.9907144       -25.02615
1.392                  0.9906456       -25.15008
1.396                  0.9905753       -25.27499
1.4                    0.9905033       -25.40087
1.404                  0.9904293       -25.52774
1.408                  0.9903529       -25.65563
1.412                  0.9902739       -25.78452
1.416                  0.9901919       -25.91444
1.42                   0.9901068        -26.0454
1.424                  0.9900182        -26.1774
1.428                  0.9899258       -26.31045
1.432                  0.9898293       -26.44457
1.436                  0.9897286       -26.57975
1.44                   0.9896229       -26.71601
1.444                  0.9895123       -26.85336
1.448                  0.9893965       -26.99178
1.452                  0.9892749       -27.13131
1.456                  0.9891474       -27.27193
1.46                   0.9890138       -27.41364
1.464                  0.9888736       -27.55647
1.468                  0.9887264        -27.7004
1.472                  0.9885723       -27.84543
1.476                  0.9884108       -27.99158
1.48                   0.9882415       -28.13883
1.484                  0.9880642        -28.2872
1.488                  0.9878788       -28.43667
1.492                  0.9876848       -28.58726
1.496                   0.987482       -28.73895
1.5                    0.9872704       -28.89175
1.504                  0.9870494       -29.04566
1.508                  0.9868191       -29.20066
1.512                   0.986579       -29.35676
1.516                   0.986329       -29.51396
1.52                    0.986069       -29.67225
1.524                  0.9857987       -29.83164
1.528                  0.9855179        -29.9921
1.532                  0.9852266       -30.15364
1.536                  0.9849245       -30.31627
1.54                   0.9846114       -30.47996
1.544                  0.9842874       -30.64472
1.548                  0.9839521       -30.81055
1.552                  0.9836059       -30.97743
