! TOUCHSTONE file generated by CST MICROWAVE STUDIO
! Date and time: Thu May 12 17:57:37 2022
! Project name: AppElm_antenne_dipole_FR4.cst
! Parameters = {L=38.8; e=0.035; f=2.45e+09; h=1.6; i=0.8; l1=4; lambda=122.449; ls=30; wl=1.7; ws=96}
! Header version: 2018
! Port assignment regex: !\s*Touchstone port\s*([0-9]+)\s*=\s*(CST MWS port|CST DS port)\s*([0-9]+|Zmin|Zmax)\s*\(\"(.*)\"\)(\s*mode\s*([0-9]+))?.*
! Touchstone port assignment:
! Touchstone port 1 = CST MWS port 1 ("")
# GHz S MA R 50
0                      0.9999104              -0
0.004                    0.99991     -0.05494895
0.008                  0.9999096      -0.1098976
0.012                  0.9999085      -0.1648455
0.016                  0.9999069      -0.2197924
0.02                   0.9999049      -0.2747381
0.024                  0.9999025       -0.329682
0.028                  0.9998996       -0.384624
0.032                  0.9998964      -0.4395637
0.036                  0.9998928      -0.4945007
0.04                   0.9998886      -0.5494348
0.044                  0.9998841      -0.6043657
0.048                  0.9998791       -0.659293
0.052                  0.9998739      -0.7142165
0.056                  0.9998681       -0.769136
0.06                    0.999862       -0.824051
0.064                  0.9998556      -0.8789613
0.068                  0.9998487      -0.9338668
0.072                  0.9998414      -0.9887672
0.076                  0.9998338       -1.043662
0.08                    0.999826       -1.098551
0.084                  0.9998178       -1.153435
0.088                  0.9998092       -1.208313
0.092                  0.9998003       -1.263184
0.096                  0.9997912        -1.31805
0.1                    0.9997817       -1.372909
0.104                   0.999772       -1.427761
0.108                  0.9997621       -1.482607
0.112                  0.9997518       -1.537447
0.116                  0.9997413       -1.592279
0.12                   0.9997308       -1.647105
0.124                    0.99972       -1.701925
0.128                   0.999709       -1.756738
0.132                  0.9996978       -1.811545
0.136                  0.9996865       -1.866346
0.14                    0.999675        -1.92114
0.144                  0.9996636       -1.975929
0.148                   0.999652       -2.030712
0.152                  0.9996403        -2.08549
0.156                  0.9996286       -2.140262
0.16                   0.9996169       -2.195031
0.164                  0.9996051       -2.249795
0.168                  0.9995935       -2.304555
0.172                  0.9995817       -2.359313
0.176                  0.9995701       -2.414068
0.18                   0.9995586       -2.468821
0.184                  0.9995473       -2.523573
0.188                   0.999536       -2.578324
0.192                  0.9995248       -2.633077
0.196                  0.9995139        -2.68783
0.2                    0.9995032       -2.742586
0.204                  0.9994927       -2.797344
0.208                  0.9994824       -2.852107
0.212                  0.9994725       -2.906876
0.216                  0.9994628       -2.961651
0.22                   0.9994534       -3.016434
0.224                  0.9994443       -3.071226
0.228                  0.9994356       -3.126029
0.232                  0.9994274       -3.180844
0.236                  0.9994195       -3.235672
0.24                    0.999412       -3.290515
0.244                  0.9994051       -3.345375
0.248                  0.9993985       -3.400254
0.252                  0.9993924       -3.455153
0.256                  0.9993868       -3.510074
0.26                   0.9993818       -3.565019
0.264                  0.9993773        -3.61999
0.268                  0.9993734       -3.674989
0.272                  0.9993701       -3.730018
0.276                  0.9993673        -3.78508
0.28                   0.9993651       -3.840176
0.284                  0.9993636       -3.895308
0.288                  0.9993626        -3.95048
0.292                  0.9993623       -4.005693
0.296                  0.9993626       -4.060949
0.3                    0.9993636       -4.116253
0.304                  0.9993652       -4.171604
0.308                  0.9993675       -4.227007
0.312                  0.9993704       -4.282463
0.316                   0.999374       -4.337976
0.32                   0.9993783       -4.393548
0.324                  0.9993832       -4.449181
0.328                  0.9993888       -4.504879
0.332                  0.9993951       -4.560644
0.336                   0.999402       -4.616477
0.34                   0.9994095       -4.672384
0.344                  0.9994176       -4.728365
0.348                  0.9994265       -4.784422
0.352                  0.9994359       -4.840561
0.356                  0.9994459       -4.896783
0.36                   0.9994564        -4.95309
0.364                  0.9994675       -5.009484
0.368                  0.9994792        -5.06597
0.372                  0.9994915       -5.122548
0.376                  0.9995041       -5.179222
0.38                   0.9995172       -5.235994
0.384                  0.9995308       -5.292867
0.388                  0.9995448       -5.349842
0.392                  0.9995591       -5.406923
0.396                  0.9995739       -5.464111
0.4                    0.9995889       -5.521407
0.404                  0.9996042       -5.578816
0.408                  0.9996198       -5.636338
0.412                  0.9996356       -5.693975
0.416                  0.9996516       -5.751729
0.42                   0.9996678       -5.809602
0.424                  0.9996841       -5.867596
0.428                  0.9997003       -5.925712
0.432                  0.9997166       -5.983952
0.436                  0.9997327       -6.042316
0.44                   0.9997489       -6.100806
0.444                  0.9997651       -6.159423
0.448                   0.999781       -6.218169
0.452                  0.9997967       -6.277043
0.456                  0.9998121       -6.336047
0.46                   0.9998272       -6.395181
0.464                  0.9998421       -6.454445
0.468                  0.9998565       -6.513841
0.472                  0.9998706       -6.573368
0.476                   0.999884       -6.633027
0.48                    0.999897       -6.692817
0.484                  0.9999095       -6.752737
0.488                  0.9999211        -6.81279
0.492                  0.9999323       -6.872972
0.496                  0.9999427       -6.933284
0.5                    0.9999524       -6.993727
0.504                  0.9999614       -7.054296
0.508                  0.9999694       -7.114994
0.512                  0.9999766       -7.175819
0.516                  0.9999829       -7.236769
0.52                   0.9999883       -7.297843
0.524                  0.9999927       -7.359041
0.528                  0.9999961       -7.420359
0.532                  0.9999984       -7.481797
0.536                  0.9999997       -7.543355
0.54                           1       -7.605028
0.544                  0.9999991       -7.666816
0.548                  0.9999971       -7.728715
0.552                  0.9999939       -7.790727
0.556                  0.9999896       -7.852847
0.56                   0.9999842       -7.915073
0.564                  0.9999774       -7.977405
0.568                  0.9999696        -8.03984
0.572                  0.9999604       -8.102375
0.576                  0.9999501       -8.165006
0.58                   0.9999385       -8.227734
0.584                  0.9999259       -8.290554
0.588                   0.999912       -8.353466
0.592                  0.9998969       -8.416467
0.596                  0.9998806       -8.479557
0.6                    0.9998631       -8.542728
0.604                  0.9998445       -8.605983
0.608                  0.9998248       -8.669316
0.612                  0.9998039        -8.73273
0.616                   0.999782       -8.796218
0.62                   0.9997591        -8.85978
0.624                  0.9997352       -8.923414
0.628                  0.9997102       -8.987119
0.632                  0.9996843       -9.050894
0.636                  0.9996575       -9.114733
0.64                   0.9996298        -9.17864
0.644                  0.9996013       -9.242611
0.648                   0.999572       -9.306643
0.652                  0.9995421       -9.370738
0.656                  0.9995115       -9.434894
0.66                   0.9994802       -9.499112
0.664                  0.9994484       -9.563386
0.668                  0.9994161       -9.627722
0.672                  0.9993834       -9.692115
0.676                  0.9993503       -9.756568
0.68                    0.999317        -9.82108
0.684                  0.9992834        -9.88565
0.688                  0.9992495       -9.950281
0.692                  0.9992156       -10.01497
0.696                  0.9991817       -10.07973
0.7                    0.9991477       -10.14454
0.704                  0.9991139       -10.20942
0.708                  0.9990802       -10.27437
0.712                  0.9990468       -10.33938
0.716                  0.9990136       -10.40446
0.72                    0.998981       -10.46961
0.724                  0.9989487       -10.53484
0.728                  0.9989169       -10.60015
0.732                  0.9988857       -10.66553
0.736                  0.9988551         -10.731
0.74                   0.9988253       -10.79655
0.744                  0.9987962        -10.8622
0.748                   0.998768       -10.92794
0.752                  0.9987406       -10.99377
0.756                  0.9987143       -11.05971
0.76                   0.9986889       -11.12576
0.764                  0.9986646       -11.19191
0.768                  0.9986414       -11.25819
0.772                  0.9986194       -11.32458
0.776                  0.9985985        -11.3911
0.78                   0.9985789       -11.45776
0.784                  0.9985606       -11.52455
0.788                  0.9985435       -11.59149
0.792                  0.9985279       -11.65857
0.796                  0.9985135       -11.72581
0.8                    0.9985007       -11.79321
0.804                  0.9984891       -11.86078
0.808                  0.9984791       -11.92853
0.812                  0.9984704       -11.99645
0.816                  0.9984632       -12.06456
0.82                   0.9984575       -12.13287
0.824                  0.9984531       -12.20138
0.828                  0.9984502       -12.27009
0.832                  0.9984487       -12.33902
0.836                  0.9984486       -12.40817
0.84                   0.9984499       -12.47755
0.844                  0.9984525       -12.54716
0.848                  0.9984564       -12.61701
0.852                  0.9984616       -12.68711
0.856                  0.9984681       -12.75746
0.86                   0.9984757       -12.82808
0.864                  0.9984845       -12.89896
0.868                  0.9984944       -12.97012
0.872                  0.9985053       -13.04156
0.876                  0.9985171       -13.11328
0.88                   0.9985299       -13.18529
0.884                  0.9985435       -13.25761
0.888                  0.9985578       -13.33023
0.892                  0.9985727       -13.40315
0.896                  0.9985883       -13.47639
0.9                    0.9986043       -13.54995
0.904                  0.9986207       -13.62384
0.908                  0.9986375       -13.69805
0.912                  0.9986543        -13.7726
0.916                  0.9986714       -13.84749
0.92                   0.9986884       -13.92272
0.924                  0.9987054       -13.99829
0.928                  0.9987222       -14.07421
0.932                  0.9987385       -14.15049
0.936                  0.9987545       -14.22712
0.94                   0.9987698       -14.30411
0.944                  0.9987846       -14.38145
0.948                  0.9987986       -14.45917
0.952                  0.9988117       -14.53724
0.956                  0.9988238       -14.61568
0.96                   0.9988347       -14.69448
0.964                  0.9988445       -14.77365
0.968                  0.9988529       -14.85319
0.972                  0.9988598        -14.9331
0.976                  0.9988652       -15.01337
0.98                   0.9988688       -15.09401
0.984                  0.9988707       -15.17502
0.988                  0.9988707       -15.25639
0.992                  0.9988687       -15.33813
0.996                  0.9988646       -15.42022
1                      0.9988582       -15.50268
1.004                  0.9988497        -15.5855
1.008                  0.9988387       -15.66867
1.012                  0.9988252       -15.75219
1.016                  0.9988092       -15.83607
1.02                   0.9987905       -15.92029
1.024                  0.9987691       -16.00486
1.028                   0.998745       -16.08976
1.032                   0.998718       -16.17503
1.036                  0.9986882       -16.26059
1.04                   0.9986553       -16.34649
1.044                  0.9986195       -16.43271
1.048                  0.9985806       -16.51927
1.052                  0.9985387       -16.60615
1.056                  0.9984936        -16.6933
1.06                   0.9984455       -16.78081
1.064                   0.998394       -16.86859
1.068                  0.9983395       -16.95667
1.072                  0.9982819       -17.04505
1.076                  0.9982211       -17.13374
1.08                    0.998157       -17.22267
1.084                    0.99809        -17.3119
1.088                  0.9980197        -17.4014
1.092                  0.9979464       -17.49117
1.096                  0.9978702       -17.58125
1.1                    0.9977908       -17.67155
1.104                  0.9977085       -17.76209
1.108                  0.9976233        -17.8529
1.112                  0.9975354       -17.94399
1.116                  0.9974446       -18.03532
1.12                   0.9973512       -18.12687
1.124                  0.9972552        -18.2187
1.128                  0.9971565       -18.31073
1.132                  0.9970555       -18.40301
1.136                  0.9969523       -18.49553
1.14                   0.9968467       -18.58829
1.144                  0.9967391       -18.68127
1.148                  0.9966295       -18.77449
1.152                   0.996518       -18.86795
1.156                  0.9964048       -18.96163
1.16                   0.9962899       -19.05554
1.164                  0.9961735       -19.14969
1.168                  0.9960557       -19.24408
1.172                  0.9959368        -19.3387
1.176                  0.9958167       -19.43355
1.18                   0.9956956       -19.52866
1.184                  0.9955738         -19.624
1.188                  0.9954512        -19.7196
1.192                  0.9953282       -19.81545
1.196                  0.9952046       -19.91155
1.2                    0.9950809       -20.00792
1.204                  0.9949571       -20.10456
1.208                  0.9948332       -20.20148
1.212                  0.9947095       -20.29867
1.216                  0.9945862       -20.39616
1.22                   0.9944633       -20.49395
1.224                  0.9943409       -20.59205
1.228                  0.9942192       -20.69046
1.232                  0.9940984       -20.78919
1.236                  0.9939784       -20.88827
1.24                   0.9938596       -20.98769
1.244                  0.9937419       -21.08748
1.248                  0.9936253       -21.18763
1.252                  0.9935103       -21.28816
1.256                  0.9933967       -21.38909
1.26                   0.9932846       -21.49043
1.264                   0.993174       -21.59219
1.268                  0.9930652       -21.69439
1.272                  0.9929581       -21.79704
1.276                  0.9928529       -21.90015
1.28                   0.9927494       -22.00374
1.284                  0.9926478       -22.10783
1.288                  0.9925481       -22.21244
1.292                  0.9924503       -22.31757
1.296                  0.9923544       -22.42324
1.3                    0.9922605       -22.52948
1.304                  0.9921684       -22.63629
1.308                  0.9920782        -22.7437
1.312                  0.9919898       -22.85172
1.316                  0.9919033       -22.96037
1.32                   0.9918184       -23.06967
1.324                  0.9917352       -23.17963
1.328                  0.9916536       -23.29027
1.332                  0.9915735       -23.40162
1.336                  0.9914947       -23.51367
1.34                   0.9914173       -23.62646
1.344                  0.9913409          -23.74
1.348                  0.9912657       -23.85431
1.352                  0.9911912       -23.96941
1.356                  0.9911175       -24.08531
1.36                   0.9910443       -24.20202
1.364                  0.9909714       -24.31958
1.368                  0.9908988       -24.43798
1.372                  0.9908263       -24.55724
1.376                  0.9907533       -24.67739
1.38                     0.99068       -24.79845
1.384                   0.990606       -24.92041
1.388                   0.990531       -25.04329
1.392                   0.990455       -25.16712
1.396                  0.9903777        -25.2919
1.4                    0.9902985       -25.41765
1.404                  0.9902175       -25.54438
1.408                  0.9901345        -25.6721
1.412                  0.9900487       -25.80082
1.416                  0.9899605       -25.93056
1.42                   0.9898692       -26.06132
1.424                  0.9897746       -26.19312
1.428                  0.9896762       -26.32596
1.432                  0.9895742       -26.45985
1.436                  0.9894679        -26.5948
1.44                    0.989357       -26.73082
1.444                  0.9892416       -26.86791
1.448                  0.9891209       -27.00609
1.452                  0.9889948       -27.14535
1.456                  0.9888631       -27.28571
1.46                   0.9887255       -27.42715
1.464                  0.9885814       -27.56971
1.468                  0.9884309       -27.71336
1.472                  0.9882735       -27.85812
1.476                   0.988109       -28.00399
1.48                   0.9879369       -28.15097
1.484                  0.9877574       -28.29906
1.488                  0.9875696       -28.44826
1.492                  0.9873738       -28.59857
1.496                  0.9871695          -28.75
1.5                    0.9869564       -28.90253
1.504                  0.9867343       -29.05618
1.508                   0.986503       -29.21094
1.512                  0.9862622       -29.36679
1.516                   0.986012       -29.52375
1.52                   0.9857516       -29.68182
1.524                  0.9854813       -29.84098
1.528                   0.985201       -30.00123
1.532                    0.98491       -30.16258
1.536                  0.9846085       -30.32502
1.54                   0.9842964       -30.48854
1.544                  0.9839734       -30.65314
1.548                  0.9836395       -30.81882
1.552                  0.9832946       -30.98557
