! TOUCHSTONE file generated by CST MICROWAVE STUDIO
! Date and time: Thu May 12 17:57:32 2022
! Project name: AppElm_antenne_dipole_FR4.cst
! Parameters = {L=38.8; e=0.035; f=2.45e+09; h=1.6; i=0.8; l1=4; lambda=122.449; ls=30; wl=1.7; ws=72}
! Header version: 2018
! Port assignment regex: !\s*Touchstone port\s*([0-9]+)\s*=\s*(CST MWS port|CST DS port)\s*([0-9]+|Zmin|Zmax)\s*\(\"(.*)\"\)(\s*mode\s*([0-9]+))?.*
! Touchstone port assignment:
! Touchstone port 1 = CST MWS port 1 ("")
# GHz S MA R 50
0                      0.9999096              -0
0.004                  0.9999093     -0.05500849
0.008                  0.9999084      -0.1100165
0.012                  0.9999073      -0.1650233
0.016                  0.9999054      -0.2200287
0.02                   0.9999032      -0.2750319
0.024                  0.9999005      -0.3300325
0.028                  0.9998971      -0.3850299
0.032                  0.9998935      -0.4400237
0.036                  0.9998893      -0.4950134
0.04                   0.9998845      -0.5499985
0.044                  0.9998794      -0.6049785
0.048                  0.9998736       -0.659953
0.052                  0.9998676      -0.7149212
0.056                   0.999861      -0.7698831
0.06                   0.9998541      -0.8248381
0.064                  0.9998467      -0.8797859
0.068                  0.9998388      -0.9347259
0.072                  0.9998306      -0.9896579
0.076                  0.9998221       -1.044581
0.08                   0.9998131       -1.099496
0.084                  0.9998037       -1.154402
0.088                  0.9997941       -1.209299
0.092                  0.9997839       -1.264186
0.096                  0.9997736       -1.319063
0.1                    0.9997629        -1.37393
0.104                   0.999752       -1.428787
0.108                  0.9997408       -1.483634
0.112                  0.9997293        -1.53847
0.116                  0.9997176       -1.593296
0.12                   0.9997056       -1.648111
0.124                  0.9996935       -1.702917
0.128                  0.9996812       -1.757712
0.132                  0.9996688       -1.812496
0.136                  0.9996561        -1.86727
0.14                   0.9996435       -1.922035
0.144                  0.9996308        -1.97679
0.148                  0.9996179       -2.031536
0.152                   0.999605       -2.086273
0.156                  0.9995921       -2.141001
0.16                   0.9995793       -2.195721
0.164                  0.9995665       -2.250433
0.168                  0.9995536       -2.305139
0.172                   0.999541       -2.359838
0.176                  0.9995283       -2.414531
0.18                   0.9995159       -2.469219
0.184                  0.9995035       -2.523904
0.188                  0.9994914       -2.578585
0.192                  0.9994794       -2.633264
0.196                  0.9994677       -2.687942
0.2                    0.9994562        -2.74262
0.204                  0.9994451       -2.797298
0.208                  0.9994343       -2.851979
0.212                  0.9994237       -2.906664
0.216                  0.9994135       -2.961353
0.22                   0.9994038       -3.016049
0.224                  0.9993944       -3.070753
0.228                  0.9993854       -3.125466
0.232                  0.9993769        -3.18019
0.236                  0.9993689       -3.234927
0.24                   0.9993614       -3.289678
0.244                  0.9993544       -3.344446
0.248                  0.9993478       -3.399233
0.252                  0.9993419       -3.454039
0.256                  0.9993366       -3.508868
0.26                   0.9993318       -3.563722
0.264                  0.9993277       -3.618602
0.268                  0.9993241       -3.673511
0.272                  0.9993213        -3.72845
0.276                  0.9993189       -3.783425
0.28                   0.9993174       -3.838434
0.284                  0.9993164       -3.893482
0.288                  0.9993162       -3.948571
0.292                  0.9993167       -4.003702
0.296                  0.9993179        -4.05888
0.3                    0.9993198       -4.114107
0.304                  0.9993224       -4.169384
0.308                  0.9993257       -4.224717
0.312                  0.9993297       -4.280104
0.316                  0.9993344       -4.335552
0.32                   0.9993399       -4.391061
0.324                  0.9993459       -4.446635
0.328                  0.9993528       -4.502277
0.332                  0.9993602        -4.55799
0.336                  0.9993685       -4.613775
0.34                   0.9993773       -4.669636
0.344                  0.9993869       -4.725575
0.348                   0.999397       -4.781597
0.352                  0.9994078       -4.837702
0.356                  0.9994192       -4.893893
0.36                   0.9994312       -4.950174
0.364                  0.9994438       -5.006547
0.368                  0.9994569       -5.063015
0.372                  0.9994705        -5.11958
0.376                  0.9994845       -5.176245
0.38                   0.9994991       -5.233012
0.384                  0.9995141       -5.289883
0.388                  0.9995294       -5.346861
0.392                  0.9995453       -5.403948
0.396                  0.9995614       -5.461146
0.4                    0.9995778       -5.518457
0.404                  0.9995943       -5.575884
0.408                  0.9996112       -5.633428
0.412                  0.9996283        -5.69109
0.416                  0.9996454       -5.748874
0.42                   0.9996628       -5.806779
0.424                    0.99968        -5.86481
0.428                  0.9996974       -5.922964
0.432                  0.9997147       -5.981245
0.436                   0.999732       -6.039654
0.44                    0.999749        -6.09819
0.444                  0.9997659       -6.156858
0.448                  0.9997826       -6.215655
0.452                   0.999799       -6.274584
0.456                  0.9998152       -6.333643
0.46                   0.9998309       -6.392835
0.464                  0.9998462        -6.45216
0.468                   0.999861       -6.511616
0.472                  0.9998755       -6.571205
0.476                  0.9998892       -6.630926
0.48                   0.9999024        -6.69078
0.484                   0.999915       -6.750764
0.488                  0.9999267        -6.81088
0.492                  0.9999379       -6.871128
0.496                  0.9999481       -6.931504
0.5                    0.9999576        -6.99201
0.504                  0.9999663       -7.052642
0.508                   0.999974       -7.113402
0.512                  0.9999808       -7.174287
0.516                  0.9999867       -7.235296
0.52                   0.9999915       -7.296429
0.524                  0.9999952       -7.357681
0.528                  0.9999979       -7.419053
0.532                  0.9999994       -7.480543
0.536                          1       -7.542148
0.54                   0.9999992       -7.603868
0.544                  0.9999973         -7.6657
0.548                  0.9999944       -7.727639
0.552                  0.9999901       -7.789688
0.556                  0.9999846        -7.85184
0.56                   0.9999778       -7.914097
0.564                  0.9999698       -7.976454
0.568                  0.9999606       -8.038909
0.572                  0.9999501        -8.10146
0.576                  0.9999384       -8.164105
0.58                   0.9999255       -8.226841
0.584                  0.9999114       -8.289664
0.588                  0.9998959       -8.352575
0.592                  0.9998791        -8.41557
0.596                  0.9998613       -8.478647
0.6                    0.9998423       -8.541803
0.604                  0.9998221       -8.605036
0.608                  0.9998007       -8.668343
0.612                  0.9997782       -8.731722
0.616                  0.9997547       -8.795174
0.62                   0.9997302       -8.858693
0.624                  0.9997046        -8.92228
0.628                   0.999678        -8.98593
0.632                  0.9996505       -9.049646
0.636                  0.9996221       -9.113421
0.64                   0.9995928       -9.177258
0.644                  0.9995628       -9.241154
0.648                  0.9995322       -9.305104
0.652                  0.9995007       -9.369115
0.656                  0.9994687       -9.433181
0.66                   0.9994361       -9.497302
0.664                  0.9994031       -9.561478
0.668                  0.9993695       -9.625709
0.672                  0.9993356       -9.689992
0.676                  0.9993014       -9.754331
0.68                    0.999267       -9.818724
0.684                  0.9992324       -9.883173
0.688                  0.9991977       -9.947678
0.692                  0.9991629       -10.01224
0.696                  0.9991283       -10.07686
0.7                    0.9990937       -10.14154
0.704                  0.9990593       -10.20628
0.708                  0.9990251       -10.27108
0.712                  0.9989914       -10.33594
0.716                  0.9989579       -10.40088
0.72                    0.998925       -10.46588
0.724                  0.9988927       -10.53096
0.728                   0.998861       -10.59611
0.732                  0.9988298       -10.66134
0.736                  0.9987995       -10.72665
0.74                     0.99877       -10.79205
0.744                  0.9987414       -10.85754
0.748                  0.9987137       -10.92312
0.752                   0.998687        -10.9888
0.756                  0.9986614       -11.05458
0.76                   0.9986368       -11.12047
0.764                  0.9986135       -11.18647
0.768                  0.9985913       -11.25259
0.772                  0.9985705       -11.31884
0.776                  0.9985509       -11.38521
0.78                   0.9985327       -11.45171
0.784                  0.9985157       -11.51836
0.788                  0.9985004       -11.58515
0.792                  0.9984863        -11.6521
0.796                  0.9984738        -11.7192
0.8                    0.9984628       -11.78647
0.804                  0.9984532       -11.85391
0.808                  0.9984451       -11.92153
0.812                  0.9984385       -11.98933
0.816                  0.9984335       -12.05733
0.82                     0.99843       -12.12552
0.824                   0.998428       -12.19392
0.828                  0.9984274       -12.26253
0.832                  0.9984283       -12.33137
0.836                  0.9984308       -12.40042
0.84                   0.9984346       -12.46971
0.844                  0.9984398       -12.53924
0.848                  0.9984464       -12.60902
0.852                  0.9984542       -12.67905
0.856                  0.9984634       -12.74934
0.86                   0.9984737        -12.8199
0.864                  0.9984852       -12.89073
0.868                  0.9984979       -12.96185
0.872                  0.9985115       -13.03325
0.876                  0.9985261       -13.10494
0.88                   0.9985416       -13.17692
0.884                  0.9985579       -13.24922
0.888                  0.9985749       -13.32182
0.892                  0.9985926       -13.39474
0.896                  0.9986108       -13.46798
0.9                    0.9986294       -13.54155
0.904                  0.9986485       -13.61544
0.908                  0.9986678       -13.68967
0.912                  0.9986872       -13.76425
0.916                  0.9987067       -13.83916
0.92                   0.9987261       -13.91442
0.924                  0.9987452       -13.99003
0.928                  0.9987643         -14.066
0.932                  0.9987828       -14.14232
0.936                  0.9988009         -14.219
0.94                   0.9988183       -14.29605
0.944                   0.998835       -14.37346
0.948                  0.9988508       -14.45123
0.952                  0.9988657       -14.52937
0.956                  0.9988794       -14.60788
0.96                   0.9988918       -14.68676
0.964                   0.998903         -14.766
0.968                  0.9989126       -14.84562
0.972                  0.9989207       -14.92561
0.976                  0.9989272       -15.00596
0.98                   0.9989318       -15.08669
0.984                  0.9989345       -15.16777
0.988                  0.9989351       -15.24923
0.992                  0.9989337       -15.33105
0.996                    0.99893       -15.41323
1                       0.998924       -15.49577
1.004                  0.9989156       -15.57866
1.008                  0.9989047       -15.66192
1.012                  0.9988912       -15.74552
1.016                  0.9988751       -15.82947
1.02                   0.9988561       -15.91376
1.024                  0.9988342       -15.99839
1.028                  0.9988097       -16.08336
1.032                   0.998782       -16.16866
1.036                  0.9987513       -16.25431
1.04                   0.9987177       -16.34026
1.044                  0.9986808       -16.42654
1.048                  0.9986408       -16.51312
1.052                  0.9985977       -16.60003
1.056                  0.9985514       -16.68723
1.06                   0.9985017       -16.77474
1.064                  0.9984489       -16.86255
1.068                  0.9983929       -16.95063
1.072                  0.9983336       -17.03902
1.076                   0.998271       -17.12765
1.08                   0.9982053       -17.21663
1.084                  0.9981364       -17.30583
1.088                  0.9980644       -17.39528
1.092                  0.9979891       -17.48503
1.096                  0.9979108       -17.57502
1.1                    0.9978295       -17.66526
1.104                  0.9977452       -17.75575
1.108                  0.9976581       -17.84648
1.112                   0.997568       -17.93746
1.116                  0.9974753       -18.02868
1.12                   0.9973798       -18.12013
1.124                  0.9972817       -18.21181
1.128                  0.9971812       -18.30372
1.132                  0.9970783       -18.39587
1.136                   0.996973       -18.48823
1.14                   0.9968657       -18.58082
1.144                  0.9967563       -18.67363
1.148                  0.9966449       -18.76667
1.152                  0.9965319       -18.85992
1.156                   0.996417        -18.9534
1.16                   0.9963007        -19.0471
1.164                  0.9961829       -19.14102
1.168                  0.9960639       -19.23517
1.172                  0.9959438       -19.32954
1.176                  0.9958228       -19.42414
1.18                   0.9957009       -19.51898
1.184                  0.9955783       -19.61405
1.188                  0.9954552       -19.70936
1.192                  0.9953317       -19.80492
1.196                   0.995208       -19.90073
1.2                    0.9950843       -19.99679
1.204                  0.9949605       -20.09311
1.208                   0.994837        -20.1897
1.212                  0.9947139       -20.28657
1.216                  0.9945912       -20.38373
1.22                   0.9944692       -20.48118
1.224                  0.9943481       -20.57893
1.228                  0.9942278       -20.67698
1.232                  0.9941086       -20.77537
1.236                  0.9939905       -20.87408
1.24                   0.9938737       -20.97315
1.244                  0.9937583       -21.07256
1.248                  0.9936445       -21.17235
1.252                  0.9935322       -21.27251
1.256                  0.9934215       -21.37307
1.26                   0.9933127       -21.47404
1.264                  0.9932058       -21.57543
1.268                  0.9931007       -21.67726
1.272                  0.9929977       -21.77954
1.276                  0.9928966       -21.88229
1.28                   0.9927978       -21.98552
1.284                  0.9927009       -22.08925
1.288                  0.9926063        -22.1935
1.292                  0.9925138       -22.29828
1.296                  0.9924234        -22.4036
1.3                    0.9923353       -22.50949
1.304                  0.9922491       -22.61597
1.308                  0.9921652       -22.72305
1.312                  0.9920833       -22.83075
1.316                  0.9920033       -22.93909
1.32                   0.9919253       -23.04808
1.324                  0.9918493       -23.15774
1.328                  0.9917749       -23.26809
1.332                  0.9917022       -23.37916
1.336                  0.9916312       -23.49094
1.34                   0.9915616       -23.60348
1.344                  0.9914933       -23.71677
1.348                  0.9914262       -23.83085
1.352                  0.9913601       -23.94572
1.356                  0.9912949        -24.0614
1.36                   0.9912303       -24.17792
1.364                  0.9911663       -24.29528
1.368                  0.9911025       -24.41351
1.372                  0.9910388       -24.53262
1.376                   0.990975       -24.65262
1.38                   0.9909108       -24.77354
1.384                  0.9908461       -24.89538
1.388                  0.9907805       -25.01816
1.392                  0.9907137        -25.1419
1.396                  0.9906457        -25.2666
1.4                     0.990576       -25.39228
1.404                  0.9905045       -25.51896
1.408                  0.9904309       -25.64665
1.412                  0.9903547       -25.77534
1.416                  0.9902758       -25.90507
1.42                   0.9901938       -26.03584
1.424                  0.9901086       -26.16765
1.428                  0.9900196       -26.30052
1.432                  0.9899267       -26.43446
1.436                  0.9898295       -26.56947
1.44                   0.9897278       -26.70556
1.444                  0.9896211       -26.84273
1.448                  0.9895094         -26.981
1.452                  0.9893921       -27.12036
1.456                  0.9892691       -27.26083
1.46                   0.9891398        -27.4024
1.464                  0.9890042       -27.54508
1.468                  0.9888617       -27.68888
1.472                  0.9887124       -27.83379
1.476                  0.9885558       -27.97981
1.48                   0.9883915       -28.12696
1.484                  0.9882194       -28.27521
1.488                   0.988039       -28.42459
1.492                  0.9878504       -28.57509
1.496                  0.9876529       -28.72669
1.5                    0.9874466       -28.87942
1.504                   0.987231       -29.03325
1.508                  0.9870061        -29.1882
1.512                  0.9867714       -29.34425
1.516                   0.986527        -29.5014
1.52                   0.9862724       -29.65967
1.524                  0.9860077       -29.81902
1.528                  0.9857324       -29.97946
1.532                  0.9854465         -30.141
1.536                  0.9851499       -30.30361
1.54                   0.9848424       -30.46731
1.544                  0.9845238       -30.63208
1.548                  0.9841942       -30.79792
1.552                  0.9838532       -30.96483
