! TOUCHSTONE file generated by CST MICROWAVE STUDIO
! Date and time: Tue Jun  7 21:31:17 2022
! Project name: AppElm_antenne_patch_FR4.cst
! Parameters = {L=45; W=58.5; e=0.035; h=1.6; lambda=0.190476; ls=120; w0=1.52; w1=0.533; ws=120; y0=20; y1=23.81}
! Header version: 2018
! Port assignment regex: !\s*Touchstone port\s*([0-9]+)\s*=\s*(CST MWS port|CST DS port)\s*([0-9]+|Zmin|Zmax)\s*\(\"(.*)\"\)(\s*mode\s*([0-9]+))?.*
! Touchstone port assignment:
! Touchstone port 1 = CST MWS port 1 ("")
# GHz S MA R 50
0                      0.9893529              -0
0.004                  0.9899872       -9.926505
0.008                  0.9918027       -19.76659
0.012                  0.9945517       -29.43802
0.016                  0.9978632       -38.86628
0.02                    1.001298       -47.98695
0.024                   1.004411       -56.74687
0.028                   1.006813       -65.10438
0.032                   1.008222       -73.02875
0.036                   1.008492       -80.49964
0.04                    1.007637       -87.50648
0.044                   1.005817       -94.04824
0.048                   1.003319       -100.1334
0.052                   1.000514       -105.7799
0.056                  0.9978015       -111.0148
0.06                   0.9955564       -115.8734
0.064                  0.9940731       -120.3975
0.068                  0.9935243       -124.6321
0.072                  0.9939396       -128.6229
0.076                  0.9952054        -132.412
0.08                   0.9970878        -136.035
0.084                  0.9992743       -139.5192
0.088                   1.001423       -142.8823
0.092                   1.003216       -146.1331
0.096                   1.004404       -149.2727
0.1                     1.004842        -152.297
0.104                   1.004503       -155.1994
0.108                   1.003478       -157.9731
0.112                   1.001959       -160.6139
0.116                   1.000205        -163.122
0.12                    0.998501       -165.5031
0.124                  0.9971152       -167.7687
0.128                  0.9962542        -169.935
0.132                   0.996034       -172.0217
0.136                  0.9964639       -174.0487
0.14                   0.9974481       -176.0347
0.144                  0.9988065       -177.9939
0.148                   1.000305       -179.9354
0.152                   1.001699        178.1379
0.156                   1.002766        176.2289
0.16                    1.003347        174.3448
0.164                   1.003367        172.4957
0.168                   1.002841        170.6923
0.172                   1.001873        168.9438
0.176                   1.000635        167.2565
0.18                   0.9993371         165.632
0.184                  0.9981955        164.0671
0.188                  0.9973937        162.5542
0.192                  0.9970548        161.0817
0.196                  0.9972217        159.6368
0.2                    0.9978522        158.2064
0.204                  0.9988282          156.78
0.208                  0.9999773        155.3506
0.212                   1.001103        153.9159
0.216                   1.002018        152.4781
0.22                    1.002576        151.0435
0.224                   1.002691        149.6212
0.228                   1.002354        148.2209
0.232                    1.00163         146.852
0.236                    1.00065        145.5213
0.24                   0.9995814        144.2322
0.244                  0.9986063        142.9839
0.248                  0.9978873        141.7714
0.252                   0.997541        140.5865
0.256                   0.997619        139.4189
0.26                   0.9981002        138.2581
0.264                  0.9988949        137.0951
0.268                  0.9998626        135.9239
0.272                   1.000835         134.742
0.276                   1.001647        133.5513
0.28                    1.002164        132.3571
0.284                   1.002301        131.1674
0.288                    1.00204        129.9911
0.292                   1.001432         128.837
0.296                   1.000584        127.7118
0.3                    0.9996431        126.6191
0.304                  0.9987711         125.559
0.308                  0.9981168        124.5275
0.312                  0.9977896        123.5178
0.316                  0.9978424         122.521
0.32                   0.9982613        121.5277
0.324                  0.9989701        120.5297
0.328                  0.9998435        119.5215
0.332                   1.000729        118.5008
0.336                   1.001474        117.4692
0.34                    1.001953        116.4316
0.344                   1.002085        115.3953
0.348                    1.00185        114.3688
0.352                   1.001293        113.3602
0.356                   1.000511        112.3761
0.36                    0.999642          111.42
0.364                  0.9988362        110.4922
0.368                  0.9982334        109.5891
0.372                  0.9979375        108.7044
0.376                  0.9979982        107.8297
0.38                   0.9984032        106.9563
0.384                  0.9990798        106.0767
0.388                  0.9999089        105.1855
0.392                   1.000745        104.2808
0.396                   1.001444        103.3641
0.4                     1.001884        102.4402
0.404                    1.00199        101.5163
0.408                   1.001745        100.6005
0.412                   1.001193        99.70088
0.416                   1.000431        98.82356
0.42                   0.9995914        97.97194
0.424                  0.9988217        97.14608
0.428                  0.9982562        96.34252
0.432                  0.9979939        95.55494
0.436                  0.9980797        94.77522
0.44                   0.9984982        93.99491
0.444                  0.9991752        93.20663
0.448                  0.9999908        92.40546
0.452                   1.000802        91.58973
0.456                   1.001467        90.76127
0.46                    1.001868        89.92504
0.464                   1.001937        89.08824
0.468                    1.00166        88.25911
0.472                   1.001087        87.44539
0.476                   1.000318        86.65309
0.48                   0.9994873        85.88529
0.484                  0.9987415        85.14175
0.488                  0.9982121        84.41869
0.492                  0.9979931        83.70958
0.496                  0.9981235        83.00619
0.5                    0.9985805         82.3001
0.504                  0.9992836        81.58416
0.508                   1.000108        80.85379
0.512                   1.000909        80.10776
0.516                   1.001544        79.34834
0.52                    1.001901        78.58087
0.524                   1.001916        77.81297
0.528                   1.001585        77.05293
0.532                   1.000964        76.30851
0.536                   1.000163        75.58548
0.54                   0.9993205        74.88659
0.544                  0.9985862        74.21103
0.548                  0.9980903        73.55452
0.552                  0.9979214        72.91008
0.556                  0.9981102        72.26915
0.56                   0.9986242        71.62323
0.564                  0.9993726        70.96532
0.568                   1.000223        70.29121
0.572                   1.001024        69.60019
0.576                   1.001633        68.89521
0.58                    1.001941        68.18224
0.584                   1.001892        67.46931
0.588                   1.001493        66.76505
0.592                   1.000811        66.07723
0.596                  0.9999672        65.41135
0.6                    0.9991092        64.76964
0.604                  0.9983901        64.15062
0.608                  0.9979391         63.5493
0.612                  0.9978384        62.95801
0.616                  0.9981081        62.36774
0.62                   0.9987021        61.76981
0.624                  0.9995159        61.15741
0.628                   1.000405        60.52679
0.632                   1.001212        59.87801
0.636                   1.001791        59.21477
0.64                    1.002039        58.54391
0.644                   1.001907         57.8741
0.648                   1.001418        57.21434
0.652                   1.000654        56.57244
0.656                  0.9997497        55.95359
0.66                   0.9988644        55.35937
0.664                  0.9981567        54.78744
0.668                  0.9977544        54.23187
0.672                  0.9977319        53.68416
0.676                  0.9980955        53.13472
0.68                   0.9987829        52.57466
0.684                  0.9996724        51.99736
0.688                   1.000606        51.39972
0.692                   1.001416        50.78262
0.696                   1.001957        50.15085
0.7                     1.002129        49.51216
0.704                   1.001898        48.87602
0.708                   1.001302        48.25184
0.712                   1.000443        47.64745
0.716                  0.9994725        47.06756
0.72                   0.9985625        46.51298
0.724                  0.9978773        45.98026
0.728                  0.9975425        45.46234
0.732                  0.9976216        44.94969
0.736                   0.998104        44.43209
0.74                   0.9989065        43.90044
0.744                  0.9998872        43.34844
0.748                   1.000871        42.77376
0.752                   1.001682        42.17841
0.756                   1.002171        41.56836
0.76                    1.002248        40.95258
0.764                   1.001895         40.3414
0.768                   1.001168        39.74472
0.772                   1.000194        39.17028
0.776                  0.9991428        38.62227
0.78                    0.998203        38.10041
0.784                  0.9975444        37.59998
0.788                  0.9972877        37.11258
0.792                  0.9974834        36.62752
0.796                  0.9981003        36.13384
0.8                    0.9990303        35.62229
0.804                   1.000108        35.08704
0.808                    1.00114         34.5267
0.812                   1.001939        33.94461
0.816                   1.002359        33.34823
0.82                    1.002319        32.74781
0.824                    1.00182        32.15467
0.828                   1.000944        31.57915
0.832                  0.9998431        31.02882
0.836                  0.9987126        30.50708
0.84                   0.9977551        30.01236
0.844                  0.9971455        29.53839
0.848                  0.9969983        29.07513
0.852                  0.9973457         28.6106
0.856                  0.9981305         28.1331
0.86                   0.9992154        27.63329
0.864                   1.000408        27.10598
0.868                   1.001493        26.55103
0.872                   1.002274         25.9734
0.876                   1.002607        25.38223
0.88                    1.002424        24.78933
0.884                   1.001751        24.20705
0.888                   1.000701        23.64619
0.892                  0.9994563        23.11403
0.896                   0.998238        22.61294
0.9                    0.9972661        22.13981
0.904                   0.996719        21.68646
0.908                  0.9967016        21.24103
0.912                  0.9972237        20.79012
0.916                  0.9981967        20.32122
0.92                   0.9994493        19.82509
0.924                   1.000758        19.29738
0.928                   1.001885        18.73951
0.932                   1.002626        18.15834
0.936                   1.002839          17.565
0.94                    1.002477        16.97298
0.944                   1.001597        16.39579
0.948                   1.000346        15.84459
0.952                  0.9989429        15.32615
0.956                  0.9976387        14.84152
0.96                   0.9966704        14.38562
0.964                   0.996219        13.94803
0.968                  0.9963746        13.51475
0.972                  0.9971177        13.07075
0.976                  0.9983221        12.60277
0.98                   0.9997758        12.10176
0.984                   1.001219        11.56457
0.988                    1.00239        10.99451
0.992                   1.003074        10.40075
0.996                   1.003139        9.796758
1                       1.002563        9.197958
1.004                   1.001435        8.619106
1.008                  0.9999494        8.071679
1.012                  0.9983657         7.56174
1.016                  0.9969679        7.088666
1.02                   0.9960119        6.645021
1.024                  0.9956786        6.217707
1.028                  0.9960384        5.790259
1.032                  0.9970362        5.345864
1.036                  0.9984998        4.870507
1.04                    1.000169        4.355582
1.044                   1.001745        3.799475
1.048                   1.002938        3.207847
1.052                   1.003525        2.592635
1.056                   1.003389        1.970012
1.06                    1.002536        1.357628
1.064                   1.001105       0.7715842
1.068                  0.9993395       0.2235736
1.072                  0.9975492      -0.2813585
1.076                   0.996057      -0.7459914
1.08                   0.9951386       -1.180732
1.084                   0.994972       -1.601948
1.088                  0.9956008       -2.029063
1.092                  0.9969247       -2.480951
1.096                  0.9987144        -2.97239
1.1                     1.000652       -3.511306
1.104                    1.00239       -4.097311
1.108                   1.003609       -4.721863
1.112                   1.004078       -5.369639
1.116                   1.003696       -6.021184
1.12                    1.002512       -6.656255
1.124                   1.000717       -7.257175
1.128                  0.9986197       -7.812046
1.132                  0.9965898       -8.317196
1.136                  0.9949953       -8.778102
1.14                   0.9941346       -9.208845
1.144                  0.9941793       -9.629789
1.148                  0.9951387       -10.06391
1.152                  0.9968549       -10.53247
1.156                  0.9990282       -11.05101
1.16                    1.001271       -11.62645
1.164                   1.003177       -12.25584
1.168                   1.004392       -12.92692
1.172                   1.004678       -13.62022
1.176                   1.003959       -14.31229
1.18                    1.002334       -14.97965
1.184                   1.000067       -15.60276
1.188                  0.9975461       -16.16962
1.192                  0.9952166       -16.67832
1.196                  0.9935039       -17.13788
1.2                     0.992734       -17.56718
1.204                  0.9930689       -17.99175
1.208                  0.9944724       -18.43915
1.212                  0.9967114       -18.93367
1.216                  0.9993959       -19.49178
1.22                    1.002048       -20.11906
1.224                   1.004185       -20.80922
1.228                   1.005408        -21.5453
1.232                   1.005471       -22.30246
1.236                   1.004327       -23.05213
1.24                    1.002141       -23.76662
1.244                  0.9992692       -24.42389
1.248                  0.9962031        -25.0117
1.252                  0.9934878       -25.53038
1.256                  0.9916244       -25.99358
1.26                   0.9909751        -26.4265
1.264                  0.9916904       -26.86156
1.268                  0.9936733       -27.33237
1.272                  0.9965915       -27.86728
1.276                  0.9999333       -28.48393
1.28                    1.003099       -29.18608
1.284                   1.005508       -29.96302
1.288                   1.006696       -30.79145
1.292                   1.006404       -31.63934
1.296                   1.004625       -32.47104
1.3                     1.001611       -33.25295
1.304                  0.9978461       -33.95932
1.308                  0.9939683       -34.57723
1.312                  0.9906652        -35.1099
1.316                  0.9885506       -35.57741
1.32                   0.9880454       -36.01404
1.324                  0.9892892       -36.46232
1.328                  0.9921035       -36.96497
1.332                   0.996015       -37.55655
1.336                   1.000338       -38.25688
1.34                    1.004294       -39.06751
1.344                    1.00715        -39.9717
1.348                   1.008343       -40.93735
1.352                   1.007579       -41.92209
1.356                   1.004898       -42.87975
1.36                    1.000671       -43.76753
1.364                  0.9955633       -44.55331
1.368                  0.9904334       -45.22212
1.372                  0.9861922       -45.78069
1.376                  0.9836386        -46.2584
1.38                      0.9833       -46.70354
1.384                  0.9853156       -47.17492
1.388                   0.989391       -47.73034
1.392                  0.9948381       -48.41515
1.396                   1.000694       -49.25355
1.4                     1.005888       -50.24458
1.404                   1.009427       -51.36281
1.408                   1.010561       -52.56264
1.412                   1.008918       -53.78523
1.416                   1.004575        -54.9667
1.42                   0.9980781       -56.04744
1.424                  0.9903844       -56.98198
1.428                  0.9827344       -57.74871
1.432                  0.9764571       -58.35753
1.436                  0.9727297       -58.85266
1.44                    0.972334       -59.30813
1.444                  0.9754706       -59.81495
1.448                  0.9816803       -60.46296
1.452                  0.9899031       -61.32233
1.456                  0.9986565       -62.43039
1.46                    1.006289       -63.78626
1.464                    1.01125       -65.35276
1.468                   1.012337       -67.06309
1.472                   1.008893       -68.82979
1.476                   1.000934       -70.55507
1.48                   0.9892086       -72.14265
1.484                  0.9751636         -73.512
1.488                  0.9608057       -74.61576
1.492                  0.9484302       -75.45835
1.496                  0.9402248       -76.11015
1.5                    0.9377937       -76.70855
1.504                  0.9417219       -77.43893
1.508                  0.9513205        -78.4981
1.512                  0.9646469       -80.05402
1.516                   0.978781       -82.21781
1.52                   0.9902449         -85.036
1.524                  0.9954346       -88.49903
1.528                    0.99098       -92.55702
1.532                  0.9740041       -97.13479
1.536                  0.9422909       -102.1422
1.54                   0.8943818       -107.4781
1.544                  0.8296224       -113.0279
1.548                  0.7481749       -118.6504
1.552                  0.6510138       -124.1474
