! TOUCHSTONE file generated by CST MICROWAVE STUDIO
! Date and time: Thu Jun  9 15:37:42 2022
! Project name: AppElm_antenne_patch_Alumina.cst
! Parameters = {L=30.5; W=41.8; e=0.035; h=1.6; lambda=0.190476; ls=90; w0=1.12; w1=0.373; ws=108; y0=14; y1=10}
! Header version: 2018
! Port assignment regex: !\s*Touchstone port\s*([0-9]+)\s*=\s*(CST MWS port|CST DS port)\s*([0-9]+|Zmin|Zmax)\s*\(\"(.*)\"\)(\s*mode\s*([0-9]+))?.*
! Touchstone port assignment:
! Touchstone port 1 = CST MWS port 1 ("")
# GHz S MA R 50
0                      0.9792796              -0
0.004                  0.9804191       -10.35537
0.008                  0.9836875       -20.60063
0.012                  0.9886583       -30.63263
0.016                   0.994694       -40.36055
0.02                    1.001038       -49.70911
0.024                   1.006921       -58.61912
0.028                   1.011655       -67.04633
0.032                    1.01472       -74.95945
0.036                   1.015815       -82.33808
0.04                    1.014892       -89.17123
0.044                   1.012152       -95.45701
0.048                   1.008016        -101.203
0.052                   1.003073       -106.4274
0.056                  0.9980022       -111.1601
0.06                   0.9934848       -115.4433
0.064                  0.9901081       -119.3307
0.068                   0.988283        -122.884
0.072                  0.9881878       -126.1691
0.076                  0.9897461       -129.2494
0.08                   0.9926467       -132.1805
0.084                  0.9963989       -135.0051
0.088                   1.000414       -137.7509
0.092                   1.004097       -140.4299
0.096                   1.006928       -143.0405
0.1                     1.008536       -145.5704
0.104                   1.008742       -148.0012
0.108                   1.007575       -150.3119
0.112                   1.005267       -152.4842
0.116                   1.002208       -154.5054
0.12                   0.9988915       -156.3719
0.124                  0.9958387       -158.0911
0.128                  0.9935177       -159.6808
0.132                   0.992271       -161.1681
0.136                  0.9922634       -162.5856
0.14                   0.9934575       -163.9666
0.144                  0.9956254       -165.3402
0.148                  0.9983908       -166.7277
0.152                   1.001295       -168.1394
0.156                   1.003871       -169.5747
0.16                     1.00572       -171.0229
0.164                   1.006568       -172.4654
0.168                   1.006304       -173.8801
0.172                   1.004998       -175.2439
0.176                    1.00288       -176.5374
0.18                    1.000311       -177.7478
0.184                  0.9977163       -178.8714
0.188                  0.9955239        -179.914
0.192                  0.9940894        179.1087
0.196                  0.9936388        178.1744
0.2                     0.994231        177.2572
0.204                  0.9957495        176.3323
0.208                  0.9979247          175.38
0.212                   1.000383        174.3886
0.216                   1.002711        173.3563
0.22                    1.004525        172.2908
0.224                   1.005533        171.2074
0.228                    1.00558        170.1264
0.232                   1.004671        169.0699
0.236                   1.002967        168.0578
0.24                    1.000761        167.1051
0.244                  0.9984302        166.2187
0.248                  0.9963685        165.3965
0.252                  0.9949247        164.6271
0.256                  0.9943405        163.8923
0.26                   0.9947088        163.1691
0.264                  0.9959579        162.4349
0.268                  0.9978657        161.6706
0.272                     1.0001        160.8642
0.276                   1.002277        160.0126
0.28                    1.004027         159.122
0.284                   1.005059        158.2061
0.288                   1.005202        157.2839
0.292                   1.004438        156.3766
0.296                   1.002902        155.5042
0.3                      1.00086        154.6816
0.304                  0.9986632        153.9168
0.308                  0.9966896        153.2091
0.312                  0.9952803        152.5486
0.316                   0.994678        151.9184
0.32                   0.9949844        151.2971
0.324                  0.9961424        150.6628
0.328                  0.9979457         149.997
0.332                   1.000078        149.2879
0.336                   1.002169        148.5322
0.34                    1.003858        147.7356
0.344                   1.004857        146.9112
0.348                   1.004996        146.0779
0.352                   1.004254        145.2563
0.356                   1.002761         144.466
0.36                    1.000776        143.7221
0.364                  0.9986424        143.0325
0.368                  0.9967329        142.3963
0.372                  0.9953816        141.8042
0.376                  0.9948258        141.2392
0.38                   0.9951627        140.6805
0.384                  0.9963315        140.1065
0.388                  0.9981257        139.4991
0.392                   1.000228        138.8471
0.396                   1.002271        138.1476
0.4                     1.003899        137.4066
0.404                    1.00483        136.6377
0.408                   1.004903        135.8598
0.412                   1.004105        135.0935
0.416                   1.002576        134.3583
0.42                     1.00058        133.6689
0.424                  0.9984659        133.0326
0.428                  0.9966046         132.448
0.432                  0.9953251        131.9049
0.436                  0.9948551        131.3862
0.44                   0.9952783        130.8707
0.444                  0.9965201        130.3369
0.448                  0.9983599        129.7673
0.452                   1.000472        129.1512
0.456                   1.002485        128.4869
0.46                    1.004044        127.7812
0.464                   1.004878        127.0486
0.468                    1.00484        126.3084
0.472                   1.003935        125.5818
0.476                   1.002319        124.8879
0.48                    1.000274        124.2407
0.484                  0.9981574        123.6467
0.488                  0.9963446        123.1034
0.492                  0.9951582        122.5994
0.496                  0.9948119        122.1167
0.5                    0.9953691        121.6333
0.504                  0.9967325         121.128
0.508                    0.99866        120.5836
0.512                   1.000809        119.9908
0.516                   1.002801        119.3487
0.52                    1.004284        118.6659
0.524                   1.004997         117.958
0.528                   1.004813        117.2451
0.532                   1.003761        116.5488
0.536                   1.002024         115.888
0.54                   0.9999037         115.276
0.544                  0.9977749         114.718
0.548                  0.9960156        114.2099
0.552                   0.994942        113.7389
0.556                   0.994749        113.2854
0.56                    0.995474        112.8269
0.564                  0.9969896        112.3421
0.568                   0.999026        111.8145
0.572                   1.001221        111.2361
0.576                   1.003185        110.6078
0.58                     1.00457        109.9398
0.584                   1.005129        109.2492
0.588                   1.004761        108.5573
0.592                   1.003526         107.886
0.596                   1.001638         107.254
0.6                    0.9994255        106.6735
0.604                  0.9972812        106.1482
0.608                  0.9955881         105.672
0.612                  0.9946519        105.2301
0.616                  0.9946448        104.8016
0.62                   0.9955719         104.363
0.624                  0.9972696        103.8929
0.628                  0.9994355         103.376
0.632                   1.001684        102.8056
0.636                   1.003614        102.1848
0.64                    1.004883        101.5257
0.644                   1.005264        100.8474
0.648                   1.004685        100.1722
0.652                   1.003242        99.52242
0.656                   1.001186        98.91633
0.66                   0.9988783        98.36493
0.664                  0.9967285        97.86991
0.668                  0.9951234        97.42297
0.672                  0.9943555        97.00711
0.676                  0.9945685        96.59954
0.68                   0.9957286        96.17601
0.684                  0.9976309        95.71536
0.688                  0.9999358        95.20334
0.692                   1.002232        94.63529
0.696                    1.00411        94.01663
0.7                     1.005234        93.36181
0.704                   1.005401        92.69174
0.708                   1.004574         92.0301
0.712                   1.002894        91.39952
0.716                   1.000652        90.81765
0.72                   0.9982419        90.29396
0.724                  0.9960944        89.82783
0.728                  0.9945977        89.40836
0.732                  0.9940267        89.01603
0.736                  0.9944902        88.62625
0.74                   0.9959102         88.2139
0.744                  0.9980345        87.75816
0.748                   1.000484        87.24633
0.752                    1.00282        86.67593
0.756                   1.004625        86.05511
0.76                    1.005574        85.40088
0.764                   1.005495        84.73621
0.768                   1.004392        84.08609
0.772                   1.002454        83.47334
0.776                   1.000017        82.91479
0.78                   0.9975129        82.41798
0.784                  0.9953904        81.97967
0.788                  0.9940363        81.58596
0.792                  0.9937022        81.21462
0.796                  0.9944558         80.8391
0.8                    0.9961678        80.43357
0.804                  0.9985335        79.97782
0.808                    1.00113        79.46095
0.812                   1.003493         78.8832
0.816                   1.005198        78.25569
0.82                    1.005938        77.59825
0.824                   1.005573        76.93609
0.828                   1.004158        76.29545
0.832                   1.001934        75.69929
0.836                    0.99929        75.16324
0.84                   0.9966939        74.69263
0.844                  0.9946139        74.28116
0.848                  0.9934309        73.91159
0.852                  0.9933674        73.55871
0.856                  0.9944432        73.19402
0.86                   0.9964703        72.79108
0.864                  0.9990871        72.33059
0.868                   1.001825        71.80389
0.872                   1.004191        71.21426
0.876                   1.005762        70.57613
0.88                    1.006249        69.91249
0.884                   1.005556        69.25078
0.888                   1.003793        68.61855
0.892                   1.001262        68.03858
0.896                  0.9984047        67.52512
0.9                     0.995731        67.08076
0.904                  0.9937254        66.69568
0.908                  0.9927587        66.34892
0.912                  0.9930169        66.01207
0.916                  0.9944633        65.65452
0.92                   0.9968439        65.24952
0.924                  0.9997338          64.779
0.928                   1.002615        64.23697
0.932                   1.004971         63.6302
0.936                   1.006375        62.97687
0.94                     1.00657        62.30322
0.944                   1.005507        61.63927
0.948                    1.00336        61.01365
0.952                   1.000496        60.44896
0.956                  0.9974206        59.95754
0.96                   0.9946827        59.53886
0.964                  0.9927825        59.17906
0.968                  0.9920749        58.85304
0.972                  0.9927019        58.52889
0.976                   0.994561        58.17404
0.98                   0.9973241        57.76147
0.984                   1.000497        57.27487
0.988                    1.00351        56.71136
0.992                   1.005821        56.08169
0.996                   1.007011        55.40821
1                       1.006853        54.72081
1.004                   1.005358        54.05207
1.008                   1.002773        53.43186
1.012                  0.9995416        52.88222
1.016                  0.9962327        52.41324
1.02                   0.9934416        52.02068
1.024                  0.9916813        51.68604
1.028                  0.9912857        51.37948
1.032                  0.9923425        51.06532
1.036                  0.9946732        50.70888
1.04                   0.9978654         50.2832
1.044                   1.001348        49.77408
1.048                   1.004496        49.18232
1.052                   1.006741        48.52327
1.056                   1.007673        47.82387
1.06                    1.007108        47.11807
1.064                   1.005124        46.44128
1.068                    1.00205        45.82452
1.072                  0.9984166        45.28913
1.076                  0.9948657        44.84248
1.08                   0.9920406        44.47594
1.084                  0.9904662        44.16559
1.088                  0.9904481        43.87626
1.092                  0.9920095        43.56803
1.096                  0.9948828        43.20405
1.1                    0.9985582         42.7577
1.104                   1.002378        42.21737
1.108                   1.005656        41.58825
1.112                   1.007797        40.89096
1.116                   1.008405        40.15774
1.12                    1.007345        39.42711
1.124                   1.004776        38.73767
1.128                   1.001122        38.12179
1.132                  0.9970144        37.59988
1.136                  0.9931804        37.17605
1.14                   0.9903184        36.83645
1.144                  0.9889658        36.55081
1.148                   0.989393        36.27761
1.152                   0.991546        35.97208
1.156                  0.9950521        35.59489
1.16                   0.9992877        35.11989
1.164                   1.003494        34.53875
1.168                   1.006914        33.86171
1.172                   1.008923        33.11561
1.176                   1.009141        32.33883
1.18                    1.007493        31.57527
1.184                   1.004229        30.86733
1.188                  0.9998924        30.24898
1.192                  0.9952311        29.73959
1.196                  0.9910761        29.33937
1.2                    0.9881919         29.0281
1.204                  0.9871307        28.76776
1.208                  0.9881204        28.50903
1.212                  0.9910124        28.20124
1.216                  0.9953057        27.80208
1.22                    1.000238        27.28613
1.224                   1.004927        26.64885
1.228                   1.008527        25.90676
1.232                   1.010378        25.09405
1.236                   1.010114        24.25675
1.24                     1.00773        23.44541
1.244                    1.00359        22.70734
1.248                  0.9983797        22.07882
1.252                  0.9929963        21.57828
1.256                  0.9884035        21.20136
1.26                   0.9854547        20.91997
1.264                  0.9847268         20.6861
1.268                   0.986399        20.44053
1.272                  0.9902068        20.12465
1.276                  0.9954878         19.6923
1.28                    1.001303        19.11851
1.284                    1.00661         18.4034
1.288                   1.010447        17.57117
1.292                   1.012096        16.66534
1.296                   1.011205        15.74159
1.3                      1.00785        14.85937
1.304                   1.002537        14.07297
1.308                  0.9961352        13.42251
1.312                  0.9897455        12.92589
1.316                  0.9845169        12.57331
1.32                   0.9814354        12.32632
1.324                  0.9811261        12.12325
1.328                  0.9837148        11.89068
1.332                  0.9887885        11.55849
1.336                   0.995467        11.07423
1.34                    1.002567        10.41285
1.344                   1.008816        9.580079
1.348                   1.013075        8.610017
1.352                   1.014529        7.558601
1.356                   1.012818        6.494954
1.36                     1.00811         5.49156
1.364                   1.001094        4.613795
1.368                  0.9928938        3.909102
1.372                  0.9849088        3.396846
1.376                  0.9785793        3.061001
1.38                   0.9751195        2.848799
1.384                  0.9752638        2.677969
1.388                  0.9790933        2.452479
1.392                  0.9859959        2.082899
1.396                  0.9947743         1.50505
1.4                     1.003869       0.6916082
1.404                   1.011638      -0.3451345
1.408                   1.016636       -1.557756
1.412                   1.017847       -2.872432
1.416                   1.014845       -4.199517
1.42                    1.007884        -5.44499
1.424                  0.9978971       -6.522925
1.428                  0.9863993       -7.369369
1.432                  0.9752925       -7.956886
1.436                  0.9665618       -8.306818
1.44                   0.9619027       -8.493813
1.444                  0.9623492       -8.637135
1.448                  0.9680087       -8.877546
1.452                  0.9779928       -9.346018
1.456                  0.9905729       -10.13555
1.46                    1.003503       -11.28511
1.464                   1.014417       -12.77785
1.468                   1.021206        -14.5492
1.472                    1.02233       -16.49915
1.476                   1.017046       -18.50494
1.48                    1.005545       -20.43329
1.484                  0.9890089         -22.154
1.488                  0.9695587       -23.55786
1.492                  0.9500651       -24.58094
1.496                  0.9337724       -25.23346
1.5                    0.9237223       -25.62347
1.504                   0.922057       -25.95825
1.508                  0.9294011       -26.51037
1.512                  0.9445713       -27.55562
1.516                  0.9647414       -29.31181
1.52                    0.985964       -31.90708
1.524                   1.003815       -35.38339
1.528                   1.013963       -39.72184
1.532                    1.01258       -44.87248
1.536                   0.996595       -50.77969
1.54                   0.9638402       -57.40164
1.544                  0.9131248       -64.72714
1.548                  0.8442755       -72.79649
1.552                  0.7581777       -81.73728
