! TOUCHSTONE file generated by CST MICROWAVE STUDIO
! Date and time: Thu Jun  9 15:37:32 2022
! Project name: AppElm_antenne_patch_Alumina.cst
! Parameters = {L=30.5; W=41.8; e=0.035; h=1.6; lambda=0.190476; ls=90; w0=1.12; w1=0.373; ws=67.5; y0=14; y1=10}
! Header version: 2018
! Port assignment regex: !\s*Touchstone port\s*([0-9]+)\s*=\s*(CST MWS port|CST DS port)\s*([0-9]+|Zmin|Zmax)\s*\(\"(.*)\"\)(\s*mode\s*([0-9]+))?.*
! Touchstone port assignment:
! Touchstone port 1 = CST MWS port 1 ("")
# GHz S MA R 50
0                      0.9792339              -0
0.004                   0.980367       -10.36164
0.008                  0.9836176       -20.61359
0.012                  0.9885621       -30.65307
0.016                  0.9945672       -40.38955
0.02                    1.000881       -49.74794
0.024                   1.006739       -58.66916
0.028                   1.011459       -67.10902
0.032                   1.014521       -75.03622
0.036                   1.015627       -82.43037
0.04                    1.014728       -89.28053
0.044                   1.012021       -95.58474
0.048                   1.007926       -101.3506
0.052                   1.003024       -106.5961
0.056                  0.9979927       -111.3512
0.06                   0.9935053       -115.6578
0.064                   0.990146       -119.5691
0.068                   0.988324       -123.1467
0.072                  0.9882179        -126.456
0.076                  0.9897534       -129.5599
0.08                   0.9926239       -132.5139
0.084                  0.9963442       -135.3606
0.088                   1.000331       -138.1277
0.092                   1.003994       -140.8272
0.096                   1.006817       -143.4578
0.1                     1.008431       -146.0077
0.104                   1.008655       -148.4585
0.108                   1.007518       -150.7897
0.112                   1.005244        -152.983
0.116                    1.00222        -155.026
0.12                   0.9989341       -156.9149
0.124                  0.9959009       -158.6569
0.128                  0.9935858       -160.2697
0.132                  0.9923302         -161.78
0.136                  0.9923001       -163.2199
0.14                   0.9934622       -164.6224
0.144                   0.995594       -166.0166
0.148                  0.9983258       -167.4237
0.152                   1.001205       -168.8542
0.156                   1.003769       -170.3078
0.16                    1.005622       -171.7738
0.164                   1.006488       -173.2345
0.168                   1.006256       -174.6676
0.172                   1.004989       -176.0506
0.176                   1.002912       -177.3642
0.18                    1.000378       -178.5954
0.184                  0.9978077       -179.7404
0.188                   0.995623        179.1952
0.192                  0.9941783        178.1963
0.196                  0.9937012        177.2409
0.2                    0.9942547        176.3035
0.204                  0.9957287        175.3595
0.208                  0.9978617        174.3893
0.212                   1.000287        173.3811
0.216                   1.002598        172.3327
0.22                    1.004414        171.2513
0.224                   1.005442        170.1519
0.228                   1.005524        169.0545
0.232                   1.004659        167.9806
0.236                   1.003002        166.9503
0.24                    1.000837        165.9783
0.244                  0.9985329        165.0719
0.248                  0.9964791        164.2292
0.252                   0.995022        163.4397
0.256                  0.9944053        162.6851
0.26                    0.994727        161.9435
0.264                  0.9959233         161.192
0.268                  0.9977815        160.4119
0.272                  0.9999781        159.5909
0.276                   1.002136        158.7255
0.28                     1.00389        157.8215
0.284                   1.004947        156.8919
0.288                   1.005133        155.9553
0.292                   1.004424        155.0327
0.296                   1.002946        154.1437
0.3                     1.000952        153.3034
0.304                  0.9987874          152.52
0.308                  0.9968235        151.7932
0.312                  0.9953992        151.1138
0.316                  0.9947592        150.4655
0.32                   0.9950121        149.8273
0.324                  0.9961098        149.1777
0.328                  0.9978571        148.4982
0.332                  0.9999482        147.7767
0.336                   1.002019        147.0096
0.34                    1.003715        146.2018
0.344                   1.004744         145.366
0.348                   1.004934        144.5203
0.352                   1.004256        143.6852
0.356                   1.002826        142.8801
0.36                    1.000894          142.12
0.364                  0.9987933        141.4131
0.368                    0.99689        140.7594
0.372                  0.9955166        140.1499
0.376                  0.9949136        139.5685
0.38                   0.9951862        138.9949
0.384                  0.9962849        138.4078
0.388                  0.9980151        137.7892
0.392                   1.000072        137.1274
0.396                   1.002095        136.4191
0.4                     1.003733        135.6695
0.404                   1.004702        134.8917
0.408                   1.004835        134.1036
0.412                    1.00411        133.3259
0.416                   1.002653        132.5777
0.42                    1.000716        131.8737
0.424                  0.9986361        131.2218
0.428                  0.9967791        130.6211
0.432                  0.9954725        130.0625
0.436                  0.9949477        129.5293
0.44                   0.9952984         129.001
0.444                  0.9964628        128.4564
0.448                  0.9982343        127.8781
0.452                   1.000299        127.2548
0.456                   1.002295        126.5842
0.46                    1.003871        125.8724
0.464                   1.004753        125.1331
0.468                   1.004785         124.385
0.472                   1.003961        123.6487
0.476                   1.002424        122.9433
0.48                     1.00044        122.2831
0.484                  0.9983568         121.675
0.488                  0.9965425        121.1172
0.492                  0.9953197        120.5993
0.496                  0.9949072         120.104
0.5                    0.9953805        119.6101
0.504                  0.9966566        119.0965
0.508                  0.9985089        118.5461
0.512                   1.000609        117.9487
0.516                   1.002586        117.3031
0.52                     1.00409        116.6168
0.524                   1.004858        115.9045
0.528                   1.004753        115.1859
0.532                    1.00379        114.4819
0.536                   1.002136        113.8114
0.54                    1.000079        113.1881
0.544                  0.9979816        112.6176
0.548                  0.9962151        112.0969
0.552                  0.9950964        111.6139
0.556                  0.9948281        111.1501
0.56                   0.9954609        110.6835
0.564                  0.9968837         110.193
0.568                  0.9988438        109.6621
0.572                   1.000992        109.0819
0.576                   1.002949        108.4527
0.58                    1.004366        107.7836
0.584                   1.004993         107.091
0.588                   1.004716        106.3953
0.592                   1.003581         105.718
0.596                   1.001784        105.0777
0.6                    0.9996376        104.4873
0.604                  0.9975224        103.9509
0.608                  0.9958156        103.4636
0.612                  0.9948251        103.0115
0.616                  0.9947323        102.5746
0.62                   0.9955574        102.1301
0.624                   0.997155        101.6567
0.628                  0.9992408         101.139
0.632                   1.001443        100.5694
0.636                    1.00337        99.95016
0.64                    1.004679        99.29238
0.644                   1.005136        98.61401
0.648                   1.004656        97.93681
0.652                   1.003319        97.28264
0.656                   1.001356        96.66984
0.66                   0.9991121         96.1099
0.664                  0.9969844        95.60531
0.668                  0.9953553        95.14886
0.672                  0.9945207        94.72468
0.676                  0.9946355        94.31096
0.68                   0.9956831        93.88402
0.684                  0.9974785        93.42282
0.688                  0.9997015        92.91271
0.692                   1.001955        92.34822
0.696                   1.003837        91.73371
0.7                     1.005012        91.08252
0.704                   1.005268        90.41452
0.708                   1.004553        89.75268
0.712                   1.002988        89.11931
0.716                   1.000845        88.53212
0.72                   0.9984999        88.00118
0.724                  0.9963715        87.52683
0.728                  0.9948436        87.09935
0.732                  0.9941964        86.70044
0.736                  0.9945519        86.30648
0.74                   0.9958513        85.89297
0.744                   0.997864        85.43906
0.748                   1.000231        84.93158
0.752                   1.002527        84.36716
0.756                   1.004344        83.75275
0.76                    1.005355        83.10418
0.764                   1.005374        82.44337
0.768                   1.004393        81.79456
0.772                   1.002576        81.18033
0.776                    1.00024        80.61761
0.78                   0.9977966        80.11469
0.784                  0.9956845        79.66939
0.788                  0.9942865        79.26911
0.792                  0.9938612        78.89293
0.796                  0.9944921        78.51533
0.8                    0.9960709        78.11098
0.804                  0.9983167        77.65964
0.808                   1.000827        77.14981
0.812                   1.003153        76.58066
0.816                   1.004877        75.96207
0.82                    1.005688        75.31258
0.824                   1.005434         74.6563
0.828                   1.004152         74.0187
0.832                    1.00206        73.42249
0.836                   0.999522        72.88359
0.84                   0.9969883        72.40807
0.844                  0.9949149        71.99087
0.848                  0.9936807        71.61615
0.852                  0.9935163        71.26014
0.856                  0.9944596         70.8953
0.86                   0.9963461        70.49573
0.864                   0.998839        70.04204
0.868                   1.001492        69.52479
0.872                   1.003828        68.94614
0.876                   1.005427        68.31914
0.88                    1.005999        67.66538
0.884                   1.005432        67.01119
0.888                   1.003814         66.3833
0.892                   1.001424        65.80434
0.896                  0.9986776        65.28882
0.9                    0.9960646        64.84029
0.904                  0.9940576        64.45029
0.908                   0.993026        64.09942
0.912                  0.9931664        63.76073
0.916                  0.9944619        63.40479
0.92                    0.996685        63.00526
0.924                   0.999438        62.54391
0.928                   1.002227        62.01389
0.932                    1.00455        61.42068
0.936                   1.005988        60.78093
0.94                    1.006275        60.11948
0.944                   1.005349        59.46502
0.948                   1.003359        58.84547
0.952                   1.000646        58.28315
0.956                  0.9976859        57.79081
0.96                   0.9950081          57.369
0.964                  0.9930998        57.00534
0.968                  0.9923157        56.67644
0.972                  0.9928093        56.35206
0.976                  0.9945013        56.00074
0.98                   0.9970925          55.596
0.984                   1.000119        55.12118
0.988                   1.003036        54.57245
0.992                   1.005318        53.95917
0.996                   1.006551        53.30196
1                       1.006503        52.62914
1.004                   1.005165        51.97193
1.008                   1.002758        51.35931
1.012                  0.9996947        50.81312
1.016                  0.9965147        50.34392
1.02                   0.9937886        49.94866
1.024                  0.9920159        49.61053
1.028                  0.9915302        49.30168
1.032                  0.9924335        48.98822
1.036                  0.9945731        48.63676
1.04                    0.997569        48.22088
1.044                   1.000884        47.72599
1.048                   1.003921        47.15182
1.052                   1.006131        46.51212
1.056                   1.007109        45.83195
1.06                    1.006663        45.14347
1.064                   1.004852        44.48057
1.068                   1.001975        43.87331
1.072                  0.9985265        43.34272
1.076                  0.9951157        42.89673
1.08                    0.992358        42.52805
1.084                  0.9907626        42.21476
1.088                  0.9906355        41.92391
1.092                  0.9920159        41.61766
1.096                  0.9946661        41.26062
1.1                    0.9981142         40.8267
1.104                    1.00174        40.30391
1.108                   1.004891        39.69618
1.112                   1.006994        39.02225
1.116                   1.007659        38.31226
1.12                    1.006743        37.60263
1.124                    1.00438         36.9302
1.128                   1.000962        36.32613
1.132                  0.9970786        35.81042
1.136                  0.9934168        35.38783
1.14                   0.9906415        35.04602
1.144                  0.9892711        34.75707
1.148                  0.9895753        34.48214
1.152                  0.9915187        34.17888
1.156                  0.9947632        33.80978
1.16                   0.9987295         33.3494
1.164                   1.002705        32.78886
1.168                    1.00597        32.13701
1.172                   1.007929        31.41853
1.176                   1.008209        30.66934
1.18                    1.006727         29.9308
1.184                   1.003706        29.24322
1.188                  0.9996477          28.639
1.192                  0.9952521        28.13695
1.196                  0.9912999        27.73802
1.2                    0.9885144        27.42377
1.204                  0.9874231        27.15901
1.208                  0.9882522        26.89785
1.212                  0.9908757        26.59259
1.216                  0.9948347        26.20325
1.22                   0.9994217        25.70516
1.224                   1.003811        25.09331
1.228                   1.007208        24.38251
1.232                   1.008984        23.60438
1.236                   1.008787        22.80178
1.24                    1.006605        22.02221
1.244                   1.002769        21.31021
1.248                  0.9979143        20.69997
1.252                  0.9928765        20.20904
1.256                  0.9885546        19.83368
1.26                   0.9857472        19.54809
1.264                   0.984997        19.30788
1.268                  0.9864783        19.05813
1.272                  0.9899537        18.74429
1.276                  0.9948136         18.3231
1.28                    1.000189         17.7708
1.284                   1.005111        17.08695
1.288                   1.008683        16.29363
1.292                   1.010233        15.43111
1.296                   1.009429        14.55117
1.3                     1.006338        13.70917
1.304                   1.001428         12.9556
1.308                  0.9955032        12.32765
1.312                  0.9895801        11.84179
1.316                  0.9847199         11.4888
1.32                   0.9818308        11.23321
1.324                   0.981488        11.01828
1.328                  0.9838071        10.77663
1.332                   0.988409        10.44387
1.336                  0.9944854        9.971661
1.34                    1.000948        9.336776
1.344                   1.006629        8.544304
1.348                   1.010479        7.625596
1.352                   1.011751        6.632325
1.356                   1.010119        5.628377
1.36                    1.005746         4.68058
1.364                  0.9992722        3.848813
1.368                  0.9917342        3.175967
1.372                  0.9844139        2.678767
1.376                  0.9786223        2.341486
1.38                   0.9754556        2.115215
1.384                  0.9755669        1.924808
1.388                  0.9790151        1.683202
1.392                   0.985232        1.309627
1.396                   0.993122        0.746233
1.4                     1.001265     -0.03143982
1.404                   1.008171       -1.011807
1.408                   1.012533       -2.151135
1.412                   1.013444       -3.381487
1.416                   1.010537       -4.620623
1.42                    1.004072       -5.782902
1.424                  0.9949186       -6.791101
1.428                  0.9844698        -7.58926
1.432                  0.9744464       -8.155559
1.436                  0.9666194       -8.512463
1.44                   0.9624747       -8.729509
1.444                  0.9628898       -8.914498
1.448                  0.9679095       -9.192677
1.452                  0.9766971       -9.679538
1.456                  0.9876783       -10.45652
1.46                   0.9988309       -11.55701
1.464                   1.008038       -12.96445
1.468                   1.013429       -14.61914
1.472                   1.013662       -16.42911
1.476                   1.008126       -18.28201
1.48                   0.9970635       -20.05704
1.484                  0.9816086       -21.63857
1.488                  0.9637166       -22.93324
1.492                  0.9459653       -23.89197
1.496                   0.931193       -24.53398
1.5                    0.9219765       -24.96414
1.504                   0.920034       -25.37024
1.508                  0.9257202       -25.99162
1.512                  0.9378122       -27.06698
1.516                  0.9536688       -28.78449
1.52                   0.9696793       -31.25536
1.524                  0.9818155       -34.51577
1.528                  0.9861296       -38.54641
1.532                  0.9791206       -43.29666
1.536                   0.957968       -48.70557
1.54                   0.9206653       -54.71761
1.544                  0.8660816       -61.29557
1.548                  0.7939779        -68.4347
1.552                  0.7049994       -76.18689
