! TOUCHSTONE file generated by CST MICROWAVE STUDIO
! Date and time: Thu Jun  9 15:37:38 2022
! Project name: AppElm_antenne_patch_Alumina.cst
! Parameters = {L=30.5; W=41.8; e=0.035; h=1.6; lambda=0.190476; ls=90; w0=1.12; w1=0.373; ws=94.5; y0=14; y1=10}
! Header version: 2018
! Port assignment regex: !\s*Touchstone port\s*([0-9]+)\s*=\s*(CST MWS port|CST DS port)\s*([0-9]+|Zmin|Zmax)\s*\(\"(.*)\"\)(\s*mode\s*([0-9]+))?.*
! Touchstone port assignment:
! Touchstone port 1 = CST MWS port 1 ("")
# GHz S MA R 50
0                      0.9793533              -0
0.004                  0.9804869       -10.36919
0.008                  0.9837382       -20.62831
0.012                  0.9886824        -30.6742
0.016                  0.9946841       -40.41608
0.02                     1.00099       -49.77862
0.024                   1.006834       -58.70261
0.028                   1.011533       -67.14379
0.032                   1.014569       -75.07085
0.036                   1.015648       -82.46342
0.04                    1.014721       -89.31068
0.044                   1.011991       -95.61083
0.048                   1.007881       -101.3717
0.052                   1.002976       -106.6116
0.056                   0.997954       -111.3609
0.06                   0.9934882       -115.6617
0.064                  0.9901599       -119.5677
0.068                  0.9883739       -123.1407
0.072                  0.9883025       -126.4462
0.076                  0.9898655       -129.5471
0.08                    0.992751       -132.4987
0.084                  0.9964711       -135.3432
0.088                   1.000442       -138.1079
0.092                   1.004074       -140.8047
0.096                   1.006857       -143.4318
0.1                     1.008427       -145.9773
0.104                   1.008609       -148.4228
0.108                    1.00744       -150.7479
0.112                   1.005149       -152.9346
0.116                   1.002125       -154.9707
0.12                   0.9988563       -156.8531
0.124                  0.9958558       -158.5892
0.128                   0.993583       -160.1971
0.132                  0.9923721       -161.7035
0.136                  0.9923813       -163.1407
0.14                   0.9935701       -164.5413
0.144                  0.9957117       -165.9342
0.148                  0.9984343         -167.34
0.152                   1.001286       -168.7688
0.156                   1.003811       -170.2199
0.16                    1.005618       -171.6825
0.164                   1.006439       -173.1387
0.168                   1.006171       -174.5664
0.172                   1.004882       -175.9433
0.176                   1.002803       -177.2506
0.18                    1.000286       -178.4757
0.184                  0.9977487       -179.6151
0.188                  0.9956084         179.325
0.192                  0.9942116        178.3295
0.196                  0.9937773        177.3763
0.2                    0.9943613        176.4402
0.204                  0.9958481         175.497
0.208                  0.9979739        174.5274
0.212                   1.000373        173.5202
0.216                   1.002644        172.4737
0.22                    1.004412        171.3952
0.224                   1.005394        170.2997
0.228                   1.005438        169.2072
0.232                    1.00455         168.139
0.236                   1.002889        167.1146
0.24                    1.000741        166.1485
0.244                    0.99847        165.2472
0.248                  0.9964611        164.4087
0.252                  0.9950527        163.6222
0.256                  0.9944797        162.8695
0.26                   0.9948328        162.1288
0.264                  0.9960424        161.3777
0.268                   0.997894        160.5977
0.272                   1.000065        159.7774
0.276                   1.002183        158.9135
0.28                     1.00389        158.0119
0.284                   1.004901        157.0859
0.288                   1.005051        156.1539
0.292                    1.00432        155.2366
0.296                   1.002838         154.353
0.3                     1.000862         153.518
0.304                  0.9987302        152.7394
0.308                  0.9968105        152.0163
0.312                  0.9954334        151.3395
0.316                  0.9948354        150.6926
0.32                   0.9951174         150.055
0.324                  0.9962258        149.4054
0.328                  0.9979642        148.7258
0.332                   1.000028        148.0048
0.336                   1.002058        147.2388
0.34                    1.003706        146.4333
0.344                    1.00469        145.6009
0.348                   1.004845        144.7596
0.352                   1.004146        143.9294
0.356                   1.002716        143.1295
0.36                    1.000802        142.3743
0.364                  0.9987362        141.6718
0.368                  0.9968775        141.0213
0.372                  0.9955511         140.414
0.376                  0.9949891        139.8337
0.38                   0.9952891        139.2603
0.384                  0.9963972        138.6729
0.388                   0.998117         138.054
0.392                   1.000146        137.3924
0.396                   1.002128        136.6851
0.4                      1.00372        135.9376
0.404                   1.004645        135.1628
0.408                   1.004745        134.3788
0.412                   1.004003        133.6057
0.416                   1.002546        132.8622
0.42                    1.000629        132.1628
0.424                  0.9985844        131.5147
0.428                  0.9967713        130.9169
0.432                  0.9955096          130.36
0.436                  0.9950231        129.8275
0.44                   0.9953987         129.299
0.444                  0.9965701         128.754
0.448                  0.9983295        128.1751
0.452                   1.000366        127.5519
0.456                   1.002322        126.8822
0.46                    1.003854        126.1723
0.464                   1.004695        125.4359
0.468                   1.004697        124.6915
0.472                   1.003859        123.9595
0.476                   1.002325        123.2585
0.48                    1.000363        122.6023
0.484                  0.9983157        121.9975
0.488                  0.9965447        121.4421
0.492                  0.9953649        120.9255
0.496                  0.9949881        120.4305
0.5                    0.9954833        119.9361
0.504                  0.9967638        119.4217
0.508                   0.998602        118.8705
0.512                   1.000673        118.2731
0.516                    1.00261        117.6282
0.52                    1.004071        116.9436
0.524                   1.004801         116.234
0.528                   1.004668        115.5188
0.532                   1.003693        114.8187
0.536                   1.002045        114.1522
0.54                     1.00001        113.5324
0.544                  0.9979467        112.9649
0.548                  0.9962215         112.446
0.552                  0.9951432        111.9639
0.556                  0.9949076        111.5001
0.56                   0.9955594        111.0329
0.564                  0.9969844        110.5414
0.568                  0.9989296        110.0098
0.572                   1.001049        109.4294
0.576                   1.002968        108.8007
0.58                    1.004345        108.1332
0.584                   1.004937        107.4429
0.588                   1.004636        106.7503
0.592                   1.003491        106.0765
0.596                     1.0017        105.4398
0.6                    0.9995752        104.8524
0.604                  0.9974928        104.3185
0.608                  0.9958242        103.8327
0.612                  0.9948705        103.3812
0.616                  0.9948064         102.944
0.62                   0.9956472        102.4987
0.624                  0.9972448        102.0244
0.628                  0.9993151        101.5059
0.632                   1.001489         100.936
0.636                   1.003381        100.3173
0.64                    1.004653        99.66086
0.644                   1.005078        98.98465
0.648                   1.004576        98.31023
0.652                   1.003232         97.6592
0.656                   1.001277        97.04951
0.66                   0.9990537        96.49231
0.664                  0.9969574        95.98982
0.668                  0.9953643        95.53463
0.672                   0.994564        95.11084
0.676                  0.9947056        94.69676
0.68                   0.9957681        94.26896
0.684                  0.9975643        93.80669
0.688                  0.9997738        93.29572
0.692                   1.002003        92.73084
0.696                   1.003854        92.11664
0.7                     1.004995         91.4665
0.704                   1.005222        90.80027
0.708                   1.004488         90.1408
0.712                   1.002916        89.51005
0.716                   1.000779        88.92552
0.72                    0.998452        88.39692
0.724                  0.9963507        87.92435
0.728                  0.9948544        87.49793
0.732                  0.9942374        87.09932
0.736                  0.9946169          86.705
0.74                   0.9959303        86.29067
0.744                  0.9979449        85.83579
0.748                   1.000301        85.32745
0.752                   1.002578        84.76257
0.756                   1.004368        84.14827
0.76                     1.00535        83.50047
0.764                   1.005345        82.84105
0.768                   1.004345        82.19412
0.772                   1.002521        81.58207
0.776                   1.000188        81.02157
0.78                     0.99776        80.52067
0.784                  0.9956706        80.07693
0.788                  0.9943001        79.67761
0.792                  0.9939021        79.30173
0.796                   0.994556         78.9238
0.8                    0.9961498        78.51872
0.804                  0.9984002        78.06641
0.808                   1.000905        77.55565
0.812                   1.003215        76.98584
0.816                   1.004917        76.36702
0.82                    1.005702        75.71787
0.824                   1.005424        75.06246
0.828                   1.004122        74.42627
0.832                   1.002017        73.83184
0.836                   0.999476        73.29485
0.84                   0.9969491        72.82124
0.844                  0.9948912        72.40567
0.848                  0.9936791        72.03215
0.852                  0.9935398        71.67675
0.856                  0.9945072        71.31199
0.86                   0.9964131        70.91202
0.864                  0.9989183        70.45755
0.868                   1.001574        69.93938
0.872                   1.003904        69.35987
0.876                   1.005489        68.73227
0.88                    1.006041        68.07829
0.884                    1.00545        67.42438
0.888                   1.003811        66.79732
0.892                   1.001403        66.21966
0.896                  0.9986462        65.70578
0.9                    0.9960323        65.25911
0.904                  0.9940343        64.87086
0.908                  0.9930208         64.5215
0.912                   0.993186        64.18386
0.916                  0.9945097        63.82837
0.92                   0.9967598        63.42867
0.924                  0.9995349        62.96662
0.928                   1.002337        62.43548
0.932                   1.004663        61.84098
0.936                   1.006093        61.20002
0.94                    1.006362        60.53764
0.944                   1.005409        59.88279
0.948                   1.003389        59.26351
0.952                   1.000647        58.70217
0.956                  0.9976653        58.21149
0.96                    0.994976        57.79182
0.964                  0.9930699        57.43055
0.968                  0.9923027        57.10394
0.972                  0.9928265        56.78139
0.976                  0.9945582        56.43117
0.98                   0.9971928        56.02661
0.984                    1.00026        55.55106
0.988                   1.003209        55.00079
0.992                   1.005509        54.38543
0.996                   1.006743        53.72596
1                       1.006678        53.05107
1.004                   1.005308        52.39237
1.008                   1.002859        51.77915
1.012                  0.9997513        51.23345
1.016                  0.9965314        50.76587
1.02                   0.9937784        50.37315
1.024                  0.9919979        50.03817
1.028                  0.9915267        49.73255
1.032                  0.9924661        49.42186
1.036                  0.9946587        49.07222
1.04                   0.9977167        48.65685
1.044                   1.001093        48.16107
1.048                    1.00418        47.58474
1.052                    1.00642        46.94193
1.056                   1.007404        46.25827
1.06                    1.006937        45.56649
1.064                    1.00508        44.90107
1.068                   1.002141        44.29261
1.072                  0.9986241        43.76248
1.076                  0.9951518        43.31868
1.08                   0.9923518         42.9537
1.084                  0.9907436        42.64507
1.088                   0.990638        42.35906
1.092                   0.992074        42.05695
1.096                  0.9948066        41.70256
1.1                    0.9983511         41.2693
1.104                   1.002073        40.74496
1.108                   1.005302        40.13369
1.112                   1.007454        39.45479
1.116                   1.008128        38.73916
1.12                    1.007179        38.02416
1.124                   1.004746        37.34755
1.128                   1.001232         36.7413
1.132                  0.9972419        36.22597
1.136                  0.9934835        35.80646
1.14                   0.9906408        35.47006
1.144                  0.9892474          35.188
1.148                  0.9895811        34.92021
1.152                  0.9916049        34.62304
1.156                  0.9949695        34.25784
1.16                    0.999077        33.79831
1.164                   1.003191        33.23544
1.168                    1.00657        32.57838
1.172                   1.008597        31.85261
1.176                   1.008888        31.09524
1.18                    1.007355        30.34903
1.184                   1.004231        29.65558
1.188                   1.000033        29.04854
1.192                  0.9954864        28.54742
1.196                  0.9914016        28.15326
1.2                    0.9885296        27.84711
1.204                  0.9874198        27.59234
1.208                  0.9883081        27.34124
1.212                  0.9910637        27.04415
1.216                  0.9952093        26.65939
1.22                    1.000008        26.16139
1.224                   1.004599        25.54484
1.228                   1.008152        24.82518
1.232                   1.010014        24.03542
1.236                   1.009815        23.22026
1.24                    1.007539         22.4291
1.244                   1.003532         21.7086
1.248                  0.9984555        21.09465
1.252                  0.9931856        20.60574
1.256                   0.988665        20.23829
1.26                   0.9857342         19.9654
1.264                  0.9849666        19.74051
1.268                   0.986549         19.5058
1.272                  0.9902337        19.20376
1.276                  0.9953801        18.78874
1.28                    1.001074        18.23565
1.284                   1.006293        17.54399
1.288                   1.010091        16.73694
1.292                   1.011757        15.85683
1.296                   1.010936        14.95813
1.3                     1.007696        14.09924
1.304                   1.002525        13.33358
1.308                  0.9962716         12.7008
1.312                  0.9900121         12.2188
1.316                  0.9848746        11.87829
1.32                   0.9818289        11.64193
1.324                  0.9814931        11.44949
1.328                  0.9839962        11.22908
1.332                  0.9889383        10.91189
1.336                  0.9954595        10.44623
1.34                    1.002399        9.807217
1.344                   1.008508        9.000249
1.348                   1.012666        8.058656
1.352                   1.014069        7.037419
1.356                   1.012362        6.004587
1.36                    1.007711        5.031574
1.364                   1.000796        4.182759
1.368                   0.992726        3.504767
1.372                  0.9848781        3.016455
1.376                  0.9786713        2.701754
1.38                    0.975299        2.508421
1.384                  0.9754799        2.355266
1.388                   0.979288        2.147694
1.392                  0.9861146        1.797756
1.396                  0.9947744        1.242476
1.4                     1.003727       0.4552662
1.404                   1.011353      -0.5513528
1.408                   1.016231        -1.73017
1.412                   1.017363       -3.007924
1.416                   1.014343       -4.295819
1.42                    1.007433       -5.500952
1.424                   0.997568       -6.538787
1.428                  0.9862579       -7.346967
1.432                  0.9753852       -7.899697
1.436                  0.9669049       -8.219637
1.44                   0.9624744       -8.381962
1.444                  0.9630868       -8.505269
1.448                  0.9688142       -8.728411
1.452                  0.9787469       -9.179613
1.456                  0.9911516       -9.948935
1.46                    1.003796       -11.07283
1.464                   1.014341       -12.53261
1.468                   1.020717       -14.26252
1.472                   1.021427       -16.16197
1.476                   1.015777       -18.10803
1.48                    1.004007       -19.96781
1.484                  0.9873447       -21.61226
1.488                  0.9679476       -22.93447
1.492                  0.9487034       -23.87438
1.496                  0.9328408       -24.44758
1.5                    0.9233455       -24.76782
1.504                  0.9222618       -25.04645
1.508                  0.9300896       -25.55619
1.512                  0.9455232       -26.56848
1.516                  0.9656413        -28.2938
1.52                   0.9864411       -30.85227
1.524                   1.003481       -34.27895
1.528                   1.012437       -38.54935
1.532                   1.009506       -43.60874
1.536                  0.9916455       -49.39659
1.54                    0.956716       -55.86478
1.544                  0.9035432       -62.99333
1.548                  0.8319493       -70.80962
1.552                  0.7427743       -79.42227
