! TOUCHSTONE file generated by CST MICROWAVE STUDIO
! Date and time: Thu Jun  9 15:37:36 2022
! Project name: AppElm_antenne_patch_Alumina.cst
! Parameters = {L=30.5; W=41.8; e=0.035; h=1.6; lambda=0.190476; ls=90; w0=1.12; w1=0.373; ws=81; y0=14; y1=10}
! Header version: 2018
! Port assignment regex: !\s*Touchstone port\s*([0-9]+)\s*=\s*(CST MWS port|CST DS port)\s*([0-9]+|Zmin|Zmax)\s*\(\"(.*)\"\)(\s*mode\s*([0-9]+))?.*
! Touchstone port assignment:
! Touchstone port 1 = CST MWS port 1 ("")
# GHz S MA R 50
0                      0.9794102              -0
0.004                  0.9805436       -10.36329
0.008                  0.9837946       -20.61686
0.012                  0.9887397       -30.65789
0.016                  0.9947446       -40.39585
0.02                    1.001058        -49.7556
0.024                   1.006913       -58.67805
0.028                   1.011627       -67.11902
0.032                   1.014682        -75.0472
0.036                   1.015779       -82.44215
0.04                    1.014868       -89.29293
0.044                   1.012147       -95.59759
0.048                   1.008036       -101.3637
0.052                   1.003119       -106.6092
0.056                  0.9980719       -111.3641
0.06                   0.9935708       -115.6704
0.064                     0.9902       -119.5811
0.068                  0.9883696       -123.1581
0.072                  0.9882581       -126.4666
0.076                  0.9897915       -129.5698
0.08                   0.9926626       -132.5232
0.084                  0.9963856       -135.3695
0.088                   1.000376       -138.1361
0.092                   1.004043       -140.8355
0.096                   1.006869        -143.466
0.1                     1.008484        -146.016
0.104                   1.008708       -148.4668
0.108                   1.007567       -150.7982
0.112                   1.005289       -152.9915
0.116                   1.002258       -155.0344
0.12                   0.9989646       -156.9233
0.124                  0.9959241        -158.665
0.128                  0.9936025       -160.2775
0.132                   0.992342       -161.7873
0.136                   0.992309       -163.2267
0.14                   0.9934706       -164.6287
0.144                  0.9956038       -166.0225
0.148                  0.9983388       -167.4293
0.152                   1.001222       -168.8595
0.156                    1.00379       -170.3129
0.16                    1.005645        -171.779
0.164                   1.006513       -173.2397
0.168                   1.006281        -174.673
0.172                   1.005011       -176.0561
0.176                   1.002931       -177.3697
0.18                    1.000391        -178.601
0.184                  0.9978148       -179.7458
0.188                  0.9956243          179.19
0.192                  0.9941751        178.1915
0.196                  0.9936952        177.2365
0.2                    0.9942481        176.2996
0.204                  0.9957239        175.3561
0.208                  0.9978607        174.3862
0.212                   1.000291        173.3782
0.216                   1.002608          172.33
0.22                    1.004428        171.2486
0.224                    1.00546        170.1491
0.228                   1.005544        169.0515
0.232                   1.004679        167.9775
0.236                    1.00302        166.9469
0.24                    1.000851        165.9749
0.244                  0.9985415        165.0684
0.248                  0.9964823        164.2259
0.252                  0.9950209        163.4366
0.256                  0.9944012        162.6824
0.26                    0.994722        161.9411
0.264                  0.9959201        161.1901
0.268                  0.9977819        160.4102
0.272                  0.9999836        159.5894
0.276                   1.002147        158.7242
0.28                    1.003907          157.82
0.284                   1.004967        156.8902
0.288                   1.005156        155.9534
0.292                   1.004446        155.0305
0.296                   1.002964        154.1412
0.3                     1.000965        153.3007
0.304                  0.9987934        152.5173
0.308                  0.9968223        151.7906
0.312                  0.9953915        151.1115
0.316                  0.9947472        150.4636
0.32                   0.9949981        149.8259
0.324                  0.9960968        149.1767
0.328                  0.9978481        148.4976
0.332                  0.9999448        147.7764
0.336                   1.002023        147.0094
0.34                    1.003725        146.2016
0.344                   1.004759        145.3656
0.348                   1.004952        144.5197
0.352                   1.004274        143.6842
0.356                   1.002841        142.8788
0.36                    1.000904        142.1184
0.364                  0.9987963        141.4116
0.368                  0.9968858        140.7579
0.372                  0.9955061        140.1487
0.376                  0.9948991        139.5678
0.38                   0.9951707        138.9947
0.384                  0.9962718        138.4081
0.388                  0.9980073          137.79
0.392                   1.000072        137.1284
0.396                   1.002104        136.4201
0.4                      1.00375        135.6704
0.404                   1.004725        134.8922
0.408                   1.004862        134.1038
0.412                   1.004137        133.3256
0.416                   1.002675        132.5769
0.42                     1.00073        131.8726
0.424                  0.9986418        131.2205
0.428                   0.996775          130.62
0.432                  0.9954597        130.0617
0.436                  0.9949289         129.529
0.44                   0.9952776        129.0013
0.444                  0.9964438        128.4573
0.448                  0.9982211        127.8795
0.452                   1.000295        127.2566
0.456                     1.0023        126.5861
0.46                    1.003885        125.8741
0.464                   1.004774        125.1345
0.468                   1.004809        124.3859
0.472                   1.003984        123.6491
0.476                   1.002442        122.9432
0.48                    1.000449        122.2827
0.484                  0.9983553        121.6745
0.488                  0.9965301        121.1169
0.492                   0.995298        120.5995
0.496                  0.9948804        120.1049
0.5                    0.9953531        119.6117
0.504                  0.9966337        119.0988
0.508                  0.9984951         118.549
0.512                   1.000607        117.9519
0.516                   1.002597        117.3064
0.52                    1.004114        116.6198
0.524                   1.004891         115.907
0.528                    1.00479        115.1877
0.532                   1.003826        114.4829
0.536                   1.002166        113.8118
0.54                    1.000098         113.188
0.544                  0.9979867        112.6174
0.548                  0.9962067        112.0969
0.552                  0.9950769        111.6144
0.556                   0.994802        111.1513
0.56                    0.995434        110.6856
0.564                  0.9968619        110.1959
0.568                  0.9988323        109.6656
0.572                   1.000994        109.0857
0.576                   1.002965        108.4565
0.58                    1.004395         107.787
0.584                   1.005031        107.0936
0.588                   1.004757        106.3971
0.592                   1.003617         105.719
0.596                   1.001809        105.0781
0.6                    0.9996481        104.4872
0.604                  0.9975155        103.9508
0.608                  0.9957921        103.4639
0.612                  0.9947888        103.0126
0.616                  0.9946894        102.5767
0.62                   0.9955154        102.1333
0.624                  0.9971214         101.661
0.628                  0.9992219         101.144
0.632                   1.001443        100.5748
0.636                   1.003388        99.95544
0.64                    1.004714        99.29712
0.644                   1.005182        98.61787
0.648                   1.004705        97.93962
0.652                   1.003363        97.28444
0.656                   1.001388        96.67082
0.66                   0.9991262        96.11042
0.664                  0.9969786        95.60586
0.668                   0.995331        95.14993
0.672                  0.9944829         94.7267
0.676                  0.9945919        94.31418
0.68                    0.995643        93.88853
0.684                  0.9974505        93.42839
0.688                  0.9996923        92.91901
0.692                   1.001968        92.35471
0.696                   1.003873        91.73987
0.7                     1.005065        91.08785
0.704                    1.00533        90.41865
0.708                   1.004616        89.75548
0.712                   1.003041        89.12085
0.716                   1.000879        88.53273
0.72                   0.9985095        88.00137
0.724                   0.996355        87.52723
0.728                  0.9948041        87.10058
0.732                  0.9941408        86.70298
0.736                  0.9944907        86.31064
0.74                   0.9957959        85.89874
0.744                  0.9978253        85.44618
0.748                   1.000216        84.93954
0.752                   1.002541        84.37533
0.756                   1.004385        83.76045
0.76                    1.005416        83.11084
0.764                   1.005447        82.44859
0.768                   1.004464         81.7982
0.772                   1.002634        81.18256
0.776                   1.000275        80.61886
0.78                   0.9978027        80.11563
0.784                   0.995661        79.67075
0.788                  0.9942384        79.27162
0.792                  0.9937984        78.89714
0.796                  0.9944278        78.52145
0.8                    0.9960189        78.11896
0.804                  0.9982894        77.66904
0.808                   1.000833        77.15995
0.812                   1.003194        76.59073
0.816                    1.00495        75.97122
0.82                    1.005784        75.32017
0.824                   1.005539         74.6619
0.828                   1.004251        74.02228
0.832                   1.002138        73.42432
0.836                  0.9995676         72.8843
0.84                   0.9969955        72.40852
0.844                  0.9948844        71.99201
0.848                  0.9936199        71.61887
0.852                  0.9934389        71.26503
0.856                   0.994382        70.90262
0.86                   0.9962855        70.50529
0.864                  0.9988098        70.05322
0.868                   1.001503        69.53674
0.872                   1.003881        68.95783
0.876                   1.005516        68.32963
0.88                    1.006111         67.6739
0.884                    1.00555        67.01736
0.888                   1.003921        66.38715
0.892                   1.001501        65.80637
0.896                  0.9987131        65.28987
0.9                    0.9960536        64.84147
0.904                  0.9940036        64.45275
0.908                  0.9929409        64.10415
0.912                  0.9930683        63.76839
0.916                  0.9943724         63.4155
0.92                   0.9966249        63.01861
0.924                  0.9994236        62.55902
0.928                   1.002267        62.02957
0.932                   1.004644        61.43565
0.936                   1.006126        60.79405
0.94                     1.00644        60.12988
0.944                   1.005517        59.47234
0.948                   1.003508        58.84986
0.952                   1.000755        58.28533
0.956                  0.9977415        57.79195
0.96                   0.9950063        57.37048
0.964                  0.9930469        57.00861
0.968                  0.9922285        56.68265
0.972                  0.9927116        56.36186
0.976                  0.9944198        56.01415
0.98                   0.9970517        55.61235
0.984                   1.000136        55.13929
0.988                    1.00312        54.59081
0.992                   1.005465        53.97622
0.996                   1.006745        53.31637
1                        1.00672        52.64003
1.004                   1.005377        51.97903
1.008                   1.002937        51.36303
1.012                  0.9998169        50.81454
1.016                  0.9965662        50.34463
1.02                   0.9937682        49.95046
1.024                  0.9919363        49.61519
1.028                  0.9914157        49.31052
1.032                  0.9923162        49.00183
1.036                  0.9944871        48.65494
1.04                   0.9975443        48.24256
1.044                    1.00094         47.7495
1.048                   1.004065        47.17518
1.052                   1.006354        46.53337
1.056                   1.007389        45.84952
1.06                    1.006968        45.15641
1.064                   1.005145        44.48872
1.068                   1.002221        43.87738
1.072                  0.9986982        43.34421
1.076                  0.9951994        42.89773
1.08                   0.9923561        42.53085
1.084                  0.9906952        42.22145
1.088                  0.9905358        41.93593
1.092                  0.9919257         41.6355
1.096                  0.9946274        41.28369
1.1                    0.9981612        40.85343
1.104                   1.001894        40.33203
1.108                   1.005153        39.72315
1.112                   1.007348        39.04571
1.116                   1.008072        38.33042
1.12                    1.007171        37.61456
1.124                   1.004776        36.93602
1.128                   1.001283        36.32706
1.132                  0.9972933        35.80867
1.136                  0.9935125        35.38627
1.14                   0.9906277        35.04763
1.144                  0.9891787        34.76445
1.148                  0.9894518        34.49687
1.152                  0.9914199        34.20128
1.156                  0.9947425        33.83876
1.16                   0.9988284        33.38262
1.164                   1.002945        32.82331
1.168                   1.006349        32.16942
1.172                    1.00842        31.44593
1.176                   1.008766        30.68967
1.18                    1.007292        29.94318
1.184                   1.004218        29.24812
1.188                   1.000055        28.63832
1.192                    0.99552        28.13376
1.196                  0.9914193        27.73608
1.2                    0.9885053        27.42689
1.204                  0.9873327        27.17029
1.208                  0.9881469        26.91894
1.212                  0.9908291        26.62333
1.216                  0.9949137        26.24163
1.22                   0.9996741        25.74783
1.224                   1.004257        25.13601
1.228                   1.007833        24.42092
1.232                   1.009746        23.63485
1.236                    1.00962        22.82197
1.24                    1.007426        22.03131
1.244                   1.003499        21.30933
1.248                  0.9984851        20.69207
1.252                  0.9932484        20.19855
1.256                  0.9887237        19.82584
1.26                   0.9857489        19.54797
1.264                  0.9849017        19.31935
1.268                  0.9863796        19.08298
1.272                  0.9899508        18.78177
1.276                  0.9949928        18.37007
1.28                    1.000608        17.82233
1.284                   1.005786        17.13727
1.288                   1.009587        16.33712
1.292                     1.0113        15.46322
1.296                   1.010563        14.56915
1.3                     1.007428         13.7126
1.304                   1.002368         12.9466
1.308                  0.9962081        12.31079
1.312                  0.9900072        11.82355
1.316                  0.9848775        11.47655
1.32                   0.9817825        11.23379
1.324                  0.9813436        11.03654
1.328                  0.9837046        10.81421
1.332                  0.9884889        10.49876
1.336                  0.9948632         10.0386
1.34                    1.001694         9.40822
1.344                   1.007752        8.611886
1.348                    1.01193        7.681483
1.352                   1.013423        6.670432
1.356                   1.011869        5.645304
1.36                    1.007413        4.676253
1.364                   1.000703        3.826792
1.368                  0.9928148        3.143293
1.372                  0.9850906        2.645167
1.376                  0.9789191        2.317842
1.38                   0.9754773        2.111403
1.384                  0.9754855         1.94741
1.388                  0.9790388        1.733799
1.392                  0.9855663        1.384273
1.396                  0.9939292       0.8362758
1.4                     1.002634      0.06240385
1.404                   1.010101      -0.9265705
1.408                   1.014933       -2.085732
1.412                   1.016141       -3.344329
1.416                   1.013306       -4.616041
1.42                    1.006664       -5.810202
1.424                  0.9971043       -6.844012
1.428                  0.9860789       -7.655986
1.432                  0.9754087       -8.219866
1.436                  0.9669938       -8.556122
1.44                   0.9624557       -8.736032
1.444                  0.9627837        -8.87325
1.448                  0.9680826       -9.101933
1.452                   0.977507       -9.547186
1.456                  0.9894062       -10.29826
1.46                    1.001632       -11.39302
1.464                   1.011916       -12.81576
1.468                   1.018238       -14.50459
1.472                   1.019122       -16.36309
1.476                   1.013865        -18.2727
1.48                    1.002661       -20.10488
1.484                  0.9866618       -21.73475
1.488                  0.9679139       -23.05874
1.492                  0.9491681       -24.01793
1.496                  0.9335091       -24.62512
1.5                    0.9238012       -24.98602
1.504                   0.922029       -25.29914
1.508                  0.9287213       -25.82304
1.512                  0.9426878       -26.81832
1.516                  0.9611769       -28.49073
1.52                   0.9803661       -30.96129
1.524                  0.9959705       -34.26878
1.528                   1.003785        -38.3924
1.532                   1.000079       -43.27921
1.536                  0.9818417       -48.86741
1.54                   0.9469265       -55.10383
1.544                  0.8941113       -61.95835
1.548                  0.8231258       -69.44047
1.552                  0.7346563       -77.62773
