! TOUCHSTONE file generated by CST MICROWAVE STUDIO
! Date and time: Thu Jun  9 15:37:36 2022
! Project name: AppElm_antenne_patch_Alumina.cst
! Parameters = {L=30.5; W=41.8; e=0.035; h=1.6; lambda=0.190476; ls=90; w0=1.12; w1=0.373; ws=85.5; y0=14; y1=10}
! Header version: 2018
! Port assignment regex: !\s*Touchstone port\s*([0-9]+)\s*=\s*(CST MWS port|CST DS port)\s*([0-9]+|Zmin|Zmax)\s*\(\"(.*)\"\)(\s*mode\s*([0-9]+))?.*
! Touchstone port assignment:
! Touchstone port 1 = CST MWS port 1 ("")
# GHz S MA R 50
0                       0.979474              -0
0.004                   0.980606       -10.36502
0.008                  0.9838531       -20.62024
0.012                  0.9887915       -30.66277
0.016                  0.9947874       -40.40201
0.02                    1.001089       -49.76277
0.024                   1.006931       -58.68594
0.028                   1.011631       -67.12727
0.032                   1.014672       -75.05548
0.036                   1.015756       -82.45015
0.04                    1.014835       -89.30033
0.044                   1.012109       -95.60418
0.048                   1.007998       -101.3693
0.052                   1.003087       -106.6139
0.056                  0.9980508        -111.368
0.06                   0.9935649       -115.6736
0.064                  0.9902117       -119.5842
0.068                  0.9883988       -123.1613
0.072                   0.988302       -126.4703
0.076                  0.9898449       -129.5744
0.08                   0.9927183       -132.5287
0.084                  0.9964363       -135.3759
0.088                   1.000415       -138.1433
0.092                   1.004065       -140.8432
0.096                   1.006871       -143.4738
0.1                     1.008466       -146.0233
0.104                   1.008673       -148.4733
0.108                   1.007522       -150.8036
0.112                    1.00524       -152.9956
0.116                   1.002214       -155.0373
0.12                   0.9989331       -156.9251
0.124                  0.9959107       -158.6661
0.128                  0.9936099       -160.2783
0.132                  0.9923696       -161.7884
0.136                  0.9923528       -163.2285
0.14                   0.9935234       -164.6315
0.144                  0.9956573       -166.0265
0.148                  0.9983842       -167.4343
0.152                   1.001252       -168.8653
0.156                     1.0038       -170.3191
0.16                    1.005634        -171.785
0.164                   1.006483       -173.2452
0.168                   1.006236       -174.6774
0.172                    1.00496       -176.0592
0.176                   1.002882       -177.3716
0.18                    1.000354       -178.6017
0.184                  0.9977945       -179.7457
0.188                  0.9956253        179.1904
0.192                  0.9941974        178.1917
0.196                  0.9937353         177.236
0.2                    0.9942991        176.2981
0.204                  0.9957771        175.3533
0.208                  0.9979072        174.3823
0.212                   1.000323        173.3735
0.216                   1.002619        172.3248
0.22                    1.004418        171.2435
0.224                    1.00543        170.1445
0.228                   1.005499        169.0479
0.232                   1.004627         167.975
0.236                    1.00297        166.9458
0.24                    1.000812        165.9749
0.244                  0.9985203        165.0692
0.248                  0.9964827         164.227
0.252                   0.995043        163.4375
0.256                  0.9944412        162.6826
0.26                   0.9947732        161.9403
0.264                  0.9959733         161.188
0.268                  0.9978282         160.407
0.272                   1.000015        159.5852
0.276                   1.002158        158.7195
0.28                    1.003895        157.8154
0.284                   1.004936        156.8862
0.288                    1.00511        155.9504
0.292                   1.004394        155.0287
0.296                   1.002915        154.1407
0.3                     1.000928        153.3013
0.304                   0.998774        152.5186
0.308                  0.9968246        151.7922
0.312                  0.9954155        151.1129
0.316                  0.9947888        150.4642
0.32                     0.99505        149.8253
0.324                  0.9961498        149.1749
0.328                  0.9978929        148.4947
0.332                  0.9999737        147.7726
0.336                   1.002031        147.0052
0.34                     1.00371        146.1974
0.344                   1.004726        145.3621
0.348                   1.004905        144.5172
0.352                   1.004221         143.683
0.356                   1.002793        142.8788
0.36                    1.000867        142.1196
0.364                   0.998779        141.4134
0.368                  0.9968905        140.7599
0.372                  0.9955322        140.1504
0.376                  0.9949421        139.5686
0.38                   0.9952229        138.9944
0.384                  0.9963237        138.4065
0.388                    0.99805        137.7872
0.392                   1.000098        137.1249
0.396                   1.002108        136.4162
0.4                     1.003732        135.6667
0.404                   1.004689        134.8892
0.408                   1.004813        134.1018
0.412                   1.004084        133.3249
0.416                   1.002628        132.5774
0.42                    1.000697        131.8742
0.424                  0.9986282        131.2227
0.428                  0.9967838        130.6223
0.432                  0.9954893        130.0635
0.436                  0.9949741        129.5299
0.44                   0.9953304         129.001
0.444                  0.9964949        128.4558
0.448                  0.9982613        127.8768
0.452                   1.000317        127.2532
0.456                   1.002301        126.5824
0.46                    1.003864        125.8708
0.464                   1.004734        125.1319
0.468                   1.004759        124.3844
0.472                   1.003932        123.6488
0.476                   1.002396        122.9442
0.48                    1.000419        122.2846
0.484                  0.9983458         121.677
0.488                  0.9965429        121.1194
0.492                  0.9953309        120.6014
0.496                  0.9949273        120.1058
0.5                    0.9954061        119.6115
0.504                  0.9966831        119.0973
0.508                  0.9985322        118.5464
0.512                   1.000626        117.9487
0.516                   1.002594         117.303
0.52                    1.004089        116.6168
0.524                   1.004849        115.9048
0.528                   1.004739        115.1866
0.532                   1.003775        114.4832
0.536                   1.002124        113.8133
0.54                    1.000072        113.1903
0.544                  0.9979823        112.6202
0.548                  0.9962246        112.0995
0.552                  0.9951138        111.6163
0.556                  0.9948516        111.1522
0.56                   0.9954874        110.6852
0.564                  0.9969097        110.1943
0.568                   0.998866         109.663
0.572                   1.001009        109.0826
0.576                   1.002957        108.4533
0.58                    1.004367        107.7843
0.584                   1.004987        107.0919
0.588                   1.004705        106.3965
0.592                   1.003568        105.7196
0.596                   1.001771        105.0799
0.6                     0.999627        104.4898
0.604                  0.9975158        103.9537
0.608                   0.995814        103.4665
0.612                  0.9948285        103.0145
0.616                  0.9947396        102.5775
0.62                   0.9955672        102.1329
0.624                  0.9971659        101.6594
0.628                  0.9992509        101.1415
0.632                   1.001451        100.5718
0.636                   1.003375        99.95257
0.64                    1.004681        99.29484
0.644                   1.005135         98.6166
0.648                   1.004654        97.93957
0.652                   1.003316        97.28562
0.656                   1.001353        96.67304
0.66                   0.9991098        96.11331
0.664                  0.9969838        95.60892
0.668                   0.995357        95.15263
0.672                  0.9945253        94.72856
0.676                   0.994643        94.31492
0.68                   0.9956937        93.88801
0.684                  0.9974918        93.42677
0.688                  0.9997171        92.91659
0.692                   1.001973        92.35201
0.696                   1.003855        91.73735
0.7                      1.00503        91.08601
0.704                   1.005284        90.41786
0.708                   1.004566        89.75591
0.712                   1.002997        89.12248
0.716                   1.000849         88.5353
0.72                   0.9984987         88.0045
0.724                  0.9963656        87.53039
0.728                  0.9948344        87.10325
0.732                  0.9941855        86.70477
0.736                  0.9945421        86.31127
0.74                   0.9958448        85.89815
0.744                  0.9978631        85.44458
0.748                   1.000237        84.93726
0.752                   1.002541        84.37287
0.756                   1.004364        83.75832
0.76                    1.005379        83.10945
0.764                     1.0054        82.44829
0.768                   1.004416        81.79912
0.772                   1.002594        81.18461
0.776                   1.000249        80.62177
0.78                   0.9977972        80.11897
0.784                  0.9956764        79.67403
0.788                  0.9942724        79.27434
0.792                  0.9938448        78.89891
0.796                  0.9944787        78.52206
0.8                    0.9960656        78.11841
0.804                  0.9983237        77.66757
0.808                   1.000849        77.15793
0.812                   1.003191        76.58864
0.816                   1.004927        75.96955
0.82                    1.005747        75.31933
0.824                   1.005495        74.66215
0.828                   1.004208        74.02369
0.832                   1.002104        73.42678
0.836                  0.9995493         72.8875
0.84                   0.9969968        72.41203
0.844                  0.9949056        71.99534
0.848                  0.9936579        71.62156
0.852                  0.9934872        71.26674
0.856                  0.9944327        70.90319
0.86                   0.9963302        70.50479
0.864                  0.9988412         70.0519
0.868                   1.001516        69.53499
0.872                   1.003875        68.95612
0.876                   1.005492        68.32842
0.88                    1.006075        67.67355
0.884                   1.005509        67.01808
0.888                   1.003882          66.389
0.892                   1.001472        65.80915
0.896                  0.9987006        65.29329
0.9                      0.99606         64.8451
0.904                  0.9940284        64.45612
0.908                  0.9929805        64.10687
0.912                  0.9931163        63.77015
0.916                  0.9944212         63.4162
0.92                   0.9966667        63.01835
0.924                  0.9994521        62.55808
0.928                   1.002278        62.02832
0.932                   1.004637        61.43455
0.936                   1.006104         60.7935
0.94                    1.006408        60.13018
0.944                   1.005482        59.47366
0.948                   1.003476         58.8522
0.952                   1.000735        58.28851
0.956                   0.997737        57.79566
0.96                   0.9950197        57.37431
0.964                  0.9930773        57.01213
0.968                  0.9922718        56.68551
0.972                  0.9927618        56.36381
0.976                  0.9944697        56.01514
0.98                   0.9970944        55.61249
0.984                   1.000167        55.13885
0.988                   1.003134        54.59016
0.992                   1.005464        53.97574
0.996                   1.006731        53.31643
1                       1.006698        52.64087
1.004                   1.005353        51.98078
1.008                   1.002917         51.3657
1.012                  0.9998074        50.81793
1.016                  0.9965709        50.34843
1.02                   0.9937888        49.95434
1.024                  0.9919715        49.61876
1.028                  0.9914619        49.31348
1.032                  0.9923679        49.00402
1.036                  0.9945383         48.6563
1.04                   0.9975891        48.24322
1.044                   1.000974         47.7497
1.048                   1.004086        47.17524
1.052                   1.006362         46.5336
1.056                   1.007386        45.85022
1.06                    1.006959        45.15779
1.064                   1.005135        44.49088
1.068                   1.002215        43.88028
1.072                   0.998701        43.34774
1.076                  0.9952142        42.90163
1.08                   0.9923846        42.53482
1.084                  0.9907361         42.2252
1.088                  0.9905866        41.93923
1.092                   0.991982        41.63818
1.096                  0.9946845        41.28571
1.1                    0.9982146        40.85487
1.104                    1.00194        40.33306
1.108                    1.00519          39.724
1.112                   1.007376        39.04663
1.116                   1.008091        38.33161
1.12                    1.007185        37.61619
1.124                   1.004788         36.9382
1.128                   1.001297        36.32979
1.132                  0.9973123        35.81193
1.136                  0.9935395        35.38987
1.14                   0.9906643         35.0514
1.144                   0.989225        34.76816
1.148                  0.9895069        34.50036
1.152                  0.9914814         34.2044
1.156                  0.9948077        33.84147
1.16                   0.9988942        33.38489
1.164                   1.003008        32.82514
1.168                   1.006408        32.17097
1.172                   1.008473        31.44733
1.176                   1.008813        30.69104
1.18                    1.007332        29.94474
1.184                   1.004254        29.24995
1.188                   1.000087        28.64056
1.192                  0.9955513        28.13652
1.196                   0.991453         27.7393
1.2                    0.9885443         27.4306
1.204                  0.9873797        27.17436
1.208                  0.9882039        26.92323
1.212                  0.9908972        26.62762
1.216                  0.9949928        26.24576
1.22                   0.9997628        25.75158
1.224                   1.004352        25.13927
1.228                   1.007932         24.4236
1.232                   1.009844        23.63693
1.236                   1.009713        22.82348
1.24                    1.007511        22.03251
1.244                   1.003573         21.3104
1.248                  0.9985474        20.69333
1.252                  0.9933009         20.2003
1.256                  0.9887702        19.82832
1.26                   0.9857951        19.55137
1.264                  0.9849546         19.3237
1.268                  0.9864462        19.08814
1.272                  0.9900368        18.78742
1.276                  0.9951016        18.37578
1.28                    1.000739        17.82764
1.284                   1.005936        17.14172
1.288                    1.00975        16.34038
1.292                   1.011467         15.4651
1.296                   1.010722        14.56969
1.3                     1.007572        13.71205
1.304                   1.002487        12.94543
1.308                  0.9962998        12.30964
1.312                  0.9900726        11.82313
1.316                  0.9849234        11.47757
1.32                   0.9818206        11.23675
1.324                  0.9813892        11.04164
1.328                  0.9837734        10.82124
1.332                  0.9885944        10.50713
1.336                  0.9950141        10.04743
1.34                    1.001892        9.416511
1.344                   1.007992        8.618681
1.348                   1.012198        7.686024
1.352                   1.013703        6.672292
1.356                    1.01214        5.644454
1.36                    1.007654        4.673118
1.364                     1.0009         3.82224
1.368                  0.9929587        3.138559
1.372                  0.9851831        2.641699
1.376                  0.9789733        2.317037
1.38                   0.9755163          2.1143
1.384                  0.9755388        1.954398
1.388                  0.9791379         1.74446
1.392                  0.9857378        1.397417
1.396                  0.9941899       0.8501609
1.4                     1.002987      0.07506781
1.404                   1.010535      -0.9169758
1.408                   1.015423       -2.080656
1.412                   1.016652       -3.344605
1.416                     1.0138       -4.621742
1.42                      1.0071       -5.820543
1.424                   0.997452       -6.857331
1.428                  0.9863204       -7.669837
1.432                  0.9755466       -8.231303
1.436                  0.9670535       -8.562207
1.44                   0.9624843       -8.734513
1.444                  0.9628431       -8.863234
1.448                  0.9682386       -9.084249
1.452                  0.9778163         -9.5243
1.456                  0.9899057       -10.27376
1.46                    1.002331       -11.37091
1.464                   1.012796       -12.79977
1.468                   1.019251       -14.49769
1.472                   1.020204       -16.36712
1.476                   1.014934       -18.28811
1.48                    1.003639        -20.1305
1.484                  0.9874805        -21.7676
1.488                  0.9685312       -23.09393
1.492                  0.9495838       -24.04901
1.496                   0.933777       -24.64501
1.5                    0.9240326       -24.98871
1.504                  0.9223825       -25.28178
1.508                  0.9293784       -25.78742
1.512                  0.9438201        -26.7708
1.516                  0.9629181       -28.44086
1.52                   0.9827954       -30.91987
1.524                  0.9991078       -34.24639
1.528                   1.007596       -38.39878
1.532                   1.004484       -43.32331
1.536                   0.986728       -48.95795
1.54                   0.9521581       -55.25017
1.544                  0.8995429       -62.17159
1.548                  0.8286156       -69.73519
1.552                   0.740084       -78.02465
