! TOUCHSTONE file generated by CST MICROWAVE STUDIO
! Date and time: Thu Jun  9 15:37:41 2022
! Project name: AppElm_antenne_patch_Alumina.cst
! Parameters = {L=30.5; W=41.8; e=0.035; h=1.6; lambda=0.190476; ls=90; w0=1.12; w1=0.373; ws=103.5; y0=14; y1=10}
! Header version: 2018
! Port assignment regex: !\s*Touchstone port\s*([0-9]+)\s*=\s*(CST MWS port|CST DS port)\s*([0-9]+|Zmin|Zmax)\s*\(\"(.*)\"\)(\s*mode\s*([0-9]+))?.*
! Touchstone port assignment:
! Touchstone port 1 = CST MWS port 1 ("")
# GHz S MA R 50
0                      0.9793801              -0
0.004                  0.9805154       -10.35813
0.008                  0.9837714         -20.606
0.012                  0.9887223       -30.64029
0.016                  0.9947307       -40.37006
0.02                    1.001042        -49.7199
0.024                   1.006888       -58.63052
0.028                   1.011584       -67.05764
0.032                   1.014613       -74.96994
0.036                   1.015679       -82.34701
0.04                    1.014737       -89.17807
0.044                   1.011989       -95.46132
0.048                   1.007861       -101.2046
0.052                   1.002942       -106.4265
0.056                  0.9979102       -111.1571
0.06                   0.9934419       -115.4391
0.064                   0.990119       -119.3263
0.068                  0.9883455       -122.8806
0.072                  0.9882922       -126.1676
0.076                  0.9898764       -129.2507
0.08                    0.992783       -132.1849
0.084                  0.9965199       -135.0126
0.088                   1.000501       -137.7608
0.092                   1.004135       -140.4412
0.096                    1.00691       -143.0521
0.1                     1.008464       -145.5811
0.104                   1.008625       -148.0097
0.108                    1.00743       -150.3176
0.112                   1.005114       -152.4865
0.116                   1.002071       -154.5045
0.12                   0.9987906       -156.3683
0.124                  0.9957893       -158.0858
0.128                   0.993527       -159.6751
0.132                  0.9923367       -161.1634
0.136                  0.9923733       -162.5831
0.14                   0.9935923       -163.9671
0.144                  0.9957615        -165.344
0.148                  0.9985046       -166.7345
0.152                   1.001366       -168.1486
0.156                   1.003888        -169.585
0.16                    1.005678       -171.0329
0.164                   1.006473       -172.4739
0.168                   1.006172       -173.8859
0.172                   1.004849       -175.2463
0.176                    1.00274       -176.5364
0.18                    1.000202       -177.7439
0.184                  0.9976581       -178.8653
0.188                  0.9955259       -179.9073
0.192                  0.9941517        179.1147
0.196                   0.993751        178.1783
0.2                    0.9943742        177.2581
0.204                  0.9958991        176.3297
0.208                  0.9980556        175.3739
0.212                   1.000473          174.38
0.216                   1.002745        173.3463
0.22                    1.004498        172.2807
0.224                   1.005449        171.1986
0.228                   1.005454        170.1202
0.232                   1.004524         169.067
0.236                   1.002825        168.0585
0.24                    1.000648        167.1088
0.244                  0.9983656        166.2246
0.248                  0.9963634        165.4032
0.252                  0.9949797        164.6332
0.256                  0.9944456        163.8963
0.26                   0.9948448        163.1701
0.264                  0.9961002        162.4324
0.268                  0.9979885        161.6647
0.272                   1.000181        160.8557
0.276                   1.002301        160.0029
0.28                    1.003989        159.1123
0.284                   1.004964        158.1979
0.288                   1.005065        157.2784
0.292                   1.004283        156.3747
0.296                   1.002755        155.5058
0.3                     1.000745        154.6864
0.304                  0.9985994        153.9238
0.308                  0.9966884        153.2168
0.312                  0.9953419        152.5556
0.316                  0.9947915        151.9232
0.32                   0.9951297        151.2987
0.324                  0.9962936        150.6608
0.328                  0.9980765        149.9915
0.332                   1.000166        149.2798
0.336                   1.002199        148.5227
0.34                    1.003825        147.7262
0.344                   1.004767        146.9034
0.348                   1.004866        146.0728
0.352                   1.004107        145.2546
0.356                   1.002623        144.4679
0.36                    1.000672        143.7271
0.364                  0.9985921        143.0394
0.368                  0.9967454        142.4038
0.372                  0.9954557        141.8107
0.376                   0.994949        141.2433
0.38                   0.9953133        140.6812
0.384                  0.9964835        140.1035
0.388                  0.9982517        139.4927
0.392                   1.000306        138.8382
0.396                   1.002287        138.1375
0.4                      1.00385        137.3969
0.404                   1.004724        136.6299
0.408                   1.004758        135.8549
0.412                   1.003946        135.0923
0.416                    1.00243        134.3609
0.42                    1.000472        133.6745
0.424                   0.998415        133.0401
0.428                   0.996619        132.4559
0.432                  0.9954022        131.9117
0.436                  0.9949804        131.3904
0.44                   0.9954293        130.8714
0.444                  0.9966692        130.3338
0.448                  0.9984801        129.7608
0.452                   1.000542        129.1424
0.456                   1.002491        128.4771
0.46                    1.003986         127.772
0.464                   1.004765        127.0415
0.468                   1.004692        126.3045
0.472                   1.003778        125.5816
0.476                    1.00218        124.8913
0.48                    1.000178         124.247
0.484                  0.9981225        123.6547
0.488                  0.9963768        123.1114
0.492                  0.9952523         122.606
0.496                  0.9949514        122.1203
0.5                    0.9955293        121.6332
0.504                  0.9968846         121.124
0.508                  0.9987769        120.5763
0.512                   1.000871        119.9812
0.516                   1.002796        119.3385
0.52                    1.004212        118.6567
0.524                   1.004871        117.9511
0.528                   1.004655        117.2417
0.532                   1.003598        116.5493
0.536                   1.001884        115.8922
0.54                   0.9998126         115.283
0.544                  0.9977481        114.7265
0.548                  0.9960579        114.2182
0.552                  0.9950457        113.7453
0.556                  0.9948956        113.2887
0.56                   0.9956372        112.8264
0.564                  0.9971399        112.3376
0.568                  0.9991367        111.8069
0.572                   1.001272        111.2264
0.576                   1.003168        110.5978
0.58                    1.004488         109.931
0.584                   1.004996        109.2431
0.588                   1.004602        108.5548
0.592                   1.003369        107.8875
0.596                   1.001511         107.259
0.6                    0.9993525        106.6811
0.604                  0.9972764        106.1569
0.608                  0.9956534        105.6801
0.612                  0.9947768        105.2359
0.616                  0.9948078        104.8038
0.62                   0.9957443        104.3611
0.624                   0.997421         103.887
0.628                   0.999539        103.3669
0.632                   1.001721        102.7948
0.636                   1.003578         102.174
0.64                     1.00478        101.5166
0.644                   1.005112        100.8413
0.648                   1.004509          100.17
0.652                   1.003073        99.52436
0.656                   1.001053        98.92189
0.66                   0.9988037        98.37296
0.664                  0.9967248        97.87882
0.668                  0.9951901        97.43096
0.672                  0.9944796        97.01256
0.676                  0.9947261        96.60129
0.68                   0.9958898        96.17364
0.684                  0.9977649        95.70913
0.688                   1.000017         95.1943
0.692                   1.002245        94.62493
0.696                    1.00405        94.00673
0.7                     1.005111        93.35405
0.704                   1.005235        92.68742
0.708                   1.004394        92.02998
0.712                   1.002732        91.40361
0.716                   1.000535        90.82521
0.72                   0.9981932        90.30366
0.724                  0.9961233         89.8379
0.728                  0.9947004        89.41691
0.732                  0.9941861        89.02147
0.736                  0.9946794        88.62748
0.74                   0.9960967        88.21062
0.744                  0.9981867        87.75085
0.748                   1.000576        87.23617
0.752                   1.002838        86.66462
0.756                   1.004567        86.04448
0.76                    1.005453        85.39263
0.764                   1.005333        84.73159
0.768                    1.00422        84.08573
0.772                   1.002304        83.47711
0.776                  0.9999174        82.92178
0.78                   0.9974828        82.42673
0.784                  0.9954368        81.98832
0.788                  0.9941518        81.59263
0.792                  0.9938662        81.21778
0.796                  0.9946387        80.83784
0.8                    0.9963356        80.42779
0.804                  0.9986549        79.96829
0.808                   1.001182        79.44907
0.812                   1.003463        78.87083
0.816                   1.005089        78.24473
0.82                    1.005767        77.59041
0.824                   1.005367        76.93254
0.828                    1.00395        76.29666
0.832                   1.001759         75.7049
0.836                  0.9991756        75.17214
0.84                   0.9966582        74.70316
0.844                   0.994661        74.29129
0.848                  0.9935504        73.91938
0.852                  0.9935353        73.56265
0.856                  0.9946271         73.1933
0.86                    0.996635         72.7858
0.864                  0.9992014        72.32167
0.868                   1.001866         71.7929
0.872                   1.004152        71.20315
0.876                   1.005648        70.56686
0.88                     1.00608        69.90664
0.884                   1.005362        69.24941
0.888                   1.003609        68.62188
0.892                   1.001121        68.04607
0.896                  0.9983349        67.53536
0.9                    0.9957468        67.09189
0.904                  0.9938262        66.70557
0.908                  0.9929289        66.35563
0.912                  0.9932279        66.01414
0.916                  0.9946788        65.65143
0.92                   0.9970268        65.24159
0.924                  0.9998527        64.76747
0.928                    1.00265        64.22362
0.932                   1.004916        63.61718
0.936                   1.006242        62.96618
0.94                    1.006382         62.2965
0.944                   1.005296        61.63741
0.948                   1.003165        61.01675
0.952                   1.000352        60.45624
0.956                  0.9973522        59.96743
0.96                   0.9947027        59.54929
0.964                  0.9928869        59.18783
0.968                   0.992244        58.85819
0.972                  0.9929035        58.52916
0.976                  0.9947566        58.16906
0.98                   0.9974761        57.75188
0.984                   1.000575        57.26212
0.988                   1.003498        56.69746
0.992                   1.005718        56.06888
0.996                   1.006831        55.39851
1                       1.006626        54.71572
1.004                   1.005122        54.05233
1.008                   1.002566        53.43728
1.012                  0.9993985        52.89171
1.016                  0.9961778        52.42497
1.02                   0.9934835        52.03235
1.024                   0.991811        51.69528
1.028                  0.9914778        51.38438
1.032                    0.99256        51.06474
1.036                  0.9948746         50.7027
1.04                   0.9980115        50.27234
1.044                    1.00141        49.76029
1.048                   1.004459        49.16786
1.052                    1.00661        48.51047
1.056                   1.007467        47.81481
1.06                     1.00686        47.11416
1.064                   1.004875        46.44308
1.068                   1.001841        45.83161
1.072                  0.9982823        45.30016
1.076                  0.9948284        44.85534
1.08                    0.992105        44.48812
1.084                  0.9906182        44.17471
1.088                  0.9906575        43.88042
1.092                  0.9922348        43.56631
1.096                    0.99508        43.19662
1.1                    0.9986884        42.74579
1.104                   1.002414        42.20304
1.108                   1.005589        41.57395
1.112                   1.007636        40.87913
1.116                   1.008175        40.15039
1.12                    1.007085         39.4255
1.124                    1.00453        38.74209
1.128                   1.000934        38.13151
1.132                  0.9969184         37.6131
1.136                  0.9931952        37.19034
1.14                   0.9904431        36.84905
1.144                  0.9891795        36.55918
1.148                  0.9896584         36.2799
1.152                  0.9918159        35.96757
1.156                  0.9952782        35.58407
1.16                   0.9994295        35.10443
1.164                   1.003526        34.52096
1.168                    1.00683        33.84436
1.172                   1.008737        33.10127
1.176                   1.008884        32.32949
1.18                    1.007207         31.5721
1.184                   1.003963        30.87045
1.188                    0.99969        30.25734
1.192                   0.995125        29.75117
1.196                  0.9910813        29.35147
1.2                    0.9883017        29.03785
1.204                  0.9873177        28.77263
1.208                  0.9883409        28.50745
1.212                  0.9912151        28.19285
1.216                  0.9954407         27.7879
1.22                    1.000267        27.26826
1.224                   1.004829        26.63008
1.228                   1.008305        25.89007
1.232                   1.010053        25.08219
1.236                   1.009727        24.25164
1.24                    1.007332        23.44803
1.244                   1.003237        22.71747
1.248                  0.9981185          22.095
1.252                   0.992862        21.59798
1.256                  0.9884091         21.2213
1.26                   0.9855886        20.93692
1.264                  0.9849549        20.69727
1.268                  0.9866706        20.44429
1.272                  0.9904647         20.1208
1.276                  0.9956787         19.6821
1.28                    1.001388        19.10436
1.284                   1.006571        18.38835
1.288                    1.01029        17.55834
1.292                   1.011849        16.65739
1.296                   1.010914        15.74031
1.3                     1.007571        14.86537
1.304                   1.002326        14.08553
1.308                  0.9960394        13.43959
1.312                   0.989793        12.94437
1.316                  0.9847103        12.58947
1.32                   0.9817501        12.33655
1.324                  0.9815128         12.1248
1.328                  0.9841086        11.88228
1.332                  0.9891202        11.54065
1.336                  0.9956766        11.04909
1.34                    1.002613        10.38371
1.344                   1.008685        9.550774
1.348                    1.01278        8.584257
1.352                   1.014106        7.539451
1.356                   1.012325        6.484407
1.36                    1.007612        5.490268
1.364                   1.000656        4.620924
1.368                  0.9925688        3.922376
1.372                   0.984727        3.412829
1.376                  0.9785419        3.075663
1.38                    0.975197        2.858332
1.384                  0.9754003        2.679665
1.388                  0.9792178        2.445409
1.392                  0.9860364        2.068145
1.396                  0.9946724        1.485433
1.4                     1.003591       0.6710613
1.404                   1.011182      -0.3623239
1.408                   1.016031       -1.567641
1.412                   1.017149       -2.871964
1.416                   1.014131       -4.186957
1.42                    1.007237       -5.420214
1.424                  0.9973976       -6.487613
1.428                  0.9861109       -7.327013
1.432                  0.9752491       -7.912506
1.436                  0.9667587       -8.266249
1.44                   0.9622941       -8.462582
1.444                  0.9628543        -8.61918
1.448                  0.9685272       -8.874231
1.452                   0.978425        -9.35588
1.456                  0.9908385       -10.15479
1.46                    1.003556       -11.30863
1.464                    1.01425       -12.80027
1.468                   1.020851       -14.56577
1.472                   1.021853       -16.50635
1.476                   1.016532       -18.50088
1.48                     1.00509       -20.41805
1.484                  0.9887021       -22.12988
1.488                   0.969467       -23.52951
1.492                  0.9502145       -24.55513
1.496                  0.9341334       -25.21817
1.5                    0.9242046       -25.62613
1.504                   0.922518       -25.98343
1.508                  0.9296696       -26.55806
1.512                  0.9444813         -27.621
1.516                  0.9641611       -29.38666
1.52                   0.9848139       -31.98182
1.524                   1.002072       -35.44876
1.528                   1.011654       -39.76971
1.532                   1.009772       -44.89599
1.536                  0.9933841       -50.77293
1.54                   0.9603367       -57.35903
1.544                  0.9094436       -64.64283
1.548                  0.8405237       -72.66347
1.552                  0.7544409       -81.54624
