! TOUCHSTONE file generated by CST MICROWAVE STUDIO
! Date and time: Thu Jun  9 15:37:39 2022
! Project name: AppElm_antenne_patch_Alumina.cst
! Parameters = {L=30.5; W=41.8; e=0.035; h=1.6; lambda=0.190476; ls=90; w0=1.12; w1=0.373; ws=99; y0=14; y1=10}
! Header version: 2018
! Port assignment regex: !\s*Touchstone port\s*([0-9]+)\s*=\s*(CST MWS port|CST DS port)\s*([0-9]+|Zmin|Zmax)\s*\(\"(.*)\"\)(\s*mode\s*([0-9]+))?.*
! Touchstone port assignment:
! Touchstone port 1 = CST MWS port 1 ("")
# GHz S MA R 50
0                      0.9791976              -0
0.004                  0.9803325       -10.35786
0.008                  0.9835875       -20.60546
0.012                  0.9885369       -30.63948
0.016                   0.994544       -40.36898
0.02                    1.000855       -49.71855
0.024                     1.0067       -58.62891
0.028                   1.011399       -67.05575
0.032                   1.014432       -74.96778
0.036                   1.015504       -82.34463
0.04                    1.014571       -89.17551
0.044                   1.011836       -95.45868
0.048                   1.007722        -101.202
0.052                    1.00282        -106.424
0.056                  0.9978059       -111.1551
0.06                   0.9933556       -115.4378
0.064                  0.9900492       -119.3258
0.068                    0.98829       -122.8812
0.072                  0.9882476       -126.1695
0.076                  0.9898386       -129.2539
0.08                   0.9927478       -132.1894
0.084                  0.9964837       -135.0182
0.088                   1.000461       -137.7675
0.092                   1.004089       -140.4488
0.096                   1.006859       -143.0603
0.1                     1.008407       -145.5898
0.104                   1.008566       -148.0187
0.108                   1.007372       -150.3268
0.112                   1.005061       -152.4959
0.116                   1.002025       -154.5141
0.12                   0.9987545       -156.3784
0.124                   0.995765       -158.0964
0.128                  0.9935146       -159.6865
0.132                  0.9923347       -161.1759
0.136                   0.992379       -162.5967
0.14                    0.993602        -163.982
0.144                  0.9957712       -165.3602
0.148                  0.9985106       -166.7519
0.152                   1.001366        -168.167
0.156                   1.003879       -169.6043
0.16                    1.005661       -171.0527
0.164                   1.006448       -172.4942
0.168                   1.006142       -173.9064
0.172                   1.004818        -175.267
0.176                   1.002711       -176.5573
0.18                    1.000178        -177.765
0.184                  0.9976418       -178.8868
0.188                  0.9955185       -179.9294
0.192                  0.9941526        179.0919
0.196                  0.9937585        178.1545
0.2                    0.9943849        177.2331
0.204                  0.9959095        176.3036
0.208                  0.9980616        175.3468
0.212                   1.000472        174.3519
0.216                   1.002735        173.3175
0.22                    1.004477        172.2514
0.224                   1.005421         171.169
0.228                   1.005419        170.0905
0.232                   1.004486        169.0373
0.236                   1.002788        168.0288
0.24                    1.000617        167.0791
0.244                  0.9983425        166.1947
0.248                  0.9963502        165.3729
0.252                  0.9949764        164.6023
0.256                  0.9944507        163.8646
0.26                   0.9948556        163.1374
0.264                  0.9961129        162.3986
0.268                  0.9979994        161.6299
0.272                   1.000186          160.82
0.276                   1.002299        159.9664
0.28                    1.003979        159.0754
0.284                   1.004946        158.1606
0.288                   1.005042         157.241
0.292                   1.004258        156.3372
0.296                   1.002731        155.4684
0.3                     1.000727        154.6489
0.304                  0.9985903        153.8861
0.308                  0.9966897        153.1787
0.312                  0.9953534        152.5168
0.316                  0.9948113        151.8836
0.32                   0.9951547         151.258
0.324                    0.99632         150.619
0.328                     0.9981        149.9487
0.332                   1.000183         149.236
0.336                   1.002206        148.4782
0.34                    1.003822        147.6811
0.344                   1.004754         146.858
0.348                   1.004845        146.0273
0.352                   1.004083        145.2092
0.356                   1.002599        144.4226
0.36                    1.000651        143.6818
0.364                  0.9985781         142.994
0.368                  0.9967402        142.3581
0.372                  0.9954594        141.7644
0.376                    0.99496        141.1963
0.38                   0.9953285        140.6333
0.384                   0.996499        140.0546
0.388                  0.9982634        139.4429
0.392                   1.000311        138.7876
0.396                   1.002282        138.0863
0.4                     1.003834        137.3454
0.404                   1.004698        136.5782
0.408                   1.004725        135.8034
0.412                   1.003911         135.041
0.416                   1.002396        134.3098
0.42                    1.000445        133.6236
0.424                  0.9983965        132.9893
0.428                  0.9966118        132.4048
0.432                  0.9954064        131.8601
0.436                  0.9949942        131.3381
0.44                   0.9954494        130.8182
0.444                  0.9966915        130.2796
0.448                  0.9985002        129.7057
0.452                   1.000556        129.0865
0.456                   1.002496        128.4206
0.46                    1.003982        127.7151
0.464                   1.004753        126.9845
0.468                   1.004673        126.2476
0.472                   1.003757        125.5248
0.476                   1.002162        124.8347
0.48                    1.000166        124.1906
0.484                  0.9981202        123.5982
0.488                  0.9963855        123.0546
0.492                  0.9952718        122.5485
0.496                  0.9949791         122.062
0.5                    0.9955614         121.574
0.504                  0.9969166        121.0637
0.508                  0.9988036        120.5151
0.512                   1.000888        119.9192
0.516                   1.002801        119.2759
0.52                    1.004205        118.5937
0.524                   1.004853        117.8881
0.528                   1.004628        117.1789
0.532                   1.003567        116.4868
0.536                   1.001854        115.8301
0.54                   0.9997878        115.2212
0.544                  0.9977318        114.6648
0.548                  0.9960518        114.1563
0.552                  0.9950496         113.683
0.556                  0.9949072        113.2257
0.56                   0.9956523        112.7625
0.564                   0.997154        112.2729
0.568                  0.9991451        111.7414
0.572                   1.001272        111.1603
0.576                   1.003156        110.5313
0.58                    1.004463        109.8644
0.584                   1.004963        109.1767
0.588                   1.004562        108.4889
0.592                   1.003328        107.8221
0.596                   1.001474        107.1941
0.6                    0.9993252        106.6166
0.604                  0.9972618        106.0925
0.608                  0.9956529        105.6155
0.612                  0.9947898        105.1709
0.616                  0.9948313        104.7381
0.62                   0.9957739        104.2944
0.624                  0.9974512        103.8193
0.628                  0.9995648        103.2984
0.632                   1.001738        102.7255
0.636                   1.003584        102.1043
0.64                    1.004775        101.4467
0.644                   1.005098        100.7716
0.648                    1.00449        100.1007
0.652                   1.003054        99.45543
0.656                   1.001039        98.85335
0.66                   0.9987984        98.30465
0.664                  0.9967317        97.81048
0.668                  0.9952101        97.36229
0.672                  0.9945108        96.94321
0.676                  0.9947649        96.53105
0.68                   0.9959307        96.10233
0.684                  0.9978021        95.63678
0.688                   1.000045        95.12105
0.692                   1.002259        94.55103
0.696                   1.004049        93.93251
0.7                     1.005094        93.27986
0.704                   1.005205        92.61356
0.708                   1.004357        91.95668
0.712                   1.002692        91.33095
0.716                     1.0005        90.75317
0.72                   0.9981659        90.23203
0.724                  0.9961077        89.76643
0.728                  0.9946972        89.34528
0.732                  0.9941936        88.94932
0.736                  0.9946937         88.5546
0.74                   0.9961124        88.13688
0.744                  0.9981978        87.67628
0.748                   1.000577        87.16095
0.752                   1.002826        86.58904
0.756                    1.00454        85.96887
0.76                    1.005414        85.31732
0.764                   1.005284         84.6569
0.768                   1.004168        84.01183
0.772                   1.002255        83.40404
0.776                  0.9998775        82.84944
0.78                   0.9974573        82.35485
0.784                  0.9954288        81.91654
0.788                  0.9941613        81.52058
0.792                  0.9938907        81.14509
0.796                  0.9946732        80.76421
0.8                    0.9963735        80.35314
0.804                  0.9986896        79.89261
0.808                   1.001207        79.37259
0.812                   1.003476        78.79384
0.816                   1.005088        78.16759
0.82                    1.005753         77.5135
0.824                   1.005345        76.85611
0.828                   1.003926         76.2209
0.832                   1.001738        75.62982
0.836                  0.9991647        75.09758
0.84                   0.9966618         74.6288
0.844                  0.9946811        74.21676
0.848                  0.9935855        73.84429
0.852                  0.9935815        73.48664
0.856                  0.9946779        73.11615
0.86                    0.996683        72.70743
0.864                   0.999239        72.24224
0.868                   1.001888        71.71268
0.872                   1.004154        71.12255
0.876                    1.00563         70.4863
0.88                    1.006045        69.82656
0.884                   1.005315         69.1701
0.888                   1.003557         68.5435
0.892                   1.001072        67.96863
0.896                  0.9982946         67.4587
0.9                    0.9957206        67.01564
0.904                   0.993816        66.62935
0.908                  0.9929331        66.27896
0.912                  0.9932419        65.93674
0.916                  0.9946961        65.57308
0.92                   0.9970397        65.16228
0.924                  0.9998543        64.68738
0.928                   1.002635        64.14311
0.932                   1.004883        63.53664
0.936                   1.006191        62.88609
0.94                    1.006317        62.21724
0.944                   1.005226        61.55925
0.948                   1.003096         60.9398
0.952                   1.000294        60.38037
0.956                  0.9973119        59.89235
0.96                   0.9946846        59.47456
0.964                  0.9928916        59.11294
0.968                   0.992269        58.78265
0.972                  0.9929424        58.45257
0.976                  0.9948014        58.09122
0.98                   0.9975178         57.6728
0.984                   1.000606        57.18202
0.988                   1.003513        56.61675
0.992                   1.005714        55.98802
0.996                   1.006811        55.31798
1                       1.006594         54.6359
1.004                   1.005084        53.97345
1.008                   1.002533        53.35938
1.012                  0.9993777        52.81461
1.016                  0.9961756         52.3483
1.02                   0.9935025         51.9556
1.024                  0.9918503        51.61792
1.028                  0.9915323        51.30592
1.032                  0.9926215        50.98483
1.036                  0.9949329        50.62126
1.04                   0.9980567        50.18954
1.044                   1.001434        49.67648
1.048                   1.004457        49.08358
1.052                    1.00658        48.42631
1.056                   1.007414        47.73129
1.06                     1.00679        47.03174
1.064                   1.004797        46.36197
1.068                   1.001766        45.75184
1.072                  0.9982192        45.22147
1.076                  0.9947833        44.77733
1.08                   0.9920806        44.41023
1.084                   0.990613        44.09635
1.088                  0.9906651        43.80114
1.092                  0.9922463        43.48581
1.096                  0.9950848        43.11491
1.1                    0.9986771         42.6631
1.104                    1.00238        42.11985
1.108                   1.005528        41.49086
1.112                   1.007551        40.79674
1.116                   1.008071        40.06925
1.12                    1.006973        39.34597
1.124                   1.004421         38.6643
1.128                   1.000839        38.05529
1.132                  0.9968478        37.53808
1.136                  0.9931551        37.11592
1.14                   0.9904347        36.77446
1.144                  0.9891989        36.48377
1.148                  0.9896968        36.20313
1.152                  0.9918618        35.88911
1.156                  0.9953191        35.50399
1.16                   0.9994546        35.02306
1.164                   1.003528        34.43889
1.168                   1.006806        33.76227
1.172                   1.008691        33.01975
1.176                   1.008822        32.24911
1.18                    1.007141        31.49317
1.184                   1.003905        30.79294
1.188                  0.9996515        30.18101
1.192                  0.9951145        29.67539
1.196                  0.9911022        29.27555
1.2                    0.9883518        28.96097
1.204                  0.9873888        28.69405
1.208                  0.9884203         28.4268
1.212                  0.9912879        28.10999
1.216                  0.9954922        27.70313
1.22                    1.000286        27.18215
1.224                   1.004809        26.54347
1.228                   1.008245        25.80382
1.232                   1.009959        24.99704
1.236                    1.00961         24.1682
1.24                    1.007207        23.36658
1.244                   1.003117        22.63794
1.248                  0.9980185        22.01699
1.252                  0.9927897        21.52082
1.256                  0.9883668        21.14421
1.26                    0.985572        20.85895
1.264                  0.9849535        20.61778
1.268                  0.9866691        20.36294
1.272                   0.990447         20.0377
1.276                  0.9956303        19.59776
1.28                      1.0013         19.0196
1.284                    1.00644        18.30414
1.288                    1.01012        17.47565
1.292                   1.011652        16.57699
1.296                   1.010706        15.66269
1.3                     1.007371        14.79065
1.304                   1.002153        14.01338
1.308                   0.995908        13.36929
1.312                  0.9897112         12.8749
1.316                  0.9846781        12.51964
1.32                   0.9817585        12.26523
1.324                  0.9815456         12.0512
1.328                  0.9841452         11.8061
1.332                  0.9891399        11.46216
1.336                  0.9956628        10.96904
1.34                    1.002556        10.30319
1.344                   1.008584        9.470959
1.348                   1.012644         8.50622
1.352                   1.013951        7.463966
1.356                   1.012171        6.411827
1.36                    1.007482        5.420441
1.364                   1.000569        4.553173
1.368                  0.9925383        3.855557
1.372                  0.9847561        3.345478
1.376                  0.9786226        3.006256
1.38                   0.9753099        2.785611
1.384                  0.9755183        2.602955
1.388                  0.9793104        2.364812
1.392                  0.9860759         1.98454
1.396                  0.9946394        1.400284
1.4                     1.003478       0.5861176
1.404                   1.010993      -0.4453521
1.408                   1.015784       -1.647349
1.412                   1.016868       -2.947443
1.416                   1.013846       -4.257918
1.42                     1.00698       -5.487045
1.424                  0.9971911        -6.55137
1.428                  0.9859692       -7.389324
1.432                   0.975171       -7.975335
1.436                   0.966727       -8.331501
1.44                   0.9622766       -8.531617
1.444                  0.9628096       -8.692367
1.448                  0.9684125       -8.950735
1.452                  0.9782058       -9.433786
1.456                  0.9904948       -10.23151
1.46                    1.003087       -11.38141
1.464                   1.013674       -12.86666
1.468                   1.020202       -14.62389
1.472                   1.021176        -16.5551
1.476                   1.015878       -18.54005
1.48                    1.004507       -20.44838
1.484                  0.9882297        -22.1531
1.488                  0.9691255       -23.54829
1.492                  0.9499998        -24.5728
1.496                  0.9340115       -25.23811
1.5                    0.9241129       -25.65077
1.504                  0.9223739        -26.0132
1.508                  0.9293858       -26.59078
1.512                  0.9439838       -27.65212
1.516                  0.9634029        -29.4102
1.52                   0.9837802       -31.99143
1.524                   1.000779       -35.43843
1.528                   1.010143       -39.73395
1.532                     1.0081       -44.82961
1.536                  0.9916173        -50.6706
1.54                    0.958541       -57.21467
1.544                  0.9076755        -64.4487
1.548                  0.8388201       -72.40896
1.552                  0.7528064       -81.21584
