! TOUCHSTONE file generated by CST MICROWAVE STUDIO
! Date and time: Thu Jun  9 15:37:43 2022
! Project name: AppElm_antenne_patch_Alumina.cst
! Parameters = {L=30.5; W=41.8; e=0.035; h=1.6; lambda=0.190476; ls=90; w0=1.12; w1=0.373; ws=112.5; y0=14; y1=10}
! Header version: 2018
! Port assignment regex: !\s*Touchstone port\s*([0-9]+)\s*=\s*(CST MWS port|CST DS port)\s*([0-9]+|Zmin|Zmax)\s*\(\"(.*)\"\)(\s*mode\s*([0-9]+))?.*
! Touchstone port assignment:
! Touchstone port 1 = CST MWS port 1 ("")
# GHz S MA R 50
0                       0.979188              -0
0.004                  0.9803288       -10.35553
0.008                  0.9836013       -20.60097
0.012                  0.9885787       -30.63314
0.016                  0.9946231       -40.36126
0.02                    1.000978       -49.71005
0.024                   1.006871       -58.62031
0.028                   1.011617       -67.04785
0.032                   1.014692       -74.96136
0.036                   1.015798       -82.34043
0.04                    1.014883       -89.17406
0.044                   1.012147       -95.46037
0.048                   1.008012       -101.2069
0.052                   1.003067       -106.4317
0.056                  0.9979915       -111.1647
0.06                   0.9934672       -115.4481
0.064                  0.9900823       -119.3354
0.068                  0.9882497       -122.8884
0.072                  0.9881485       -126.1731
0.076                  0.9897036       -129.2528
0.08                   0.9926044       -132.1832
0.084                  0.9963607       -135.0072
0.088                   1.000384       -137.7525
0.092                   1.004077       -140.4311
0.096                   1.006919       -143.0415
0.1                     1.008537       -145.5716
0.104                   1.008752       -148.0026
0.108                   1.007591       -150.3138
0.112                   1.005285       -152.4866
0.116                   1.002223       -154.5083
0.12                   0.9989005       -156.3753
0.124                  0.9958387       -158.0946
0.128                  0.9935072       -159.6844
0.132                  0.9922508       -161.1715
0.136                  0.9922354       -162.5885
0.14                   0.9934254       -163.9688
0.144                  0.9955933       -165.3418
0.148                  0.9983633       -166.7286
0.152                   1.001275       -168.1398
0.156                   1.003863       -169.5749
0.16                    1.005723       -171.0231
0.164                    1.00658       -172.4659
0.168                   1.006324        -173.881
0.172                   1.005021       -175.2453
0.176                   1.002902       -176.5394
0.18                    1.000327       -177.7504
0.184                  0.9977239       -178.8743
0.188                  0.9955207        -179.917
0.192                  0.9940753        179.1059
0.196                  0.9936158         178.172
0.2                    0.9942024        177.2554
0.204                  0.9957198        176.3311
0.208                  0.9978985        175.3794
0.212                   1.000364        174.3886
0.216                   1.002703        173.3566
0.22                    1.004528        172.2911
0.224                   1.005547        171.2074
0.228                   1.005602         170.126
0.232                   1.004696        169.0689
0.236                   1.002991        168.0562
0.24                     1.00078         167.103
0.244                  0.9984399        166.2162
0.248                  0.9963671        165.3938
0.252                  0.9949121        164.6246
0.256                  0.9943184        163.8901
0.26                   0.9946808        163.1676
0.264                  0.9959285         162.434
0.268                    0.99784        161.6703
0.272                   1.000082        160.8645
0.276                    1.00227        160.0132
0.28                    1.004032        159.1226
0.284                   1.005074        158.2064
0.288                   1.005224        157.2838
0.292                   1.004465        156.3759
0.296                   1.002928        155.5028
0.3                      1.00088        154.6796
0.304                  0.9986737        153.9145
0.308                  0.9966885        153.2066
0.312                  0.9952676        152.5463
0.316                  0.9946556        151.9165
0.32                   0.9949562        151.2958
0.324                  0.9961127        150.6622
0.328                  0.9979202        149.9971
0.332                   1.000061        149.2885
0.336                   1.002163        148.5331
0.34                    1.003864        147.7364
0.344                   1.004873        146.9118
0.348                    1.00502        146.0779
0.352                   1.004282        145.2557
0.356                   1.002788        144.4648
0.36                    1.000795        143.7203
0.364                  0.9986521        143.0303
0.368                  0.9967304         142.394
0.372                   0.995367         141.802
0.376                  0.9948016        141.2375
0.38                   0.9951329        140.6794
0.384                  0.9963014        140.1061
0.388                  0.9981001        139.4995
0.392                   1.000212         138.848
0.396                   1.002267        138.1487
0.4                     1.003907        137.4077
0.404                   1.004849        136.6384
0.408                   1.004929        135.8599
0.412                   1.004135         135.093
0.416                   1.002603        134.3571
0.42                      1.0006        133.6671
0.424                  0.9984746        133.0304
0.428                  0.9966006        132.4457
0.432                   0.995309        131.9029
0.436                  0.9948293        131.3847
0.44                   0.9952477        130.8698
0.444                  0.9964897        130.3368
0.448                  0.9983351        129.7679
0.452                   1.000457        129.1523
0.456                   1.002482        128.4882
0.46                    1.004055        127.7824
0.464                     1.0049        127.0494
0.468                   1.004869        126.3086
0.472                   1.003965        125.5812
0.476                   1.002346        124.8866
0.48                    1.000292        124.2388
0.484                  0.9981641        123.6445
0.488                   0.996338        123.1012
0.492                  0.9951392        122.5975
0.496                  0.9947837        122.1153
0.5                    0.9953368        121.6327
0.504                  0.9967014        121.1281
0.508                  0.9986358        120.5845
0.512                   1.000796        119.9921
0.516                   1.002802        119.3502
0.52                    1.004298        118.6672
0.524                   1.005021        117.9588
0.528                   1.004844        117.2453
0.532                   1.003793        116.5482
0.536                   1.002051        115.8867
0.54                   0.9999214        115.2741
0.544                  0.9977796        114.7158
0.548                  0.9960063        114.2078
0.552                  0.9949202        113.7371
0.556                  0.9947185        113.2842
0.56                   0.9954402        112.8266
0.564                  0.9969585        112.3425
0.568                  0.9990032        111.8157
0.572                   1.001211        111.2376
0.576                   1.003189        110.6094
0.58                    1.004587        109.9411
0.584                   1.005157          109.25
0.588                   1.004795        108.5574
0.592                    1.00356        107.8852
0.596                   1.001665        107.2524
0.6                    0.9994413        106.6714
0.604                  0.9972827        106.1459
0.608                  0.9955747        105.6698
0.612                  0.9946262        105.2285
0.616                  0.9946109        104.8007
0.62                   0.9955358        104.3629
0.624                  0.9972378        103.8936
0.628                  0.9994134        103.3774
0.632                   1.001675        102.8074
0.636                   1.003621        102.1866
0.64                    1.004904        101.5272
0.644                   1.005295        100.8482
0.648                    1.00472        100.1722
0.652                   1.003276        99.52156
0.656                   1.001212         98.9147
0.66                   0.9988915        98.36281
0.664                   0.996726        97.86763
0.668                  0.9951056        97.42092
0.672                  0.9943256        97.00563
0.676                  0.9945313        96.59888
0.68                    0.995691        96.17629
0.684                  0.9975994        95.71649
0.688                  0.9999162        95.20512
0.692                   1.002228        94.63736
0.696                   1.004122         94.0186
0.7                      1.00526        93.36334
0.704                   1.005436        92.69251
0.708                   1.004613        92.02996
0.712                    1.00293        91.39849
0.716                   1.000677        90.81584
0.72                   0.9982524         90.2917
0.724                  0.9960881        89.82549
0.728                  0.9945757        89.40637
0.732                  0.9939926        89.01475
0.736                  0.9944502        88.62588
0.74                   0.9958715        88.21453
0.744                  0.9980041        87.75966
0.748                   1.000467        87.24841
0.752                    1.00282        86.67822
0.756                   1.004641        86.05721
0.76                    1.005605         85.4024
0.764                   1.005534        84.73687
0.768                   1.004433        84.08576
0.772                   1.002489        83.47208
0.776                    1.00004        82.91278
0.78                   0.9975195        82.41559
0.784                  0.9953791        81.97733
0.788                  0.9940089        81.58412
0.792                  0.9936634        81.21361
0.796                  0.9944128        80.83912
0.8                    0.9961283        80.43464
0.804                  0.9985049        79.97976
0.808                   1.001118        79.46341
0.812                   1.003499        78.88578
0.816                   1.005222        78.25791
0.82                    1.005975        77.59976
0.824                   1.005617        76.93661
0.828                   1.004202         76.2949
0.832                    1.00197        75.69777
0.836                  0.9993115          75.161
0.84                   0.9966967         74.6901
0.844                  0.9945974        74.27881
0.848                  0.9933982        73.90987
0.852                  0.9933245        73.55798
0.856                   0.994398        73.19442
0.86                   0.9964312        72.79258
0.864                  0.9990616        72.33294
0.868                   1.001817        71.80669
0.872                   1.004204        71.21702
0.876                   1.005793        70.57842
0.88                    1.006293        69.91388
0.884                   1.005606        69.25108
0.888                    1.00384        68.61767
0.892                   1.001297        68.03674
0.896                  0.9984221        67.52263
0.9                    0.9957277         67.0781
0.904                  0.9937017        66.69339
0.908                  0.9927191        66.34745
0.912                  0.9929686        66.01174
0.916                  0.9944152        65.65547
0.92                   0.9968053        65.25161
0.924                   0.999712        64.78191
0.928                   1.002615        64.24021
0.932                   1.004992        63.63325
0.936                   1.006416        62.97924
0.94                    1.006623        62.30454
0.944                   1.005563        61.63932
0.948                   1.003409        61.01249
0.952                   1.000532        60.44683
0.956                  0.9974351        59.95484
0.96                   0.9946742        59.53614
0.964                  0.9927529        59.17692
0.968                  0.9920302        58.85192
0.972                  0.9926507        58.52908
0.976                  0.9945135        58.17558
0.98                   0.9972898        57.76417
0.984                   1.000483         57.2783
0.988                    1.00352        56.71496
0.992                   1.005855         56.0849
0.996                   1.007063        55.41052
1                       1.006915        54.72187
1.004                   1.005421        54.05173
1.008                   1.002826        53.43022
1.012                  0.9995757        52.87962
1.016                  0.9962427        52.41022
1.02                   0.9934262        52.01785
1.024                  0.9916443          51.684
1.028                  0.9912346        51.37871
1.032                  0.9922877        51.06605
1.036                  0.9946262        50.71108
1.04                    0.997836        50.28657
1.044                   1.001343        49.77807
1.048                   1.004518        49.18631
1.052                   1.006788        48.52662
1.056                   1.007738        47.82608
1.06                    1.007181        47.11881
1.064                   1.005194        46.44047
1.068                   1.002106        45.82238
1.072                   0.998449         45.2861
1.076                  0.9948705        44.83919
1.08                   0.9920181        44.47308
1.084                  0.9904223        44.16382
1.088                  0.9903924        43.87602
1.092                  0.9919541        43.56948
1.096                  0.9948402        43.20705
1.1                    0.9985387        42.76177
1.104                   1.002387         42.2219
1.108                   1.005695        41.59251
1.112                   1.007862        40.89428
1.116                   1.008487         40.1596
1.12                    1.007432        39.42725
1.124                   1.004854        38.73611
1.128                    1.00118        38.11886
1.132                  0.9970441        37.59616
1.136                  0.9931782        37.17228
1.14                   0.9902869        36.83342
1.144                   0.988913        36.54923
1.148                  0.9893311        36.27788
1.152                  0.9914894        35.97424
1.156                  0.9950141        35.59866
1.16                   0.9992786         35.1247
1.164                   1.003519        34.54381
1.168                   1.006971        33.86617
1.172                   1.009007        33.11878
1.176                    1.00924        32.34022
1.18                    1.007591        31.57467
1.184                   1.004314        30.86493
1.188                  0.9999502        30.24524
1.192                  0.9952545        29.73522
1.196                  0.9910636         29.3353
1.2                    0.9881487        29.02523
1.204                  0.9870682        28.76672
1.208                  0.9880539        28.51024
1.212                  0.9909586        28.20452
1.216                   0.995279        27.80703
1.22                    1.000248         27.2919
1.224                   1.004977         26.6545
1.228                   1.008614         25.9114
1.232                   1.010491        25.09694
1.236                   1.010238        24.25741
1.24                    1.007848         23.4438
1.244                   1.003687         22.7037
1.248                   0.998441        22.07388
1.252                  0.9930159        21.57298
1.256                  0.9883824        21.19674
1.26                   0.9854015        20.91704
1.264                  0.9846569        20.68554
1.268                  0.9863312        20.44257
1.272                  0.9901607        20.12902
1.276                  0.9954787        19.69827
1.28                     1.00134        19.12503
1.284                   1.006694        18.40936
1.288                    1.01057        17.57555
1.292                   1.012243        16.66738
1.296                   1.011358         15.7409
1.3                     1.007988        14.85603
1.304                   1.002642        14.06752
1.308                  0.9961939        13.41589
1.312                  0.9897531        12.91934
1.316                  0.9844782        12.56811
1.32                   0.9813646        12.32357
1.324                  0.9810441         12.1236
1.328                   0.983646        11.89418
1.332                  0.9887553        11.56457
1.336                  0.9954858         11.0818
1.34                    1.002645        10.42054
1.344                    1.00895        9.586526
1.348                   1.013253         8.61405
1.352                    1.01473         7.55945
1.356                   1.013017        6.492354
1.36                    1.008282        5.485807
1.364                   1.001218        4.605738
1.368                  0.9929569         3.90006
1.372                  0.9849088        3.388424
1.376                  0.9785265        3.054802
1.38                   0.9750357         2.84608
1.384                  0.9751781        2.679317
1.388                  0.9790372        2.457645
1.392                  0.9859964        2.090833
1.396                  0.9948485        1.514139
1.4                     1.004021       0.7000161
1.404                   1.011859      -0.3391274
1.408                   1.016905       -1.555481
1.412                   1.018134        -2.87465
1.416                   1.015116       -4.206308
1.42                    1.008108       -5.455703
1.424                  0.9980473         -6.5362
1.428                  0.9864631       -7.383252
1.432                  0.9752726       -7.969095
1.436                  0.9664784       -8.315152
1.44                   0.9617915       -8.496692
1.444                  0.9622551        -8.63406
1.448                  0.9679771       -8.869313
1.452                  0.9780604       -9.334566
1.456                  0.9907599       -10.12349
1.46                     1.00381        -11.2752
1.464                   1.014825       -12.77247
1.468                   1.021681       -14.55006
1.472                   1.022827       -16.50713
1.476                   1.017514       -18.51996
1.48                    1.005938       -20.45426
1.484                  0.9892907       -22.17882
1.488                  0.9697134       -23.58348
1.492                  0.9501023       -24.60366
1.496                  0.9337313       -25.24965
1.5                    0.9236704       -25.63055
1.504                  0.9220801       -25.95576
1.508                  0.9295869       -26.50052
1.512                  0.9449914       -27.54286
1.516                  0.9654384       -29.30182
1.52                   0.9869465       -31.90555
1.524                    1.00506       -35.39536
1.528                   1.015423       -39.75148
1.532                   1.014191       -44.92324
1.536                   0.998284       -50.85473
1.54                   0.9655325       -57.50422
1.544                  0.9147515       -64.86121
1.548                  0.8457811       -72.96743
1.552                  0.7595291       -81.95299
