! TOUCHSTONE file generated by CST MICROWAVE STUDIO
! Date and time: Thu Jun  9 15:37:33 2022
! Project name: AppElm_antenne_patch_Alumina.cst
! Parameters = {L=30.5; W=41.8; e=0.035; h=1.6; lambda=0.190476; ls=90; w0=1.12; w1=0.373; ws=72; y0=14; y1=10}
! Header version: 2018
! Port assignment regex: !\s*Touchstone port\s*([0-9]+)\s*=\s*(CST MWS port|CST DS port)\s*([0-9]+|Zmin|Zmax)\s*\(\"(.*)\"\)(\s*mode\s*([0-9]+))?.*
! Touchstone port assignment:
! Touchstone port 1 = CST MWS port 1 ("")
# GHz S MA R 50
0                      0.9791027              -0
0.004                  0.9802369        -10.3635
0.008                  0.9834907       -20.61724
0.012                  0.9884402       -30.65837
0.016                  0.9944514       -40.39633
0.02                    1.000773       -49.75597
0.024                   1.006638       -58.67819
0.028                   1.011364       -67.11883
0.032                   1.014432       -75.04661
0.036                   1.015544        -82.4411
0.04                     1.01465       -89.29141
0.044                   1.011948       -95.59564
0.048                   1.007857       -101.3613
0.052                   1.002961       -106.6066
0.056                  0.9979352       -111.3614
0.06                    0.993454       -115.6677
0.064                  0.9901014       -119.5787
0.068                  0.9882861       -123.1561
0.072                  0.9881863       -126.4651
0.076                  0.9897273       -129.5689
0.08                   0.9926019       -132.5228
0.084                  0.9963249       -135.3695
0.088                   1.000313       -138.1365
0.092                   1.003976       -140.8359
0.096                   1.006797       -143.4665
0.1                     1.008409       -146.0162
0.104                   1.008631       -148.4667
0.108                   1.007491       -150.7976
0.112                   1.005217       -152.9905
0.116                   1.002194        -155.033
0.12                   0.9989088       -156.9215
0.124                  0.9958789       -158.6631
0.128                   0.993568       -160.2756
0.132                   0.992317       -161.7857
0.136                  0.9922913       -163.2255
0.14                    0.993457        -164.628
0.144                  0.9955911       -166.0223
0.148                  0.9983236       -167.4294
0.152                   1.001202         -168.86
0.156                   1.003764       -170.3135
0.16                    1.005614       -171.7795
0.164                   1.006477         -173.24
0.168                   1.006242       -174.6729
0.172                   1.004972       -176.0556
0.176                   1.002896       -177.3688
0.18                    1.000363       -178.5998
0.184                  0.9977945       -179.7445
0.188                  0.9956134        179.1913
0.192                  0.9941728        178.1925
0.196                  0.9936997        177.2372
0.2                    0.9942562        176.2997
0.204                  0.9957322        175.3557
0.208                  0.9978654        174.3853
0.212                    1.00029        173.3769
0.216                   1.002598        172.3285
0.22                     1.00441        171.2471
0.224                   1.005434        170.1478
0.228                   1.005512        169.0506
0.232                   1.004645         167.977
0.236                   1.002987         166.947
0.24                    1.000823        165.9753
0.244                  0.9985209        165.0692
0.248                  0.9964708        164.2268
0.252                  0.9950182        163.4373
0.256                  0.9944059        162.6828
0.26                   0.9947313        161.9411
0.264                    0.99593        161.1894
0.268                  0.9977891        160.4091
0.272                  0.9999848        159.5879
0.276                    1.00214        158.7225
0.28                     1.00389        157.8183
0.284                   1.004943        156.8888
0.288                   1.005126        155.9524
0.292                   1.004414          155.03
0.296                   1.002934        154.1412
0.3                     1.000941        153.3012
0.304                  0.9987772        152.5181
0.308                  0.9968163        151.7914
0.312                  0.9953956        151.1122
0.316                  0.9947596        150.4639
0.32                   0.9950158        149.8257
0.324                  0.9961156        149.1759
0.328                  0.9978639        148.4963
0.332                  0.9999538        147.7746
0.336                   1.002023        147.0073
0.34                    1.003715        146.1995
0.344                   1.004741        145.3637
0.348                   1.004928        144.5182
0.352                   1.004246        143.6833
0.356                   1.002815        142.8784
0.36                    1.000883        142.1185
0.364                  0.9987845        141.4119
0.368                  0.9968843        140.7583
0.372                  0.9955149        140.1489
0.376                  0.9949157        139.5676
0.38                   0.9951918        138.9939
0.384                  0.9962926        138.4067
0.388                  0.9980235        137.7879
0.392                   1.000079        137.1259
0.396                     1.0021        136.4174
0.4                     1.003734        135.6678
0.404                   1.004699        134.8899
0.408                   1.004829         134.102
0.412                   1.004101        133.3244
0.416                   1.002641        132.5764
0.42                    1.000704        131.8727
0.424                  0.9986255         131.221
0.428                  0.9967712        130.6206
0.432                  0.9954681        130.0621
0.436                  0.9949473         129.529
0.44                   0.9953019        129.0006
0.444                   0.996469        128.4559
0.448                  0.9982419        127.8774
0.452                   1.000307         127.254
0.456                   1.002301        126.5832
0.46                    1.003875        125.8714
0.464                   1.004753         125.132
0.468                   1.004782         124.384
0.472                   1.003955        123.6478
0.476                   1.002416        122.9426
0.48                    1.000431        122.2826
0.484                  0.9983493        121.6747
0.488                   0.996537        121.1171
0.492                  0.9953172        120.5993
0.496                  0.9949081        120.1041
0.5                    0.9953846        119.6101
0.504                   0.996663        119.0964
0.508                  0.9985165        118.5457
0.512                   1.000616        117.9482
0.516                   1.002591        117.3025
0.52                    1.004093        116.6161
0.524                   1.004857        115.9038
0.528                   1.004748        115.1852
0.532                   1.003782        114.4814
0.536                   1.002126        113.8111
0.54                    1.000069         113.188
0.544                  0.9979722        112.6178
0.548                   0.996208        112.0973
0.552                  0.9950927        111.6144
0.556                  0.9948285        111.1506
0.56                   0.9954654         110.684
0.564                  0.9968915        110.1934
0.568                  0.9988537        109.6624
0.572                   1.001003         109.082
0.576                   1.002958        108.4526
0.58                    1.004373        107.7834
0.584                   1.004997        107.0906
0.588                   1.004716        106.3949
0.592                   1.003578        105.7176
0.596                   1.001777        105.0776
0.6                    0.9996288        104.4873
0.604                  0.9975131        103.9512
0.608                  0.9958073        103.4641
0.612                  0.9948191        103.0122
0.616                  0.9947295        102.5754
0.62                   0.9955581        102.1309
0.624                  0.9971589        101.6575
0.628                  0.9992469        101.1396
0.632                    1.00145        100.5699
0.636                   1.003377        99.95051
0.64                    1.004684        99.29259
0.644                   1.005138        98.61413
0.648                   1.004655        97.93692
0.652                   1.003315        97.28283
0.656                   1.001349        96.67019
0.66                    0.999103        96.11044
0.664                  0.9969752         95.6061
0.668                  0.9953475        95.14991
0.672                  0.9945157        94.72594
0.676                  0.9946343        94.31233
0.68                   0.9956864        93.88544
0.684                   0.997486        93.42416
0.688                  0.9997122        92.91389
0.692                   1.001968        92.34917
0.696                    1.00385        91.73442
0.7                     1.005023          91.083
0.704                   1.005275        90.41483
0.708                   1.004556         89.7529
0.712                   1.002986        89.11955
0.716                   1.000837        88.53251
0.72                   0.9984886        88.00181
0.724                  0.9963581        87.52776
0.728                  0.9948304        87.10064
0.732                  0.9941852        86.70205
0.736                  0.9945447        86.30836
0.74                   0.9958493        85.89497
0.744                  0.9978675        85.44111
0.748                   1.000239        84.93352
0.752                    1.00254        84.36891
0.756                   1.004358        83.75425
0.76                    1.005369        83.10541
0.764                   1.005386        82.44435
0.768                     1.0044         81.7954
0.772                   1.002579        81.18111
0.776                   1.000237        80.61848
0.78                     0.99779        80.11575
0.784                  0.9956753        79.67075
0.788                   0.994277        79.27083
0.792                  0.9938536        78.89498
0.796                  0.9944886        78.51762
0.8                    0.9960729        78.11344
0.804                  0.9983249         77.6621
0.808                   1.000841        77.15213
0.812                   1.003171        76.58274
0.816                   1.004897         75.9638
0.82                    1.005706        75.31396
0.824                   1.005449        74.65736
0.828                   1.004161        74.01959
0.832                   1.002061        73.42334
0.836                  0.9995152        72.88457
0.84                    0.996975        72.40938
0.844                  0.9948975        71.99263
0.848                  0.9936623        71.61848
0.852                  0.9935008        71.26298
0.856                    0.99445        70.89858
0.86                   0.9963449        70.49931
0.864                  0.9988476         70.0457
0.868                    1.00151        69.52833
0.872                   1.003853        68.94935
0.876                   1.005457         68.3219
0.88                     1.00603        67.66759
0.884                   1.005459        67.01292
0.888                   1.003835        66.38467
0.892                   1.001435        65.80552
0.896                  0.9986795        65.29005
0.9                    0.9960576        64.84181
0.904                  0.9940439         64.4523
0.908                  0.9930097        64.10204
0.912                  0.9931516          63.764
0.916                  0.9944531        63.40862
0.92                   0.9966854        63.00946
0.924                  0.9994493        62.54825
0.928                   1.002249        62.01809
0.932                   1.004581        61.42451
0.936                   1.006023        60.78425
0.94                    1.006311         60.1222
0.944                    1.00538         59.4672
0.948                    1.00338        58.84726
0.952                   1.000656        58.28481
0.956                  0.9976839        57.79266
0.96                   0.9949956        57.37133
0.964                  0.9930805         57.0084
0.968                  0.9922951         56.6804
0.972                  0.9927936        56.35691
0.976                  0.9944963        56.00633
0.98                   0.9971025        55.60204
0.984                   1.000146        55.12731
0.988                   1.003079         54.5783
0.992                   1.005375        53.96439
0.996                   1.006615        53.30633
1                       1.006568        52.63255
1.004                   1.005223        51.97444
1.008                   1.002803        51.36117
1.012                  0.9997236        50.81466
1.016                  0.9965254        50.34559
1.02                   0.9937828         49.9509
1.024                  0.9919987        49.61371
1.028                  0.9915088        49.30605
1.032                  0.9924165        48.99379
1.036                  0.9945684        48.64337
1.04                   0.9975828        48.22817
1.044                   1.000919         47.7335
1.048                   1.003977        47.15906
1.052                   1.006204        46.51864
1.056                   1.007192        45.83746
1.06                    1.006748        45.14786
1.064                   1.004929         44.4839
1.068                   1.002036        43.87588
1.072                  0.9985677          43.345
1.076                  0.9951356        42.89928
1.08                   0.9923596        42.53142
1.084                  0.9907532         42.2194
1.088                   0.990625        41.93006
1.092                  0.9920154        41.62529
1.096                  0.9946857        41.26941
1.1                    0.9981609        40.83615
1.104                   1.001817        40.31334
1.108                   1.004996        39.70494
1.112                    1.00712        39.02976
1.116                   1.007795        38.31816
1.12                    1.006877        37.60681
1.124                   1.004499        36.93284
1.128                   1.001056        36.32768
1.132                  0.9971404        35.81163
1.136                  0.9934456        35.38949
1.14                   0.9906424        35.04894
1.144                  0.9892549        34.76194
1.148                  0.9895566        34.48922
1.152                  0.9915136        34.18817
1.156                   0.994786        33.82087
1.16                   0.9987907        33.36147
1.164                   1.002808        32.80101
1.168                   1.006114        32.14838
1.172                   1.008104        31.42831
1.176                     1.0084        30.67699
1.18                    1.006917        29.93622
1.184                   1.003878        29.24659
1.188                  0.9997889        28.64097
1.192                  0.9953535        28.13843
1.196                  0.9913609        27.74009
1.2                    0.9885424        27.42746
1.204                  0.9874331        27.16513
1.208                  0.9882637        26.90678
1.212                  0.9909095        26.60415
1.216                  0.9949089        26.21674
1.22                   0.9995482        25.71959
1.224                   1.003993        25.10738
1.228                   1.007439        24.39505
1.232                    1.00925        23.61436
1.236                   1.009067        22.80867
1.24                    1.006874        22.02593
1.244                   1.003004        21.31122
1.248                  0.9980971        20.69934
1.252                  0.9929973        20.20817
1.256                  0.9886152        19.83417
1.26                   0.9857612        19.55148
1.264                  0.9849887        19.31525
1.268                   0.986478         19.0699
1.272                  0.9899926        18.76009
1.276                  0.9949181        18.34181
1.28                    1.000376        17.79079
1.284                   1.005385        17.10636
1.288                   1.009034        16.31067
1.292                   1.010638        15.44435
1.296                   1.009857        14.55975
1.3                     1.006755        13.71299
1.304                   1.001798        12.95534
1.308                     0.9958        12.32477
1.312                  0.9897901        11.83833
1.316                  0.9848456        11.48708
1.32                   0.9818921        11.23537
1.324                  0.9815193        11.02584
1.328                  0.9838513        10.79011
1.332                  0.9885099        10.46265
1.336                  0.9946788        9.994096
1.34                    1.001256        9.360521
1.344                   1.007052        8.566757
1.348                   1.011002         7.64433
1.352                   1.012338        6.645483
1.356                   1.010725        5.634972
1.36                    1.006319        4.680704
1.364                  0.9997639        3.843744
1.368                  0.9921092        3.168108
1.372                  0.9846573        2.671387
1.376                  0.9787447        2.338204
1.38                   0.9754948         2.11928
1.384                  0.9755828        1.938344
1.388                  0.9790797        1.706639
1.392                  0.9854161         1.34153
1.396                   0.993482       0.7835759
1.4                     1.001832      0.00730745
1.404                   1.008946      -0.9759894
1.408                   1.013486       -2.122212
1.412                   1.014515       -3.362499
1.416                   1.011649       -4.613251
1.42                    1.005138       -5.787125
1.424                  0.9958564       -6.804989
1.428                  0.9852162       -7.608948
1.432                  0.9749716       -8.175577
1.436                  0.9669369       -8.526525
1.44                   0.9626456        -8.73175
1.444                  0.9630147       -8.900896
1.448                  0.9681123       -9.162139
1.452                  0.9771018       -9.634239
1.456                  0.9883856       -10.40138
1.46                   0.9999004       -11.49862
1.464                   1.009478       -12.90987
1.468                   1.015197        -14.5748
1.472                   1.015668       -16.40003
1.476                   1.010245       -18.27111
1.48                   0.9991551       -20.06457
1.484                  0.9835357       -21.66152
1.488                  0.9653736       -22.96502
1.492                  0.9473074        -23.9225
1.496                  0.9322629       -24.55091
1.5                    0.9229202        -24.9554
1.504                  0.9210936       -25.32755
1.508                  0.9272025       -25.91347
1.512                   0.940039       -26.95965
1.516                  0.9569256       -28.66058
1.52                   0.9741778       -31.13118
1.524                   0.987676       -34.40877
1.528                  0.9933787       -38.47378
1.532                  0.9876986       -43.27501
1.536                  0.9677426        -48.7515
1.54                   0.9314471       -54.84894
1.544                  0.8776422       -61.53313
1.548                  0.8060704       -68.80523
1.552                   0.717385       -76.72755
