! TOUCHSTONE file generated by CST MICROWAVE STUDIO
! Date and time: Thu Jun  9 15:37:34 2022
! Project name: AppElm_antenne_patch_Alumina.cst
! Parameters = {L=30.5; W=41.8; e=0.035; h=1.6; lambda=0.190476; ls=90; w0=1.12; w1=0.373; ws=76.5; y0=14; y1=10}
! Header version: 2018
! Port assignment regex: !\s*Touchstone port\s*([0-9]+)\s*=\s*(CST MWS port|CST DS port)\s*([0-9]+|Zmin|Zmax)\s*\(\"(.*)\"\)(\s*mode\s*([0-9]+))?.*
! Touchstone port assignment:
! Touchstone port 1 = CST MWS port 1 ("")
# GHz S MA R 50
0                      0.9791817              -0
0.004                  0.9803141       -10.36586
0.008                  0.9835623       -20.62186
0.012                  0.9885026       -30.66503
0.016                   0.994501       -40.40473
0.02                    1.000806       -49.76574
0.024                   1.006653        -58.6889
0.028                   1.011359       -67.13003
0.032                   1.014408       -75.05781
0.036                   1.015502       -82.45184
0.04                    1.014595       -89.30129
0.044                   1.011886       -95.60434
0.048                   1.007795       -101.3687
0.052                   1.002907       -106.6126
0.056                  0.9978968       -111.3662
0.06                   0.9934376       -115.6716
0.064                  0.9901103       -119.5823
0.068                  0.9883203       -123.1598
0.072                  0.9882419       -126.4695
0.076                  0.9897974       -129.5745
0.08                   0.9926769       -132.5298
0.084                  0.9963942       -135.3778
0.088                   1.000367       -138.1459
0.092                   1.004006        -140.846
0.096                   1.006801       -143.4766
0.1                     1.008386       -146.0258
0.104                   1.008585       -148.4752
0.108                   1.007431       -150.8046
0.112                   1.005151       -152.9958
0.116                   1.002135       -155.0366
0.12                    0.998867       -156.9237
0.124                  0.9958621       -158.6644
0.128                    0.99358       -160.2765
0.132                  0.9923569        -161.787
0.136                  0.9923536       -163.2278
0.14                   0.9935317       -164.6317
0.144                  0.9956667       -166.0276
0.148                  0.9983881       -167.4362
0.152                   1.001244       -168.8679
0.156                   1.003778        -170.322
0.16                    1.005597       -171.7879
0.164                   1.006432       -173.2475
0.168                   1.006177        -174.679
0.172                   1.004898         -176.06
0.176                   1.002823       -177.3714
0.18                    1.000304       -178.6007
0.184                  0.9977597       -179.7442
0.188                  0.9956082        179.1922
0.192                  0.9941977        178.1932
0.196                  0.9937498        177.2369
0.2                    0.9943228        176.2981
0.204                  0.9958033        175.3524
0.208                  0.9979285        174.3804
0.212                   1.000334        173.3709
0.216                   1.002615        172.3218
0.22                    1.004397        171.2404
0.224                   1.005393        170.1418
0.228                   1.005451        169.0459
0.232                   1.004574         167.974
0.236                   1.002918        166.9457
0.24                    1.000769        165.9756
0.244                  0.9984909        165.0706
0.248                  0.9964706        164.2287
0.252                  0.9950486         163.439
0.256                  0.9944619        162.6835
0.26                   0.9948036        161.9403
0.264                  0.9960066        161.1869
0.268                  0.9978567        160.4049
0.272                   1.000032        159.5824
0.276                    1.00216        158.7163
0.28                    1.003879        157.8121
0.284                   1.004904        156.8833
0.288                   1.005065        155.9482
0.292                   1.004343        155.0275
0.296                   1.002865        154.1404
0.3                     1.000886         153.302
0.304                  0.9987466          152.52
0.308                  0.9968153        151.7938
0.312                  0.9954245        151.1143
0.316                  0.9948134         150.465
0.32                   0.9950847        149.8253
0.324                  0.9961876        149.1738
0.328                  0.9979257        148.4925
0.332                  0.9999949        147.7696
0.336                   1.002035        147.0017
0.34                    1.003696        146.1939
0.344                   1.004694         145.359
0.348                   1.004861        144.5148
0.352                   1.004171        143.6816
0.356                   1.002744        142.8785
0.36                    1.000828        142.1202
0.364                  0.9987546        141.4147
0.368                  0.9968851        140.7615
0.372                  0.9955461        140.1517
0.376                   0.994972        139.5694
0.38                   0.9952627        138.9941
0.384                  0.9963659        138.4051
0.388                  0.9980863        137.7847
0.392                   1.000121        137.1215
0.396                   1.002113        136.4124
0.4                     1.003717        135.6629
0.404                   1.004656        134.8859
0.408                   1.004767        134.0993
0.412                   1.004032        133.3234
0.416                   1.002578        132.5771
0.42                    1.000658        131.8748
0.424                  0.9986057        131.2241
0.428                  0.9967815        130.6238
0.432                   0.995507        130.0648
0.436                  0.9950084        129.5305
0.44                   0.9953744        129.0005
0.444                  0.9965403        128.4541
0.448                  0.9982992        127.8739
0.452                    1.00034        127.2494
0.456                   1.002304        126.5782
0.46                    1.003847        125.8667
0.464                   1.004698        125.1283
0.468                   1.004709        124.3818
0.472                   1.003877        123.6474
0.476                   1.002346         122.944
0.48                     1.00038        122.2854
0.484                   0.998326        121.6784
0.488                  0.9965449        121.1209
0.492                  0.9953541        120.6026
0.496                  0.9949673        120.1061
0.5                     0.995455        119.6106
0.504                  0.9967318        119.0951
0.508                  0.9985714         118.543
0.512                   1.000648        117.9445
0.516                   1.002594        117.2984
0.52                    1.004067        116.6123
0.524                   1.004808         115.901
0.528                   1.004684        115.1839
0.532                   1.003717        114.4818
0.536                   1.002071        113.8131
0.54                    1.000034        113.1912
0.544                  0.9979647        112.6217
0.548                  0.9962305         112.101
0.552                  0.9951419        111.6174
0.556                  0.9948962        111.1522
0.56                     0.99554        110.6839
0.564                  0.9969603        110.1916
0.568                  0.9989046        109.6591
0.572                   1.001027        109.0779
0.576                   1.002952        108.4483
0.58                    1.004338        107.7796
0.584                   1.004938         107.088
0.588                   1.004645        106.3939
0.592                   1.003505        105.7184
0.596                   1.001716          105.08
0.6                    0.9995898        104.4909
0.604                  0.9975026        103.9554
0.608                  0.9958267        103.4681
0.612                  0.9948644        103.0154
0.616                  0.9947921        102.5772
0.62                   0.9956264        102.1311
0.624                  0.9972204        101.6561
0.628                  0.9992903         101.137
0.632                   1.001468        100.5665
0.636                   1.003365        99.94706
0.64                    1.004646        99.28976
0.644                    1.00508        98.61253
0.648                   1.004587        97.93689
0.652                   1.003249         97.2845
0.656                   1.001298        96.67333
0.66                   0.9990757        96.11462
0.664                  0.9969767        95.61066
0.668                  0.9953779        95.15415
0.672                  0.9945701        94.72917
0.676                  0.9947034         94.3141
0.68                   0.9957581        93.88554
0.684                  0.9975482        93.42267
0.688                  0.9997545        92.91121
0.692                   1.001983        92.34589
0.696                   1.003836         91.7312
0.7                     1.004984        91.08053
0.704                   1.005217        90.41361
0.708                    1.00449        89.75328
0.712                   1.002925        89.12155
0.716                   1.000792        88.53587
0.72                   0.9984671        88.00605
0.724                  0.9963646        87.53226
0.728                  0.9948638        87.10467
0.732                  0.9942396        86.70503
0.736                  0.9946103        86.30986
0.74                   0.9959143        85.89488
0.744                  0.9979202        85.43956
0.748                    1.00027        84.93098
0.752                   1.002543        84.36596
0.756                   1.004334        83.75156
0.76                     1.00532        83.10362
0.764                   1.005322        82.44394
0.768                   1.004331        81.79663
0.772                   1.002516        81.18396
0.776                   1.000193        80.62266
0.78                   0.9977706        80.12075
0.784                  0.9956845        79.67592
0.788                   0.994313        79.27548
0.792                  0.9939102        78.89856
0.796                  0.9945558        78.51975
0.8                    0.9961395        78.11402
0.804                  0.9983796        77.66134
0.808                   1.000876        77.15044
0.812                   1.003181        76.58069
0.816                   1.004881        75.96204
0.82                     1.00567        75.31305
0.824                   1.005401        74.65769
0.828                    1.00411        74.02137
0.832                   1.002019        73.42648
0.836                  0.9994909        72.88874
0.84                   0.9969743        72.41408
0.844                   0.994922        71.99724
0.848                  0.9937091        71.62237
0.852                  0.9935626        71.26568
0.856                  0.9945168        70.89984
0.86                   0.9964057        70.49913
0.864                  0.9988923        70.04434
0.868                   1.001531        69.52625
0.872                   1.003848        68.94719
0.876                   1.005426        68.32026
0.88                    1.005979        67.66702
0.884                   1.005397        67.01375
0.888                   1.003772        66.38706
0.892                   1.001382        65.80938
0.896                  0.9986443        65.29505
0.9                    0.9960466        64.84744
0.904                  0.9940589        64.45792
0.908                  0.9930478         64.1071
0.912                   0.993206        63.76805
0.916                  0.9945147        63.41139
0.92                   0.9967442        63.01096
0.924                  0.9994967         62.5487
0.928                   1.002278        62.01791
0.932                   1.004589        61.42423
0.936                   1.006012        60.78437
0.94                    1.006286        60.12316
0.944                   1.005347        59.46926
0.948                    1.00335        58.85053
0.952                   1.000636        58.28913
0.956                  0.9976808        57.79772
0.96                   0.9950135        57.37665
0.964                  0.9931194        57.01348
0.968                  0.9923513        56.68473
0.972                  0.9928601        56.36016
0.976                  0.9945646        56.00835
0.98                   0.9971635        55.60291
0.984                   1.000192        55.12731
0.988                   1.003105        54.57786
0.992                   1.005379          53.964
0.996                     1.0066        53.30648
1                       1.006537        52.63363
1.004                   1.005186        51.97672
1.008                   1.002767        51.36472
1.012                  0.9996959        50.81937
1.016                  0.9965133        50.35117
1.02                   0.9937904        49.95693
1.024                  0.9920265        49.61975
1.028                  0.9915546        49.31163
1.032                  0.9924747        48.99861
1.036                  0.9946322        48.64726
1.04                   0.9976449        48.23115
1.044                   1.000973        47.73575
1.048                   1.004019        47.16088
1.052                   1.006232        46.52039
1.056                   1.007207        45.83951
1.06                    1.006753        45.15051
1.064                   1.004929        44.48735
1.068                   1.002038         43.8802
1.072                   0.998576        43.35012
1.076                  0.9951557          42.905
1.08                   0.9923946        42.53744
1.084                  0.9908039        42.22539
1.088                  0.9906895        41.93569
1.092                  0.9920902         41.6303
1.096                  0.9947658        41.27368
1.1                    0.9982409        40.83966
1.104                   1.001892        40.31621
1.108                   1.005062        39.70735
1.112                   1.007176        39.03199
1.116                   1.007839        38.32047
1.12                    1.006911        37.60945
1.124                   1.004526          36.936
1.128                    1.00108        36.33151
1.132                  0.9971656        35.81616
1.136                   0.993476        35.39466
1.14                   0.9906818        35.05462
1.144                  0.9893053        34.76789
1.148                  0.9896191        34.49523
1.152                  0.9915874        34.19402
1.156                  0.9948693        33.82633
1.16                   0.9988801        33.36645
1.164                     1.0029        32.80544
1.168                   1.006204        32.15228
1.172                   1.008188        31.43176
1.176                   1.008476        30.68021
1.18                    1.006982        29.93938
1.184                   1.003933           29.25
1.188                   0.999834         28.6449
1.192                   0.995392        28.14313
1.196                  0.9913976        27.74572
1.2                    0.9885831        27.43415
1.204                  0.9874843        27.17283
1.208                  0.9883315        26.91525
1.212                  0.9909987        26.61314
1.216                  0.9950221        26.22581
1.22                   0.9996853        25.72827
1.224                   1.004151        25.11536
1.228                   1.007613        24.40191
1.232                   1.009431        23.61999
1.236                   1.009248        22.81301
1.24                    1.007045        22.02915
1.244                   1.003159        21.31359
1.248                   0.998231        20.70136
1.252                  0.9931097        20.21038
1.256                  0.9887095        19.83716
1.26                    0.985845        19.55567
1.264                   0.985072        19.32088
1.268                  0.9865725        19.07694
1.272                  0.9901089        18.76819
1.276                  0.9950636        18.35042
1.28                    1.000553        17.79919
1.284                   1.005591        17.11384
1.288                   1.009259        16.31663
1.292                   1.010871        15.44844
1.296                   1.010081        14.56193
1.3                     1.006954        13.71356
1.304                    1.00196          12.955
1.308                   0.995917        12.32452
1.312                  0.9898631        11.83937
1.316                  0.9848841        11.49061
1.32                   0.9819142        11.24234
1.324                  0.9815499        11.03673
1.328                   0.983918        10.80475
1.332                  0.9886377         10.4802
1.336                  0.9948859         10.0132
1.34                     1.00155        9.379517
1.344                   1.007429        8.583943
1.348                   1.011446        7.658229
1.352                   1.012824        6.655048
1.356                   1.011221        5.639741
1.36                    1.006791        4.680907
1.364                   1.000181        3.840334
1.368                  0.9924513        3.162702
1.372                  0.9849167         2.66608
1.376                   0.978931        2.335224
1.38                   0.9756332        2.120543
1.384                  0.9757123        1.944979
1.388                  0.9792445        1.718676
1.392                  0.9856579         1.35784
1.396                  0.9938308       0.8020868
1.4                     1.002301      0.02542549
1.404                   1.009526      -0.9609056
1.408                    1.01415       -2.112409
1.412                   1.015218       -3.359465
1.416                   1.012337       -4.617436
1.42                    1.005752       -5.797731
1.424                  0.9963473       -6.819867
1.428                  0.9855528       -7.624663
1.432                    0.97515        -8.18775
1.436                  0.9669875       -8.530534
1.44                   0.9626327       -8.723731
1.444                  0.9630295        -8.87878
1.448                  0.9682575       -9.126366
1.452                   0.977473       -9.587794
1.456                  0.9890542       -10.34921
1.46                      1.0009       -11.44668
1.464                   1.010802       -12.86413
1.468                   1.016794       -14.54048
1.472                   1.017453       -16.38099
1.476                   1.012108       -18.26943
1.48                    1.000974       -20.08012
1.484                  0.9851953       -21.69159
1.488                  0.9667872       -23.00399
1.492                  0.9484389       -23.96204
1.496                  0.9331481       -24.58094
1.5                    0.9236782        -24.9662
1.504                  0.9219204       -25.31258
1.508                  0.9283437       -25.87182
1.512                  0.9417484       -26.89677
1.516                  0.9594235         -28.587
1.52                   0.9776222       -31.06027
1.524                   0.992149       -34.35467
1.528                  0.9988861       -38.45028
1.532                   0.994178       -43.29536
1.536                  0.9750752       -48.82885
1.54                   0.9394721       -54.99739
1.544                  0.8861714       -61.76919
1.548                   0.814907       -69.15013
1.552                  0.7263459       -77.21087
