! TOUCHSTONE file generated by CST MICROWAVE STUDIO
! Date and time: Thu Jun  9 16:03:43 2022
! Project name: AppElm_antenne_patch_Alumina.cst
! Parameters = {L=30.5; W=41.8; e=0.035; h=1.6; lambda=0.190476; ls=99; w0=1.12; w1=0.373; ws=90; y0=14; y1=10}
! Header version: 2018
! Port assignment regex: !\s*Touchstone port\s*([0-9]+)\s*=\s*(CST MWS port|CST DS port)\s*([0-9]+|Zmin|Zmax)\s*\(\"(.*)\"\)(\s*mode\s*([0-9]+))?.*
! Touchstone port assignment:
! Touchstone port 1 = CST MWS port 1 ("")
# GHz S MA R 50
0                       0.979098              -0
0.004                  0.9802356       -10.35723
0.008                  0.9834985       -20.60425
0.012                  0.9884606        -30.6378
0.016                  0.9944848       -40.36699
0.02                    1.000815       -49.71645
0.024                   1.006684       -58.62694
0.028                   1.011404       -67.05422
0.032                   1.014459       -74.96694
0.036                   1.015549       -82.34477
0.04                    1.014628       -89.17684
0.044                   1.011898       -95.46133
0.048                   1.007782        -101.206
0.052                    1.00287       -106.4293
0.056                  0.9978382       -111.1613
0.06                   0.9933655       -115.4444
0.064                  0.9900349       -119.3324
0.068                   0.988253       -122.8872
0.072                   0.988193       -126.1745
0.076                  0.9897744       -129.2575
0.08                   0.9926833       -132.1915
0.084                  0.9964291       -135.0189
0.088                   1.000425       -137.7671
0.092                   1.004077       -140.4479
0.096                   1.006872       -143.0594
0.1                     1.008444       -145.5895
0.104                    1.00862       -148.0195
0.108                   1.007435        -150.329
0.112                   1.005121       -152.4996
0.116                   1.002072       -154.5192
0.12                   0.9987806       -156.3844
0.124                  0.9957634       -158.1028
0.128                  0.9934837       -159.6927
0.132                  0.9922781       -161.1812
0.136                  0.9923045       -162.6006
0.14                   0.9935204       -163.9842
0.144                  0.9956945       -165.3607
0.148                    0.99845       -166.7509
0.152                    1.00133       -168.1649
0.156                   1.003872       -169.6019
0.16                    1.005683       -171.0507
0.164                   1.006494       -172.4931
0.168                   1.006202       -173.9067
0.172                   1.004881       -175.2689
0.176                   1.002766       -176.5607
0.18                    1.000214       -177.7696
0.184                  0.9976514       -178.8921
0.188                  0.9954995       -179.9345
0.192                  0.9941079        179.0874
0.196                  0.9936953        178.1514
0.2                    0.9943145        177.2317
0.204                   0.995844        176.3038
0.208                   0.998013        175.3484
0.212                   1.000448        174.3544
0.216                   1.002741        173.3202
0.22                    1.004513        172.2537
0.224                    1.00548        171.1702
0.228                   1.005492        170.0901
0.232                    1.00456        169.0352
0.236                   1.002851        168.0251
0.24                    1.000658        167.0742
0.244                  0.9983548        166.1891
0.248                   0.996332        165.3675
0.252                  0.9949312        164.5977
0.256                  0.9943872        163.8614
0.26                   0.9947857         163.136
0.264                  0.9960495        162.3989
0.268                  0.9979546        161.6316
0.272                   1.000169        160.8225
0.276                   1.002312         159.969
0.28                    1.004021        159.0773
0.284                    1.00501        158.1613
0.288                   1.005117          157.24
0.292                   1.004331        156.3344
0.296                   1.002789        155.4639
0.3                     1.000759        154.6433
0.304                  0.9985905          153.88
0.308                   0.996657        153.1729
0.312                  0.9952927        152.5121
0.316                  0.9947328        151.8805
0.32                   0.9950715        151.2569
0.324                  0.9962459        150.6197
0.328                  0.9980473        149.9508
0.332                    1.00016        149.2389
0.336                   1.002216        148.4811
0.34                    1.003862        147.6833
0.344                   1.004815        146.8589
0.348                   1.004916        146.0264
0.352                   1.004149        145.2065
0.356                   1.002648        144.4184
0.36                    1.000674        143.6765
0.364                  0.9985682        142.9885
0.368                   0.996699        142.3531
0.372                  0.9953934        141.7607
0.376                  0.9948806        141.1944
0.38                   0.9952502        140.6333
0.384                  0.9964357        140.0564
0.388                  0.9982268         139.446
0.392                   1.000308        138.7912
0.396                   1.002314        138.0896
0.4                     1.003896        137.3475
0.404                    1.00478        136.5787
0.408                   1.004813        135.8018
0.412                    1.00399        135.0375
0.416                   1.002453        134.3046
0.42                    1.000469        133.6175
0.424                  0.9983845         132.983
0.428                  0.9965662        132.3993
0.432                  0.9953357        131.8561
0.436                  0.9949117         131.336
0.44                   0.9953701        130.8182
0.444                  0.9966301        130.2814
0.448                  0.9984683        129.7086
0.452                   1.000559        129.0898
0.456                   1.002535        128.4233
0.46                    1.004048        127.7165
0.464                   1.004835         126.984
0.468                   1.004757         126.245
0.472                   1.003826        125.5203
0.476                   1.002204        124.8287
0.48                    1.000172        124.1839
0.484                  0.9980876        123.5917
0.488                  0.9963196        123.0492
0.492                  0.9951829        122.5449
0.496                  0.9948827        122.0606
0.5                     0.995474        121.5748
0.504                  0.9968528        121.0663
0.508                  0.9987744        120.5187
0.512                   1.000898        119.9229
0.516                   1.002847        119.2789
0.52                    1.004279        118.5951
0.524                    1.00494        117.8874
0.528                   1.004713         117.176
0.532                   1.003634         116.482
0.536                   1.001889        115.8238
0.54                   0.9997844        115.2145
0.544                  0.9976897        114.6585
0.548                  0.9959783        114.1514
0.552                  0.9949575        113.6802
0.556                  0.9948131        113.2252
0.56                   0.9955737        112.7642
0.564                  0.9971057        112.2762
0.568                  0.9991366        111.7454
0.572                   1.001305        111.1641
0.576                   1.003226        110.5338
0.58                    1.004559         109.865
0.584                   1.005067        109.1748
0.588                   1.004657        108.4845
0.592                   1.003397        107.8156
0.596                   1.001505        107.1864
0.6                     0.999312        106.6086
0.604                  0.9972064        106.0853
0.608                  0.9955648          105.61
0.612                   0.994684        105.1677
0.616                  0.9947265        104.7374
0.62                   0.9956882        104.2959
0.624                  0.9973994        103.8224
0.628                  0.9995549        103.3021
0.632                   1.001771        102.7287
0.636                   1.003652         102.106
0.64                    1.004864        101.4463
0.644                    1.00519        100.7686
0.648                   1.004566        100.0953
0.652                   1.003098        99.44822
0.656                    1.00104         98.8452
0.66                   0.9987533        98.29668
0.664                  0.9966449        97.80377
0.668                  0.9950942        97.35774
0.672                  0.9943842        96.94138
0.676                  0.9946476        96.53197
0.68                    0.995842        96.10554
0.684                  0.9977556         95.6414
0.688                   1.000048        95.12593
0.692                   1.002308        94.55502
0.696                   1.004134        93.93456
0.7                     1.005199        93.27933
0.704                    1.00531        92.61022
0.708                   1.004441        91.95078
0.712                   1.002738         91.3232
0.716                   1.000498        90.74462
0.72                   0.9981149         90.2239
0.724                  0.9960152        89.75987
0.728                  0.9945786        89.34116
0.732                  0.9940694        88.94811
0.736                  0.9945855        88.55614
0.74                   0.9960394        88.14057
0.744                   0.998173        87.68106
0.748                   1.000605        87.16556
0.752                   1.002901        86.59223
0.756                   1.004649        85.96965
0.76                    1.005536        85.31511
0.764                   1.005398        84.65157
0.768                   1.004251        84.00382
0.772                   1.002291         83.3943
0.776                  0.9998591        82.83914
0.78                    0.997385        82.34532
0.784                  0.9953129          81.909
0.788                  0.9940205        81.51589
0.792                  0.9937479        81.14353
0.796                  0.9945515        80.76558
0.8                    0.9962924        80.35656
0.804                  0.9986604         79.8969
0.808                   1.001232        79.37637
0.812                   1.003546        78.79584
0.816                   1.005187        78.16688
0.82                    1.005858        77.50957
0.824                   1.005431        76.84906
0.828                   1.003972        76.21134
0.832                    1.00173        75.61889
0.836                  0.9990952        75.08668
0.84                   0.9965359        74.61936
0.844                  0.9945135        74.21004
0.848                  0.9933989        73.84105
0.852                  0.9934024        73.48704
0.856                  0.9945315         73.1197
0.86                    0.996589        72.71305
0.864                  0.9992074        72.24851
0.868                   1.001918        71.71806
0.872                   1.004234        71.12566
0.876                   1.005739         70.4862
0.88                    1.006157        69.82282
0.884                   1.005404        69.16296
0.888                     1.0036        68.53378
0.892                   1.001055        67.95761
0.896                   0.998213        67.44792
0.9                    0.9955817        67.00665
0.904                  0.9936382        66.62336
0.908                  0.9927418         66.2767
0.912                  0.9930654        65.93816
0.916                  0.9945602        65.57747
0.92                    0.996963        65.16838
0.924                  0.9998439        64.69357
0.928                   1.002687        64.14775
0.932                    1.00498        63.53839
0.936                   1.006309        62.88406
0.94                    1.006427        62.21123
0.944                   1.005299        61.54971
0.948                    1.00311        60.92781
0.952                   1.000235        60.36749
0.956                  0.9971793        59.88036
0.96                   0.9944902        59.46513
0.964                  0.9926591        59.10732
0.968                  0.9920285        58.78141
0.972                  0.9927256        58.45553
0.976                   0.994636        58.09737
0.98                   0.9974221         57.6806
0.984                   1.000585        57.18965
0.988                   1.003559        56.62239
0.992                   1.005807        55.99027
0.996                   1.006921        55.31601
1                       1.006688        54.62964
1.004                   1.005134        53.96357
1.008                   1.002513        53.34721
1.012                  0.9992773        52.80196
1.016                  0.9959971         52.3371
1.02                   0.9932622        51.94764
1.024                   0.991576        51.61446
1.028                  0.9912589        51.30739
1.032                  0.9923838        50.99081
1.036                  0.9947596        50.63048
1.04                   0.9979651        50.20015
1.044                   1.001426        49.68641
1.048                   1.004521         49.0909
1.052                   1.006691        48.42959
1.056                   1.007538        47.72979
1.06                    1.006891        47.02553
1.064                   1.004843        46.35198
1.068                   1.001733        45.73967
1.072                  0.9980971        45.20919
1.076                   0.994579        44.76707
1.08                   0.9918153        44.40388
1.084                  0.9903203        44.09509
1.088                  0.9903842        43.80524
1.092                   0.992015        43.49451
1.096                  0.9949324        43.12657
1.1                    0.9986185        42.67555
1.104                   1.002413        42.13074
1.108                   1.005635        41.49811
1.112                   1.007699        40.79891
1.116                   1.008221        40.06572
1.12                    1.007083        39.33708
1.124                   1.004454        38.65133
1.128                   1.000771        38.04023
1.132                  0.9966711        37.52344
1.136                  0.9928799         37.1042
1.14                   0.9900887        36.76782
1.144                  0.9888227        36.48342
1.148                  0.9893367        36.20931
1.152                   0.991561        35.90083
1.156                  0.9951101        35.51932
1.16                   0.9993533        35.03941
1.164                   1.003531        34.45362
1.168                   1.006891        33.77311
1.172                   1.008821        33.02518
1.176                   1.008952        32.24856
1.18                    1.007226        31.48716
1.184                   1.003907        30.78303
1.188                  0.9995461        30.16945
1.192                  0.9948973        29.66506
1.196                  0.9907894        29.26913
1.2                    0.9879786         28.9607
1.204                  0.9870035         28.7011
1.208                   0.988076        28.44095
1.212                   0.991032        28.12974
1.216                   0.995358        27.72597
1.22                    1.000286        27.20499
1.224                   1.004933        26.56317
1.228                   1.008462        25.81791
1.232                   1.010223        25.00383
1.236                   1.009865         24.1673
1.24                    1.007397        23.35874
1.244                   1.003199        22.62513
1.248                   0.997964        22.00216
1.252                  0.9925947        21.50735
1.256                  0.9880522        21.13544
1.26                   0.9851815        20.85755
1.264                  0.9845459        20.62508
1.268                  0.9863084        20.37867
1.272                  0.9901894        20.05999
1.276                  0.9955147        19.62353
1.28                     1.00134        19.04517
1.284                   1.006622        18.32589
1.288                   1.010407        17.49062
1.292                   1.011987        16.58335
1.296                   1.011022        15.65995
1.3                     1.007604         14.7798
1.304                   1.002249        13.99684
1.308                  0.9958351        13.35061
1.312                  0.9894652        12.85825
1.316                  0.9842855        12.50912
1.32                   0.9812732        12.26408
1.324                  0.9810403        12.06103
1.328                  0.9836978         11.8265
1.332                  0.9888194        11.49077
1.336                   0.995515        11.00205
1.34                    1.002597        10.33611
1.344                   1.008796        9.499454
1.348                   1.012979        8.526789
1.352                   1.014341        7.474469
1.356                   1.012534        6.411802
1.36                    1.007739        5.411245
1.364                   1.000656        4.537931
1.368                   0.992417         3.83886
1.372                  0.9844254        3.332781
1.376                  0.9781217         3.00294
1.38                    0.974715        2.795861
1.384                  0.9749306        2.628723
1.388                  0.9788383        2.405247
1.392                  0.9858153        2.036088
1.396                  0.9946553        1.457425
1.4                     1.003794        0.642436
1.404                   1.011588      -0.3960852
1.408                   1.016594         -1.6103
1.412                   1.017799       -2.926099
1.416                   1.014783       -4.253672
1.42                    1.007805       -5.498945
1.424                  0.9978011       -6.576021
1.428                  0.9862908       -7.421034
1.432                   0.975178       -8.006685
1.436                  0.9664487       -8.354483
1.44                   0.9617984       -8.539255
1.444                  0.9622609        -8.68043
1.448                  0.9679416       -8.918914
1.452                  0.9779513       -9.385787
1.456                  0.9905589       -10.17411
1.46                    1.003516       -11.32292
1.464                   1.014454       -12.81541
1.468                   1.021259       -14.58701
1.472                   1.022384        -16.5377
1.476                    1.01708       -18.54455
1.48                    1.005528       -20.47394
1.484                   0.988905       -22.19505
1.488                  0.9693278       -23.59761
1.492                  0.9496715       -24.61621
1.496                  0.9331942        -25.2594
1.5                    0.9229645       -25.63383
1.504                  0.9211612       -25.94637
1.508                   0.928448       -26.47058
1.512                  0.9436733       -27.48439
1.516                   0.964029       -29.20815
1.52                   0.9855699       -31.77197
1.524                   1.003862       -35.21888
1.528                   1.014554       -39.53019
1.532                   1.013792       -44.65555
1.536                  0.9984789        -50.5385
1.54                   0.9664127       -57.13601
1.544                  0.9163683       -64.43522
1.548                  0.8481351       -72.47378
1.552                   0.762557       -81.37479
