! TOUCHSTONE file generated by CST MICROWAVE STUDIO
! Date and time: Thu Jun  9 16:03:41 2022
! Project name: AppElm_antenne_patch_Alumina.cst
! Parameters = {L=30.5; W=41.8; e=0.035; h=1.6; lambda=0.190476; ls=90; w0=1.12; w1=0.373; ws=90; y0=14; y1=10}
! Header version: 2018
! Port assignment regex: !\s*Touchstone port\s*([0-9]+)\s*=\s*(CST MWS port|CST DS port)\s*([0-9]+|Zmin|Zmax)\s*\(\"(.*)\"\)(\s*mode\s*([0-9]+))?.*
! Touchstone port assignment:
! Touchstone port 1 = CST MWS port 1 ("")
# GHz S MA R 50
0                      0.9791946              -0
0.004                  0.9803288       -10.36371
0.008                  0.9835826       -20.61767
0.012                  0.9885319       -30.65902
0.016                  0.9945426       -40.39722
0.02                    1.000863       -49.75711
0.024                   1.006727       -58.67961
0.028                    1.01145       -67.12052
0.032                   1.014516       -75.04857
0.036                   1.015624       -82.44337
0.04                    1.014725       -89.29394
0.044                   1.012017       -95.59838
0.048                   1.007919       -101.3643
0.052                   1.003015       -106.6097
0.056                  0.9979808       -111.3645
0.06                   0.9934914       -115.6708
0.064                   0.990131       -119.5816
0.068                  0.9883091       -123.1587
0.072                  0.9882041       -126.4674
0.076                  0.9897422       -129.5709
0.08                   0.9926155       -132.5244
0.084                  0.9963392       -135.3708
0.088                    1.00033       -138.1375
0.092                   1.003996       -140.8368
0.096                   1.006821       -143.4672
0.1                     1.008436       -146.0169
0.104                   1.008661       -148.4676
0.108                   1.007524       -150.7986
0.112                   1.005249       -152.9918
0.116                   1.002223       -155.0345
0.12                   0.9989347       -156.9233
0.124                  0.9958995        -158.665
0.128                  0.9935824       -160.2776
0.132                  0.9923254       -161.7875
0.136                  0.9922941       -163.2271
0.14                   0.9934558       -164.6293
0.144                  0.9955878       -166.0232
0.148                  0.9983204         -167.43
0.152                   1.001201       -168.8603
0.156                   1.003766       -170.3136
0.16                     1.00562       -171.7794
0.164                   1.006488       -173.2399
0.168                   1.006257       -174.6729
0.172                   1.004991       -176.0558
0.176                   1.002914       -177.3693
0.18                    1.000379       -178.6005
0.184                  0.9978077       -179.7453
0.188                  0.9956215        179.1904
0.192                  0.9941751        178.1916
0.196                  0.9936963        177.2364
0.2                    0.9942486        176.2993
0.204                  0.9957223        175.3556
0.208                  0.9978557        174.3856
0.212                   1.000282        173.3776
0.216                   1.002595        172.3295
0.22                    1.004413        171.2482
0.224                   1.005444         170.149
0.228                   1.005528        169.0515
0.232                   1.004665        167.9777
0.236                   1.003009        166.9473
0.24                    1.000844        165.9753
0.244                  0.9985381        165.0688
0.248                  0.9964818        164.2262
0.252                  0.9950216        163.4366
0.256                  0.9944016        162.6823
0.26                   0.9947204        161.9408
0.264                  0.9959148        161.1896
0.268                  0.9977726        160.4098
0.272                  0.9999701        159.5891
0.276                    1.00213         158.724
0.28                    1.003888        157.8201
0.284                   1.004948        156.8906
0.288                   1.005138        155.9541
0.292                   1.004432        155.0314
0.296                   1.002955        154.1422
0.3                     1.000961        153.3018
0.304                  0.9987938        152.5183
0.308                  0.9968262        151.7914
0.312                  0.9953975        151.1121
0.316                  0.9947532        150.4639
0.32                   0.9950023         149.826
0.324                  0.9960978        149.1767
0.328                   0.997845        148.4976
0.332                  0.9999382        147.7765
0.336                   1.002013        147.0096
0.34                    1.003714         146.202
0.344                   1.004749        145.3663
0.348                   1.004945        144.5206
0.352                    1.00427        143.6853
0.356                   1.002843        142.8798
0.36                    1.000909        142.1194
0.364                  0.9988052        141.4123
0.368                  0.9968966        140.7584
0.372                  0.9955167        140.1489
0.376                  0.9949074        139.5678
0.38                   0.9951748        138.9945
0.384                  0.9962706        138.4078
0.388                  0.9980007        137.7897
0.392                    1.00006        137.1283
0.396                   1.002089        136.4203
0.4                     1.003734        135.6709
0.404                    1.00471         134.893
0.408                    1.00485        134.1048
0.412                   1.004129        133.3268
0.416                   1.002672        132.5781
0.42                    1.000732        131.8737
0.424                   0.998647        131.2215
0.428                  0.9967816        130.6207
0.432                  0.9954654        130.0621
0.436                  0.9949317        129.5292
0.44                   0.9952759        129.0014
0.444                  0.9964373        128.4574
0.448                  0.9982097        127.8797
0.452                    1.00028        127.2571
0.456                   1.002284        126.5869
0.46                     1.00387        125.8753
0.464                   1.004761        125.1359
0.468                   1.004802        124.3875
0.472                   1.003983        123.6507
0.476                   1.002446        122.9448
0.48                    1.000458         122.284
0.484                  0.9983669        121.6756
0.488                  0.9965418        121.1176
0.492                  0.9953075           120.6
0.496                  0.9948853        120.1051
0.5                    0.9953523        119.6119
0.504                  0.9966269         119.099
0.508                  0.9984831        118.5493
0.512                   1.000592        117.9526
0.516                   1.002581        117.3074
0.52                      1.0041        116.6211
0.524                   1.004881        115.9086
0.528                   1.004785        115.1895
0.532                   1.003828        114.4848
0.536                   1.002173        113.8135
0.54                     1.00011        113.1895
0.544                  0.9979997        112.6185
0.548                  0.9962187        112.0976
0.552                  0.9950853        111.6149
0.556                  0.9948049        111.1517
0.56                   0.9954307        110.6859
0.564                  0.9968529        110.1964
0.568                  0.9988192        109.6664
0.572                    1.00098        109.0869
0.576                   1.002952         108.458
0.58                    1.004386        107.7888
0.584                   1.005028        107.0957
0.588                   1.004761        106.3992
0.592                   1.003629        105.7209
0.596                   1.001826        105.0797
0.6                    0.9996675        104.4884
0.604                  0.9975344        103.9516
0.608                  0.9958075        103.4643
0.612                   0.994798        103.0127
0.616                  0.9946906        102.5767
0.62                   0.9955084        102.1334
0.624                  0.9971076        101.6613
0.628                  0.9992034        101.1447
0.632                   1.001423        100.5759
0.636                    1.00337        99.95697
0.64                      1.0047        99.29898
0.644                   1.005174        98.61992
0.648                   1.004705        97.94167
0.652                   1.003369         97.2863
0.656                   1.001398        96.67236
0.66                   0.9991362        96.11159
0.664                  0.9969857        95.60665
0.668                  0.9953323        95.15045
0.672                  0.9944763         94.7271
0.676                  0.9945769         94.3147
0.68                   0.9956204        93.88935
0.684                  0.9974231         93.4297
0.688                  0.9996637        92.92091
0.692                   1.001942         92.3572
0.696                   1.003853        91.74284
0.7                     1.005055        91.09113
0.704                   1.005331        90.42202
0.708                   1.004626        89.75872
0.712                    1.00306        89.12373
0.716                   1.000903        88.53512
0.72                    0.998534        88.00321
0.724                  0.9963762        87.52857
0.728                  0.9948188        87.10155
0.732                  0.9941472        86.70382
0.736                  0.9944887        86.31157
0.74                   0.9957873        85.89997
0.744                  0.9978132        85.44788
0.748                   1.000205        84.94174
0.752                   1.002534        84.37797
0.756                   1.004386        83.76339
0.76                    1.005427        83.11385
0.764                   1.005467         82.4514
0.768                   1.004492        81.80061
0.772                   1.002666        81.18438
0.776                   1.000307           80.62
0.78                   0.9978295        80.11611
0.784                  0.9956779        79.67075
0.788                  0.9942427         79.2714
0.792                  0.9937891          78.897
0.796                  0.9944064        78.52169
0.8                    0.9959889        78.11982
0.804                  0.9982555        77.67068
0.808                   1.000801        77.16235
0.812                   1.003169        76.59375
0.816                   1.004935        75.97469
0.82                     1.00578        75.32375
0.824                   1.005547        74.66532
0.828                   1.004267        74.02527
0.832                   1.002158        73.42676
0.836                  0.9995857        72.88612
0.84                   0.9970068        72.40985
0.844                  0.9948851        71.99306
0.848                  0.9936084        71.61995
0.852                  0.9934157        71.26649
0.856                  0.9943507        70.90475
0.86                   0.9962511        70.50827
0.864                  0.9987787        70.05708
0.868                   1.001481        69.54136
0.872                   1.003873        68.96298
0.876                   1.005525        68.33493
0.88                    1.006137        67.67899
0.884                    1.00559        67.02189
0.888                   1.003969        66.39087
0.892                   1.001551        65.80913
0.896                  0.9987586        65.29173
0.9                     0.996088        64.84263
0.904                  0.9940228        64.45357
0.908                  0.9929439        64.10505
0.912                  0.9930572        63.76977
0.916                  0.9943524        63.41766
0.92                   0.9966026        63.02173
0.924                  0.9994066        62.56307
0.928                   1.002262        62.03431
0.932                   1.004655        61.44076
0.936                   1.006154        60.79909
0.94                    1.006483        60.13444
0.944                   1.005572        59.47606
0.948                   1.003565        58.85255
0.952                   1.000808        58.28698
0.956                  0.9977816        57.79274
0.96                   0.9950279        57.37079
0.964                  0.9930476        57.00892
0.968                  0.9922094        56.68353
0.972                  0.9926781        56.36372
0.976                  0.9943799         56.0173
0.98                   0.9970149        55.61684
0.984                   1.000112        55.14493
0.988                   1.003115        54.59723
0.992                   1.005483         53.9829
0.996                   1.006787        53.32276
1                        1.00678        52.64561
1.004                   1.005448        51.98345
1.008                   1.003009        51.36616
1.012                  0.9998793        50.81645
1.016                  0.9966104        50.34567
1.02                   0.9937892        49.95118
1.024                  0.9919329        49.61622
1.028                   0.991392        49.31247
1.032                  0.9922805        49.00518
1.036                  0.9944505        48.65989
1.04                   0.9975185        48.24902
1.044                   1.000935        47.75713
1.048                   1.004088        47.18339
1.052                   1.006406        46.54148
1.056                   1.007467        45.85686
1.06                    1.007065        45.16245
1.064                   1.005248        44.49314
1.068                   1.002318        43.88019
1.072                  0.9987768         43.3457
1.076                  0.9952507        42.89849
1.08                   0.9923766        42.53165
1.084                  0.9906871        42.22312
1.088                  0.9905076        41.93918
1.092                  0.9918904        41.64076
1.096                  0.9946004        41.29103
1.1                    0.9981572        40.86254
1.104                   1.001924        40.34227
1.108                   1.005223        39.73367
1.112                   1.007458         39.0556
1.116                   1.008213        38.33886
1.12                    1.007332        37.62097
1.124                   1.004939        36.94016
1.128                   1.001432        36.32911
1.132                   0.997414        35.80914
1.136                  0.9935959          35.386
1.14                   0.9906721        35.04765
1.144                  0.9891905        34.76581
1.148                  0.9894443        34.50031
1.152                  0.9914113        34.20718
1.156                   0.994752        33.84696
1.16                   0.9988726        33.39251
1.164                   1.003034        32.83385
1.168                   1.006486        32.17952
1.172                   1.008599        31.45451
1.176                   1.008973        30.69581
1.18                    1.007507        29.94635
1.184                   1.004418        29.24836
1.188                   1.000219         28.6361
1.192                  0.9956315        28.13012
1.196                  0.9914713        27.73236
1.2                     0.988501        27.42459
1.204                  0.9872861        27.17067
1.208                  0.9880803         26.9229
1.212                  0.9907695        26.63114
1.216                  0.9948874         26.2528
1.22                   0.9997019         25.7613
1.224                    1.00435         25.1503
1.228                   1.007992        24.43455
1.232                   1.009959         23.6464
1.236                   1.009864        22.83039
1.24                    1.007676         22.0362
1.244                   1.003725        21.31092
1.248                  0.9986635        20.69134
1.252                  0.9933633        20.19697
1.256                  0.9887723        19.82523
1.26                    0.985743        19.55018
1.264                  0.9848668        19.32582
1.268                    0.98635        19.09438
1.272                  0.9899639        18.79783
1.276                  0.9950816         18.3896
1.28                    1.000794        17.84347
1.284                   1.006078        17.15778
1.288                   1.009975         16.3548
1.292                   1.011759        15.47627
1.296                   1.011056        14.57641
1.3                     1.007914        13.71377
1.304                   1.002803        12.94237
1.308                  0.9965601        12.30277
1.312                  0.9902569        11.81408
1.316                  0.9850254        11.46835
1.32                   0.9818499        11.22943
1.324                  0.9813696        11.03786
1.328                  0.9837389        10.82186
1.332                  0.9885815        10.51203
1.336                  0.9950556        10.05554
1.34                     1.00201        9.426099
1.344                   1.008192        8.627648
1.348                   1.012471        7.692332
1.352                   1.014025        6.674282
1.356                   1.012474        5.641136
1.36                    1.007959        4.664353
1.364                   1.001135        3.808864
1.368                  0.9930919         3.12236
1.372                  0.9851979        2.625237
1.376                  0.9788728        2.303261
1.38                   0.9753253        2.105985
1.384                  0.9753004        1.953525
1.388                  0.9789059        1.751734
1.392                  0.9855667        1.412105
1.396                  0.9941247        0.870276
1.4                     1.003055      0.09781992
1.404                   1.010742       -0.894631
1.408                   1.015753       -2.061509
1.412                    1.01707       -3.330791
1.416                   1.014256       -4.614441
1.42                    1.007542       -5.819784
1.424                  0.9978286       -6.861889
1.428                  0.9865958       -7.677278
1.432                  0.9757069        -8.23826
1.436                  0.9671132       -8.564958
1.44                   0.9624869       -8.729817
1.444                  0.9628556       -8.849224
1.448                  0.9683387       -9.061051
1.452                  0.9780771       -9.494099
1.456                   0.990381       -10.24033
1.46                    1.003046       -11.33881
1.464                   1.013741       -12.77358
1.468                   1.020387       -14.48136
1.472                   1.021463       -16.36355
1.476                   1.016232       -18.29886
1.48                    1.004882        -20.1555
1.484                   0.988582       -21.80492
1.488                  0.9694252       -23.13961
1.492                  0.9502407        -24.0972
1.496                  0.9342172       -24.68864
1.5                    0.9243333       -25.02104
1.504                  0.9226712       -25.29838
1.508                  0.9298119        -25.7878
1.512                  0.9445551       -26.75885
1.516                  0.9640832       -28.42377
1.52                    0.984472       -30.90646
1.524                   1.001325       -34.24564
1.528                   1.010334       -38.41906
1.532                   1.007681       -43.37231
1.536                  0.9902923       -49.04296
1.54                   0.9559786       -55.37878
1.544                  0.9035004       -62.35256
1.548                  0.8325965       -69.97969
1.552                  0.7439937       -78.34845
