! TOUCHSTONE file generated by CST MICROWAVE STUDIO
! Date and time: Thu Jun  9 16:03:40 2022
! Project name: AppElm_antenne_patch_Alumina.cst
! Parameters = {L=30.5; W=41.8; e=0.035; h=1.6; lambda=0.190476; ls=85.5; w0=1.12; w1=0.373; ws=90; y0=14; y1=10}
! Header version: 2018
! Port assignment regex: !\s*Touchstone port\s*([0-9]+)\s*=\s*(CST MWS port|CST DS port)\s*([0-9]+|Zmin|Zmax)\s*\(\"(.*)\"\)(\s*mode\s*([0-9]+))?.*
! Touchstone port assignment:
! Touchstone port 1 = CST MWS port 1 ("")
# GHz S MA R 50
0                      0.9793617              -0
0.004                  0.9804922       -10.36529
0.008                   0.983735       -20.62074
0.012                  0.9886664       -30.66339
0.016                  0.9946533        -40.4026
0.02                    1.000945       -49.76315
0.024                   1.006776       -58.68588
0.028                   1.011467       -67.12656
0.032                   1.014501       -75.05387
0.036                   1.015581       -82.44745
0.04                    1.014662       -89.29643
0.044                   1.011944         -95.599
0.048                   1.007847       -101.3629
0.052                   1.002957       -106.6065
0.056                  0.9979469       -111.3598
0.06                   0.9934903       -115.6651
0.064                  0.9901667       -119.5759
0.068                  0.9883805       -123.1537
0.072                  0.9883046       -126.4638
0.076                  0.9898603       -129.5694
0.08                   0.9927371       -132.5253
0.084                  0.9964485       -135.3738
0.088                   1.000413       -138.1424
0.092                   1.004042       -140.8428
0.096                   1.006826       -143.4736
0.1                       1.0084       -146.0227
0.104                   1.008591       -148.4719
0.108                   1.007431       -150.8009
0.112                    1.00515       -152.9917
0.116                   1.002135        -155.032
0.12                   0.9988724       -156.9188
0.124                  0.9958746       -158.6594
0.128                  0.9936003       -160.2716
0.132                  0.9923845       -161.7823
0.136                  0.9923862       -163.2235
0.14                   0.9935663        -164.628
0.144                  0.9956996       -166.0245
0.148                  0.9984159       -167.4336
0.152                   1.001265       -168.8656
0.156                    1.00379       -170.3198
0.16                    1.005599       -171.7856
0.164                   1.006427        -173.245
0.168                   1.006167       -174.6761
0.172                   1.004886       -176.0566
0.176                   1.002814       -177.3675
0.18                    1.000301       -178.5965
0.184                  0.9977654       -179.7398
0.188                  0.9956228        179.1965
0.192                  0.9942207        178.1973
0.196                  0.9937789        177.2406
0.2                    0.9943548        176.3012
0.204                   0.995834        175.3549
0.208                  0.9979544        174.3824
0.212                   1.000352        173.3725
0.216                   1.002624        172.3232
0.22                    1.004396         171.242
0.224                   1.005385        170.1437
0.228                   1.005438        169.0481
0.232                   1.004559        167.9767
0.236                   1.002905        166.9489
0.24                    1.000761        165.9792
0.244                  0.9984908        165.0744
0.248                   0.996479        164.2324
0.252                  0.9950645        163.4425
0.256                   0.994483        162.6867
0.26                   0.9948266        161.9429
0.264                  0.9960276        161.1891
0.268                  0.9978724        160.4067
0.272                    1.00004        159.5839
0.276                   1.002159        158.7177
0.28                    1.003869        157.8138
0.284                   1.004887        156.8853
0.288                   1.005045        155.9507
0.292                   1.004323        155.0305
0.296                   1.002849         154.144
0.3                     1.000877        153.3059
0.304                  0.9987468        152.5241
0.308                   0.996825        151.7978
0.312                  0.9954426         151.118
0.316                  0.9948371        150.4683
0.32                   0.9951107         149.828
0.324                  0.9962118        149.1761
0.328                  0.9979448        148.4943
0.332                   1.000006        147.7712
0.336                   1.002038        147.0032
0.34                    1.003691        146.1956
0.344                   1.004683         145.361
0.348                   1.004847        144.5173
0.352                   1.004157        143.6846
0.356                   1.002735        142.8819
0.36                    1.000825        142.1238
0.364                  0.9987609        141.4184
0.368                  0.9968996         140.765
0.372                  0.9955671        140.1549
0.376                  0.9949964        139.5721
0.38                    0.995287        138.9963
0.384                  0.9963864        138.4068
0.388                  0.9980995        137.7861
0.392                   1.000125        137.1227
0.396                   1.002108        136.4137
0.4                     1.003704        135.6645
0.404                   1.004637        134.8878
0.408                   1.004746        134.1018
0.412                   1.004013        133.3265
0.416                   1.002564        132.5806
0.42                    1.000651        131.8786
0.424                  0.9986077        131.2279
0.428                  0.9967918        130.6275
0.432                  0.9955235        130.0681
0.436                  0.9950281        129.5333
0.44                   0.9953935        129.0029
0.444                  0.9965555        128.4561
0.448                  0.9983078        127.8757
0.452                   1.000341        127.2511
0.456                   1.002297          126.58
0.46                    1.003833        125.8688
0.464                    1.00468        125.1308
0.468                   1.004692        124.3848
0.472                   1.003863        123.6509
0.476                   1.002337        122.9478
0.48                     1.00038        122.2894
0.484                  0.9983344        121.6823
0.488                  0.9965607        121.1246
0.492                  0.9953749        120.6059
0.496                  0.9949894         120.109
0.5                    0.9954752        119.6129
0.504                  0.9967468        119.0971
0.508                  0.9985788        118.5448
0.512                   1.000647        117.9462
0.516                   1.002585        117.3003
0.52                    1.004052        116.6146
0.524                    1.00479        115.9038
0.528                   1.004668        115.1872
0.532                   1.003704        114.4855
0.536                   1.002065        113.8171
0.54                    1.000036        113.1954
0.544                  0.9979751        112.6257
0.548                  0.9962476        112.1048
0.552                  0.9951631        111.6208
0.556                  0.9949182        111.1552
0.56                   0.9955595        110.6865
0.564                  0.9969745        110.1939
0.568                  0.9989118        109.6613
0.572                   1.001028        109.0801
0.576                   1.002946        108.4507
0.58                    1.004328        107.7824
0.584                   1.004927        107.0912
0.588                   1.004636        106.3975
0.592                   1.003501        105.7223
0.596                   1.001719        105.0841
0.6                    0.9996009         104.495
0.604                  0.9975205        103.9593
0.608                  0.9958493        103.4717
0.612                  0.9948888        103.0185
0.616                  0.9948149        102.5799
0.62                   0.9956444        102.1334
0.624                  0.9972312        101.6582
0.628                  0.9992931        101.1389
0.632                   1.001463        100.5686
0.636                   1.003354        99.94947
0.64                     1.00463        99.29259
0.644                   1.005063        98.61578
0.648                   1.004573        97.94058
0.652                    1.00324        97.28849
0.656                   1.001294        96.67751
0.66                   0.9990782        96.11883
0.664                  0.9969843        95.61474
0.668                  0.9953886        95.15797
0.672                  0.9945815        94.73271
0.676                  0.9947127        94.31741
0.68                   0.9957633        93.88866
0.684                   0.997548        93.42577
0.688                  0.9997485        92.91445
0.692                   1.001973        92.34939
0.696                   1.003824        91.73509
0.7                     1.004971        91.08483
0.704                   1.005208        90.41833
0.708                   1.004486        89.75833
0.712                   1.002928        89.12678
0.716                   1.000803        88.54114
0.72                   0.9984856         88.0112
0.724                  0.9963887        87.53715
0.728                  0.9948913        87.10921
0.732                  0.9942679        86.70921
0.736                  0.9946368        86.31371
0.74                   0.9959371        85.89852
0.744                  0.9979385        85.44311
0.748                   1.000284        84.93453
0.752                   1.002554        84.36966
0.756                   1.004342        83.75548
0.76                    1.005329        83.10778
0.764                   1.005332        82.44829
0.768                   1.004345        81.80109
0.772                   1.002534        81.18842
0.776                   1.000214        80.62703
0.78                    0.997794        80.12493
0.784                  0.9957082        79.67985
0.788                  0.9943349        79.27918
0.792                  0.9939284        78.90205
0.796                   0.994569        78.52317
0.8                    0.9961471        78.11746
0.804                  0.9983819        77.66494
0.808                   1.000874         77.1543
0.812                   1.003177         76.5849
0.816                   1.004877         75.9666
0.82                    1.005667        75.31795
0.824                   1.005401        74.66288
0.828                   1.004114        74.02672
0.832                   1.002027        73.43192
0.836                  0.9995022        72.89419
0.84                   0.9969879        72.41949
0.844                  0.9949367        72.00261
0.848                  0.9937237        71.62772
0.852                  0.9935763        71.27108
0.856                  0.9945298        70.90535
0.86                   0.9964185         70.5048
0.864                  0.9989059        70.05022
0.868                   1.001547        69.53237
0.872                   1.003868         68.9535
0.876                   1.005451        68.32671
0.88                    1.006009        67.67351
0.884                   1.005432         67.0202
0.888                   1.003811        66.39337
0.892                   1.001424        65.81549
0.896                  0.9986876        65.30096
0.9                    0.9960894        64.85316
0.904                     0.9941        64.46354
0.908                  0.9930864         64.1127
0.912                  0.9932427        63.77371
0.916                  0.9945503        63.41719
0.92                   0.9967804        63.01695
0.924                  0.9995349        62.55487
0.928                    1.00232        62.02422
0.932                   1.004635        61.43057
0.936                   1.006063        60.79064
0.94                    1.006339        60.12928
0.944                   1.005403        59.47518
0.948                   1.003404         58.8562
0.952                   1.000687        58.29463
0.956                   0.997728        57.80313
0.96                   0.9950552        57.38212
0.964                  0.9931562        57.01916
0.968                  0.9923846         56.6908
0.972                  0.9928929        56.36667
0.976                     0.9946        56.01536
0.98                   0.9972047        55.61034
0.984                   1.000242        55.13503
0.988                   1.003165        54.58568
0.992                   1.005448        53.97171
0.996                   1.006676         53.3139
1                       1.006618        52.64066
1.004                   1.005267        51.98329
1.008                   1.002845         51.3709
1.012                  0.9997679        50.82532
1.016                  0.9965772         50.3571
1.02                   0.9938464        49.96311
1.024                   0.992077        49.62642
1.028                  0.9916034        49.31896
1.032                  0.9925269        49.00665
1.036                   0.994693        48.65595
1.04                   0.9977186        48.24027
1.044                   1.001062          47.745
1.048                   1.004123        47.16995
1.052                   1.006349        46.52898
1.056                   1.007331        45.84741
1.06                    1.006879        45.15761
1.064                   1.005051        44.49375
1.068                   1.002149         43.8861
1.072                  0.9986739        43.35587
1.076                  0.9952393        42.91102
1.08                   0.9924667        42.54416
1.084                  0.9908705        42.23312
1.088                  0.9907586        41.94461
1.092                  0.9921708        41.64036
1.096                   0.994866        41.28461
1.1                    0.9983662        40.85102
1.104                   1.002044        40.32747
1.108                   1.005239        39.71798
1.112                   1.007372        39.04155
1.116                   1.008045        38.32868
1.12                    1.007117        37.61628
1.124                   1.004722        36.94163
1.128                   1.001258        36.33638
1.132                   0.997322        35.82078
1.136                  0.9936119        35.39968
1.14                    0.990803        35.06066
1.144                  0.9894221        34.77529
1.148                   0.989744        34.50416
1.152                  0.9917327        34.20415
1.156                  0.9950447        33.83715
1.16                   0.9990907        33.37726
1.164                   1.003145        32.81544
1.168                   1.006476         32.1607
1.172                   1.008476        31.43815
1.176                   1.008763        30.68434
1.18                    1.007253        29.94141
1.184                   1.004173        29.25044
1.188                   1.000034        28.64457
1.192                  0.9955489        28.14307
1.196                  0.9915165        27.74695
1.2                    0.9886767        27.43757
1.204                  0.9875709        27.17895
1.208                  0.9884319         26.9241
1.212                  0.9911322         26.6242
1.216                  0.9952027        26.23819
1.22                    0.999919        25.74081
1.224                   1.004435        25.12681
1.228                   1.007934        24.41133
1.232                   1.009772        23.62671
1.236                   1.009585        22.81692
1.24                    1.007357        22.03065
1.244                   1.003428        21.31359
1.248                  0.9984474        20.70117
1.252                  0.9932755        20.21147
1.256                   0.988838        19.84099
1.26                     0.98596        19.56323
1.264                  0.9852039        19.33254
1.268                  0.9867528        19.09225
1.272                  0.9903642        18.78596
1.276                    0.99541        18.36888
1.28                    1.000993        17.81637
1.284                   1.006112        17.12787
1.288                   1.009838        16.32611
1.292                   1.011472        15.45258
1.296                   1.010668        14.56075
1.3                     1.007491         13.7079
1.304                   1.002422        12.94643
1.308                    0.99629        12.31514
1.312                  0.9901523        11.83151
1.316                   0.985112        11.48639
1.32                   0.9821185        11.24317
1.324                  0.9817761        11.04296
1.328                  0.9842112        10.81548
1.332                   0.989033        10.49344
1.336                  0.9954012        10.02627
1.34                    1.002181        9.389549
1.344                   1.008152        8.588432
1.348                   1.012216        7.655456
1.352                   1.013587        6.644379
1.356                   1.011919        5.621776
1.36                    1.007374        4.657494
1.364                   1.000616        3.814429
1.368                  0.9927276        3.138035
1.372                  0.9850535        2.646594
1.376                  0.9789764        2.324325
1.38                   0.9756586        2.120292
1.384                  0.9757992        1.955478
1.388                  0.9794706        1.737884
1.392                  0.9860806        1.381933
1.396                  0.9944764       0.8262461
1.4                     1.003158      0.04478238
1.404                    1.01055      -0.9504115
1.408                   1.015268       -2.113402
1.412                    1.01634       -3.372752
1.416                   1.013372       -4.641833
1.42                    1.006623       -5.830071
1.424                  0.9970068       -6.855231
1.428                  0.9859935       -7.656929
1.432                  0.9754149       -8.210541
1.436                  0.9671689       -8.538573
1.44                   0.9628609       -8.714327
1.444                  0.9634501       -8.852937
1.448                  0.9690036        -9.08897
1.452                  0.9786372       -9.546736
1.456                  0.9906692       -10.31374
1.46                    1.002933       -11.42565
1.464                   1.013157       -12.86462
1.468                    1.01933       -14.56693
1.472                   1.020001       -16.43476
1.476                   1.014495       -18.34853
1.48                    1.003049       -20.17914
1.484                  0.9868572       -21.80172
1.488                  0.9680114       -23.11355
1.492                  0.9493007       -24.05783
1.496                  0.9338329       -24.65095
1.5                    0.9244692       -25.00336
1.504                  0.9231578       -25.31831
1.508                  0.9303625       -25.85738
1.512                  0.9448128       -26.88141
1.516                  0.9636813       -28.59392
1.52                   0.9830887       -31.11255
1.524                  0.9987172        -34.4729
1.528                   1.006351       -38.65209
1.532                   1.002265       -43.59633
1.536                  0.9834708       -49.24414
1.54                   0.9478497       -55.54384
1.544                  0.8942194       -62.46807
1.548                  0.8223573       -70.03111
1.552                  0.7330087       -78.31889
