! TOUCHSTONE file generated by CST MICROWAVE STUDIO
! Date and time: Thu Jun  9 16:03:42 2022
! Project name: AppElm_antenne_patch_Alumina.cst
! Parameters = {L=30.5; W=41.8; e=0.035; h=1.6; lambda=0.190476; ls=94.5; w0=1.12; w1=0.373; ws=90; y0=14; y1=10}
! Header version: 2018
! Port assignment regex: !\s*Touchstone port\s*([0-9]+)\s*=\s*(CST MWS port|CST DS port)\s*([0-9]+|Zmin|Zmax)\s*\(\"(.*)\"\)(\s*mode\s*([0-9]+))?.*
! Touchstone port assignment:
! Touchstone port 1 = CST MWS port 1 ("")
# GHz S MA R 50
0                       0.979307              -0
0.004                  0.9804424       -10.36941
0.008                  0.9836992       -20.62876
0.012                  0.9886519       -30.67493
0.016                  0.9946649       -40.41714
0.02                    1.000984       -49.78008
0.024                   1.006842       -58.70456
0.028                   1.011555       -67.14634
0.032                   1.014604       -75.07414
0.036                   1.015692       -82.46755
0.04                    1.014771       -89.31569
0.044                   1.012042       -95.61678
0.048                   1.007927       -101.3785
0.052                   1.003013       -106.6192
0.056                  0.9979769       -111.3689
0.06                   0.9934948       -115.6699
0.064                  0.9901493       -119.5757
0.068                  0.9883476       -123.1482
0.072                  0.9882645       -126.4528
0.076                  0.9898216       -129.5527
0.08                   0.9927078       -132.5031
0.084                  0.9964348       -135.3465
0.088                   1.000419       -138.1104
0.092                   1.004067       -140.8067
0.096                   1.006868       -143.4338
0.1                     1.008453       -145.9795
0.104                   1.008648       -148.4256
0.108                   1.007486       -150.7515
0.112                   1.005194       -152.9392
0.116                   1.002163       -154.9762
0.12                   0.9988807       -156.8592
0.124                   0.995863       -158.5956
0.128                  0.9935718       -160.2033
0.132                  0.9923443       -161.7091
0.136                  0.9923417       -163.1454
0.14                   0.9935256        -164.545
0.144                  0.9956696       -165.9367
0.148                  0.9984019       -167.3415
0.152                   1.001269       -168.7697
0.156                   1.003812       -170.2205
0.16                    1.005637       -171.6833
0.164                   1.006473         -173.14
0.168                   1.006214       -174.5685
0.172                   1.004928       -175.9465
0.176                   1.002843       -177.2547
0.18                    1.000314       -178.4806
0.184                  0.9977598       -179.6204
0.188                  0.9956007        179.3197
0.192                  0.9941864        178.3247
0.196                  0.9937391        177.3723
0.2                    0.9943169        176.4373
0.204                  0.9958053        175.4952
0.208                  0.9979403        174.5266
0.212                   1.000355        173.5201
0.216                   1.002644        172.4738
0.22                    1.004431        171.3952
0.224                   1.005428        170.2991
0.228                   1.005481        169.2057
0.232                   1.004596        168.1365
0.236                    1.00293        167.1111
0.24                    1.000769        166.1441
0.244                  0.9984801        165.2424
0.248                  0.9964516        164.4039
0.252                  0.9950254        163.6178
0.256                  0.9944394        162.8661
0.26                   0.9947865        162.1264
0.264                  0.9959985        161.3764
0.268                    0.99786        160.5975
0.272                   1.000047        159.7778
0.276                   1.002184        158.9142
0.28                     1.00391        158.0123
0.284                   1.004937        157.0856
0.288                   1.005095        156.1527
0.292                   1.004366        155.2343
0.296                   1.002878        154.3497
0.3                     1.000887        153.5139
0.304                  0.9987375        152.7348
0.308                  0.9967981        152.0118
0.312                  0.9954033        151.3356
0.316                   0.994793        150.6896
0.32                   0.9950701        150.0531
0.324                  0.9961822        149.4047
0.328                   0.997932        148.7261
0.332                   1.000013        148.0056
0.336                   1.002063        147.2398
0.34                     1.00373        146.4339
0.344                   1.004729        145.6008
0.348                   1.004892        144.7584
0.352                   1.004193        143.9271
0.356                   1.002754        143.1261
0.36                    1.000825        142.3702
0.364                  0.9987391        141.6674
0.368                  0.9968601        141.0171
0.372                  0.9955165        140.4104
0.376                   0.994943        139.8311
0.38                   0.9952401        139.2589
0.384                  0.9963536        138.6726
0.388                  0.9980868        138.0547
0.392                   1.000134        137.3936
0.396                   1.002138        136.6863
0.4                     1.003748        135.9383
0.404                   1.004688        135.1626
0.408                   1.004795        134.3776
0.412                    1.00405        133.6033
0.416                   1.002583        132.8588
0.42                    1.000648        132.1586
0.424                  0.9985831        131.5103
0.428                  0.9967493        130.9128
0.432                   0.995471        130.3567
0.436                  0.9949746        129.8252
0.44                   0.9953491         129.298
0.444                  0.9965282        128.7541
0.448                  0.9983031        128.1761
0.452                    1.00036        127.5533
0.456                   1.002337        126.8835
0.46                    1.003888         126.173
0.464                   1.004741        125.4356
0.468                   1.004747          124.69
0.472                   1.003905        123.9568
0.476                   1.002359        123.2548
0.48                    1.000377         122.598
0.484                  0.9983078        121.9931
0.488                  0.9965159        121.4381
0.492                  0.9953203        120.9224
0.496                  0.9949355        120.4286
0.5                    0.9954322        119.9355
0.504                   0.996723        119.4222
0.508                  0.9985792        118.8719
0.512                   1.000672        118.2747
0.516                   1.002631        117.6296
0.52                    1.004111        116.9442
0.524                   1.004851        116.2335
0.528                   1.004721         115.517
0.532                   1.003738        114.8157
0.536                   1.002074        114.1482
0.54                    1.000019        113.5279
0.544                  0.9979323        112.9604
0.548                  0.9961862        112.4422
0.552                  0.9950932        111.9611
0.556                  0.9948516        111.4986
0.56                   0.9955075        111.0327
0.564                  0.9969456        110.5423
0.568                  0.9989109        110.0114
0.572                   1.001054        109.4311
0.576                   1.002995        108.8021
0.58                    1.004389        108.1336
0.584                    1.00499        107.4421
0.588                   1.004689        106.7481
0.592                   1.003534        106.0731
0.596                   1.001724        105.4355
0.6                    0.9995766        104.8478
0.604                  0.9974702         104.314
0.608                  0.9957812         103.829
0.612                  0.9948145        103.3787
0.616                   0.994747        102.9429
0.62                    0.995595         102.499
0.624                  0.9972089        102.0257
0.628                  0.9993016        101.5077
0.632                   1.001501        100.9379
0.636                   1.003414        100.3185
0.64                    1.004703        99.66102
0.644                   1.005135        98.98344
0.648                    1.00463        98.30761
0.652                   1.003272        97.65535
0.656                   1.001296        97.04484
0.66                   0.9990475        96.48741
0.664                  0.9969265        95.98529
0.668                  0.9953134        95.53105
0.672                  0.9945018        95.10859
0.676                  0.9946428        94.69599
0.68                   0.9957156        94.26956
0.684                  0.9975309        93.80829
0.688                  0.9997653        93.29776
0.692                    1.00202        92.73267
0.696                   1.003893        92.11768
0.7                     1.005049        91.46631
0.704                   1.005281         90.7986
0.708                    1.00454        90.13766
0.712                   1.002951        89.50573
0.716                    1.00079        88.92049
0.72                   0.9984359        88.39181
0.724                  0.9963095        87.91982
0.728                  0.9947945        87.49454
0.732                  0.9941686        87.09741
0.736                   0.994551        86.70467
0.74                   0.9958782        86.29169
0.744                  0.9979152         85.8377
0.748                   1.000298        85.32963
0.752                   1.002602        84.76435
0.756                   1.004414        84.14903
0.76                    1.005408        83.49981
0.764                   1.005404        82.83878
0.768                   1.004394        82.19035
0.772                   1.002549        81.57715
0.776                    1.00019        81.01608
0.78                   0.9977322        80.51529
0.784                  0.9956171        80.07234
0.788                   0.994229        79.67436
0.792                  0.9938245        79.30014
0.796                  0.9944846        78.92386
0.8                    0.9960958        78.52011
0.804                   0.998372        78.06861
0.808                   1.000906        77.55794
0.812                   1.003244        76.98754
0.816                   1.004966        76.36751
0.82                    1.005762        75.71675
0.824                   1.005482        75.05964
0.828                   1.004165        74.42191
0.832                   1.002036         73.8264
0.836                  0.9994647        73.28901
0.84                   0.9969074        72.81573
0.844                  0.9948241        72.40116
0.848                   0.993596        72.02922
0.852                  0.9934535        71.67562
0.856                  0.9944309        71.31255
0.86                   0.9963584        70.91387
0.864                  0.9988926        70.46006
0.868                    1.00158        69.94179
0.872                   1.003938        69.36143
0.876                   1.005542        68.73238
0.88                    1.006101        68.07661
0.884                   1.005504        67.42091
0.888                   1.003846        66.79229
0.892                   1.001409        66.21365
0.896                  0.9986189        65.69956
0.9                    0.9959727        65.25342
0.904                  0.9939491        64.86649
0.908                  0.9929218        64.51893
0.912                   0.993087        64.18327
0.916                   0.994425        63.82956
0.92                   0.9967009        63.43113
0.924                  0.9995086         62.9696
0.928                   1.002345        62.43813
0.932                   1.004699        61.84254
0.936                   1.006146        61.19992
0.94                     1.00642        60.53558
0.944                   1.005457        59.87881
0.948                   1.003413        59.25799
0.952                   1.000639        58.69578
0.956                  0.9976203        58.20507
0.96                   0.9948973        57.78623
0.964                  0.9929663        57.42653
0.968                  0.9921876        57.10195
0.972                  0.9927152        56.78153
0.976                  0.9944658        56.43314
0.98                   0.9971307        56.02977
0.984                   1.000234        55.55457
0.988                   1.003218        55.00374
0.992                   1.005547        54.38702
0.996                   1.006796        53.72563
1                       1.006731         53.0486
1.004                   1.005347         52.3879
1.008                   1.002869         51.7732
1.012                  0.9997234        51.22678
1.016                  0.9964636        50.75941
1.02                   0.9936752        50.36786
1.024                  0.9918706        50.03479
1.028                  0.9913907        49.73151
1.032                  0.9923387        49.42316
1.036                  0.9945558        49.07544
1.04                   0.9976495         48.6612
1.044                   1.001066        48.16559
1.048                   1.004191        47.58845
1.052                   1.006461        46.94399
1.056                   1.007458        46.25814
1.06                    1.006989          45.564
1.064                   1.005112        44.89647
1.068                   1.002139         44.2865
1.072                  0.9985797        43.75578
1.076                  0.9950639        43.31245
1.08                   0.9922268        42.94895
1.084                   0.990595        42.64258
1.088                  0.9904838         42.3592
1.092                  0.9919331        42.05962
1.096                  0.9946956        41.70721
1.1                    0.9982815        41.27501
1.104                   1.002048        40.75065
1.108                   1.005318        40.13829
1.112                   1.007499        39.45743
1.116                   1.008185        38.73932
1.12                    1.007229        38.02175
1.124                   1.004771        37.34291
1.128                   1.001216         36.7352
1.132                  0.9971784        36.21947
1.136                  0.9933724        35.80075
1.14                   0.9904911        35.46624
1.144                  0.9890753        35.18685
1.148                  0.9894073        34.92209
1.152                  0.9914508        34.62774
1.156                  0.9948531        34.26462
1.16                   0.9990095        33.80612
1.164                   1.003175        33.24295
1.168                   1.006599        32.58447
1.172                   1.008658        31.85635
1.176                   1.008959        31.09606
1.18                    1.007416        30.34693
1.184                   1.004259        29.65104
1.188                   1.000014        29.04244
1.192                  0.9954118        28.54105
1.196                   0.991273        28.14796
1.2                    0.9883586        27.84413
1.204                  0.9872258        27.59256
1.208                  0.9881151        27.34498
1.212                  0.9908963        27.05106
1.216                  0.9950872        26.66857
1.22                   0.9999429        26.17155
1.224                   1.004593        25.55457
1.228                   1.008198        24.83319
1.232                   1.010093        24.04064
1.236                   1.009904        23.22211
1.24                    1.007613        22.42768
1.244                   1.003568        21.70445
1.248                  0.9984355        21.08883
1.252                  0.9931012        20.59981
1.256                  0.9885194        20.23383
1.26                    0.985542        19.96383
1.264                  0.9847517        19.74279
1.268                  0.9863399        19.51223
1.272                  0.9900588        19.21386
1.276                  0.9952625        18.80137
1.28                    1.001026        18.24927
1.284                   1.006317        17.55687
1.288                   1.010176        16.74753
1.292                   1.011881        15.86395
1.296                   1.011071        14.96117
1.3                      1.00781        14.09823
1.304                   1.002591        13.32925
1.308                  0.9962667        12.69452
1.312                  0.9899272        12.21239
1.316                  0.9847135        11.87376
1.32                   0.9816097        11.64107
1.324                  0.9812455        11.45353
1.328                  0.9837561        11.23838
1.332                  0.9887414        10.92585
1.336                  0.9953344        10.46344
1.34                    1.002363        9.825745
1.344                   1.008563        9.017978
1.348                   1.012799        8.073645
1.352                   1.014253        7.048174
1.356                   1.012563        6.010275
1.36                     1.00789        5.032165
1.364                   1.000917        4.179084
1.368                  0.9927594        3.498486
1.372                  0.9848103        3.009878
1.376                  0.9785058         2.69749
1.38                   0.9750578        2.508889
1.384                   0.975201        2.362151
1.388                  0.9790186        2.161548
1.392                  0.9859022        1.817856
1.396                   0.994658        1.266996
1.4                      1.00373       0.4816673
1.404                    1.01148      -0.5258596
1.408                   1.016466       -1.708189
1.412                   1.017674       -2.991528
1.416                   1.014682       -4.286272
1.42                    1.007746         -5.4985
1.424                  0.9978034       -6.542495
1.428                  0.9863713        -7.35466
1.432                  0.9753511       -7.908097
1.436                  0.9667234       -8.224776
1.44                   0.9621741       -8.379918
1.444                  0.9627223       -8.493067
1.448                  0.9684577       -8.704768
1.452                  0.9784744       -9.145264
1.456                  0.9910298       -9.906392
1.46                     1.00387       -11.02581
1.464                    1.01463       -12.48531
1.468                   1.021208       -14.21906
1.472                   1.022081        -16.1259
1.476                   1.016528       -18.08201
1.48                    1.004774       -19.95322
1.484                  0.9880384       -21.60884
1.488                  0.9684828       -22.93987
1.492                  0.9490155       -23.88387
1.496                  0.9329034       -24.45416
1.5                    0.9231846       -24.76329
1.504                  0.9219611       -25.02316
1.508                  0.9297823       -25.50921
1.512                  0.9453699       -26.49681
1.516                  0.9658038       -28.20018
1.52                   0.9870594       -30.74201
1.524                    1.00466       -34.15846
1.528                   1.014241       -38.42511
1.532                   1.011961       -43.48679
1.536                  0.9947425       -49.28237
1.54                   0.9604144       -55.76334
1.544                  0.9077786       -62.90956
1.548                  0.8366406       -70.74847
1.552                  0.7478311       -79.38886
