! TOUCHSTONE file generated by CST MICROWAVE STUDIO
! Date and time: Thu Jun  9 16:03:37 2022
! Project name: AppElm_antenne_patch_Alumina.cst
! Parameters = {L=30.5; W=41.8; e=0.035; h=1.6; lambda=0.190476; ls=72; w0=1.12; w1=0.373; ws=90; y0=14; y1=10}
! Header version: 2018
! Port assignment regex: !\s*Touchstone port\s*([0-9]+)\s*=\s*(CST MWS port|CST DS port)\s*([0-9]+|Zmin|Zmax)\s*\(\"(.*)\"\)(\s*mode\s*([0-9]+))?.*
! Touchstone port assignment:
! Touchstone port 1 = CST MWS port 1 ("")
# GHz S MA R 50
0                      0.9797722              -0
0.004                  0.9808948       -10.36773
0.008                  0.9841142       -20.62546
0.012                  0.9890077       -30.67007
0.016                  0.9949436       -40.41077
0.02                    1.001174        -49.7722
0.024                   1.006937       -58.69503
0.028                   1.011556       -67.13498
0.032                   1.014522       -75.06066
0.036                   1.015543       -82.45173
0.04                    1.014578       -89.29744
0.044                   1.011834        -95.5962
0.048                   1.007735       -101.3561
0.052                   1.002867       -106.5959
0.056                  0.9979011       -111.3462
0.06                   0.9935066       -115.6497
0.064                  0.9902541       -119.5601
0.068                  0.9885382       -123.1392
0.072                  0.9885207       -126.4523
0.076                  0.9901133        -129.562
0.08                   0.9929989       -132.5226
0.084                  0.9966889       -135.3758
0.088                   1.000603       -138.1482
0.092                   1.004161       -140.8513
0.096                   1.006861        -143.483
0.1                     1.008352       -146.0312
0.104                   1.008471       -148.4778
0.108                   1.007262        -150.803
0.112                   1.004963       -152.9891
0.116                   1.001962       -155.0248
0.12                   0.9987462       -156.9075
0.124                  0.9958194       -158.6453
0.128                  0.9936297       -160.2567
0.132                  0.9924979       -161.7686
0.136                  0.9925693       -163.2129
0.14                   0.9937927       -164.6219
0.144                  0.9959355       -166.0235
0.148                  0.9986257       -167.4375
0.152                   1.001417       -168.8735
0.156                   1.003862         -170.33
0.16                    1.005582       -171.7961
0.164                   1.006325       -173.2539
0.168                   1.005999       -174.6815
0.172                   1.004682       -176.0574
0.176                   1.002608       -177.3633
0.18                     1.00013       -178.5875
0.184                  0.9976589       -179.7273
0.188                  0.9956011        179.2108
0.192                  0.9942891        178.2112
0.196                  0.9939275        177.2521
0.2                    0.9945594        176.3086
0.204                  0.9960613        175.3572
0.208                  0.9981666        174.3795
0.212                   1.000514        173.3652
0.216                   1.002709        172.3131
0.22                    1.004392         171.231
0.224                   1.005292         170.134
0.228                   1.005273        169.0417
0.232                    1.00435        167.9749
0.236                    1.00269        166.9523
0.24                    1.000577        165.9876
0.244                  0.9983703        165.0867
0.248                  0.9964448        164.2468
0.252                  0.9951247        163.4568
0.256                  0.9946291        162.6986
0.26                   0.9950352        161.9508
0.264                  0.9962643        161.1917
0.268                  0.9980982        160.4038
0.272                   1.000217        159.5763
0.276                   1.002258         158.707
0.28                    1.003876        157.8019
0.284                   1.004801        156.8745
0.288                   1.004881        155.9431
0.292                   1.004111        155.0275
0.296                   1.002626        154.1464
0.3                     1.000683        153.3135
0.304                   0.998616        152.5358
0.308                  0.9967816        151.8119
0.312                  0.9954954        151.1321
0.316                  0.9949781        150.4801
0.32                   0.9953162        149.8356
0.324                  0.9964464        149.1783
0.328                  0.9981681         148.491
0.332                    1.00018        147.7631
0.336                   1.002131        146.9919
0.34                    1.003688        146.1832
0.344                   1.004583        145.3498
0.348                   1.004668        144.5094
0.352                   1.003929        143.6816
0.356                   1.002496        142.8846
0.36                    1.000618         142.132
0.364                  0.9986205        141.4309
0.368                  0.9968519        140.7799
0.372                  0.9956207        140.1698
0.376                  0.9951428        139.5846
0.38                   0.9955013        139.0044
0.384                  0.9966315        138.4094
0.388                  0.9983328        137.7828
0.392                   1.000306        137.1144
0.396                   1.002206        136.4021
0.4                     1.003702        135.6517
0.404                   1.004536        134.8764
0.408                   1.004563        134.0939
0.412                   1.003781        133.3237
0.416                   1.002323        132.5837
0.42                    1.000445        131.8872
0.424                  0.9984732        131.2409
0.428                  0.9967541        130.6428
0.432                   0.995591        130.0832
0.436                  0.9951905        129.5458
0.44                   0.9956238        129.0106
0.444                   0.996814        128.4578
0.448                  0.9985501        127.8714
0.452                   1.000525        127.2417
0.456                   1.002391        126.5673
0.46                    1.003821        125.8551
0.464                   1.004564        125.1188
0.468                   1.004492        124.3766
0.472                   1.003614        123.6482
0.476                   1.002083        122.9513
0.48                    1.000165        122.2987
0.484                  0.9981969        121.6961
0.488                  0.9965267        121.1407
0.492                  0.9954517        120.6216
0.496                  0.9951648        120.1217
0.5                     0.995719        119.6206
0.504                  0.9970167        119.0985
0.508                  0.9988279        118.5398
0.512                   1.000832         117.936
0.516                   1.002674        117.2868
0.52                    1.004029        116.6004
0.524                   1.004659        115.8915
0.528                   1.004452        115.1792
0.532                    1.00344        114.4833
0.536                   1.001801        113.8215
0.54                   0.9998183        113.2058
0.544                  0.9978432        112.6406
0.548                  0.9962264        112.1218
0.552                  0.9952582         111.637
0.556                  0.9951142         111.168
0.56                   0.9958228        110.6937
0.564                  0.9972594        110.1943
0.568                  0.9991684        109.6551
0.572                   1.001211        109.0685
0.576                   1.003023         108.436
0.58                    1.004285        107.7673
0.584                   1.004772        107.0785
0.588                   1.004394        106.3896
0.592                   1.003215        105.7209
0.596                   1.001437        105.0897
0.6                    0.9993742         104.507
0.604                  0.9973896        103.9758
0.608                  0.9958388        103.4901
0.612                   0.995002        103.0358
0.616                   0.995033        102.5932
0.62                   0.9959298        102.1406
0.624                  0.9975342        101.6582
0.628                  0.9995607         101.132
0.632                   1.001648        100.5563
0.636                   1.003425        99.93411
0.64                    1.004575        99.27717
0.644                   1.004892        98.60327
0.648                   1.004315        97.93346
0.652                   1.002942        97.28836
0.656                   1.001011        96.68477
0.66                   0.9988616        96.13257
0.664                   0.996876        95.63289
0.668                  0.9954115         95.1776
0.672                  0.9947352        94.75058
0.676                  0.9949737        94.33048
0.68                   0.9960886        93.89482
0.684                  0.9978824        93.42407
0.688                   1.000035        92.90539
0.692                   1.002163        92.33474
0.696                   1.003886        91.71757
0.7                     1.004895        91.06769
0.704                   1.005008        90.40472
0.708                   1.004198        89.75085
0.712                   1.002603        89.12701
0.716                     1.0005        88.54931
0.72                   0.9982594        88.02618
0.724                  0.9962822        87.55656
0.728                  0.9949258        87.12981
0.732                  0.9944397        86.72748
0.736                  0.9949173        86.32657
0.74                   0.9962775        85.90379
0.744                  0.9982789        85.44008
0.748                   1.000564        84.92396
0.752                   1.002723        84.35361
0.756                   1.004371        83.73706
0.76                     1.00521        83.09048
0.764                   1.005087        82.43549
0.768                   1.004015         81.7954
0.772                   1.002177        81.19134
0.776                  0.9998936        80.63853
0.78                     0.99757        80.14354
0.784                  0.9956232        79.70274
0.788                  0.9944084        79.30271
0.792                  0.9941515        78.92241
0.796                  0.9949061        78.53703
0.8                     0.996542        78.12273
0.804                  0.9987681        77.66104
0.808                   1.001186        77.14228
0.812                   1.003363        76.56726
0.816                   1.004908        75.94681
0.82                    1.005541        75.29984
0.824                   1.005141           74.65
0.828                   1.003772        74.02178
0.832                   1.001666         73.4363
0.836                  0.9991921        72.90763
0.84                   0.9967906        72.44008
0.844                  0.9948949        72.02709
0.848                  0.9938529        71.65203
0.852                  0.9938613        71.29109
0.856                  0.9949266        70.91767
0.86                   0.9968625        70.50742
0.864                  0.9993235        70.04286
0.868                   1.001868        69.51654
0.872                    1.00404        68.93219
0.876                   1.005446        68.30389
0.88                     1.00583        67.65343
0.884                   1.005113        67.00668
0.888                   1.003411        66.38917
0.892                   1.001016        65.82186
0.896                  0.9983486        65.31727
0.9                    0.9958854        64.87704
0.904                  0.9940739        64.49117
0.908                  0.9932503        64.13947
0.912                  0.9935741        63.79515
0.916                   0.994996        63.42976
0.92                   0.9972666         63.0187
0.924                  0.9999798        62.54585
0.928                   1.002649        62.00641
0.932                   1.004795        61.40751
0.936                   1.006028        60.76682
0.94                    1.006119        60.10933
0.944                   1.005041        59.46317
0.948                    1.00297         58.8549
0.952                   1.000264        58.30501
0.956                  0.9973995        57.82413
0.96                   0.9948913        57.41072
0.964                  0.9931988        57.05085
0.968                  0.9926394        56.72037
0.972                  0.9933274        56.38922
0.976                  0.9951489        56.02718
0.98                   0.9977819        55.60968
0.984                   1.000755         55.1224
0.988                   1.003534        54.56367
0.992                   1.005618        53.94458
0.996                   1.006625        53.28678
1                       1.006365        52.61871
1.004                   1.004866        51.97089
1.008                   1.002377        51.37085
1.012                  0.9993281        50.83832
1.016                  0.9962594        50.38157
1.02                   0.9937244        49.99528
1.024                   0.992191        49.66099
1.028                   0.991952        49.35001
1.032                  0.9930656        49.02882
1.036                  0.9953428        48.66542
1.04                   0.9983793        48.23557
1.044                   1.001631        47.72718
1.048                   1.004513        47.14238
1.052                   1.006505        46.49671
1.056                   1.007238        45.81636
1.06                    1.006565        45.13352
1.064                   1.004584         44.4813
1.068                   1.001628        43.88808
1.072                  0.9982074         43.3726
1.076                  0.9949317        42.94017
1.08                   0.9923962          42.581
1.084                  0.9910746        42.27134
1.088                  0.9912258        41.97742
1.092                  0.9928412        41.66184
1.096                  0.9956422        41.29086
1.1                    0.9991308         40.8409
1.104                   1.002681        40.30277
1.108                   1.005654        39.68301
1.112                   1.007507        39.00242
1.116                   1.007894        38.29225
1.12                    1.006721        37.58904
1.124                   1.004168        36.92868
1.128                   1.000662        36.34045
1.132                  0.9968131        35.84179
1.136                  0.9933066        35.43441
1.14                   0.9907854        35.10317
1.144                  0.9897263        34.81802
1.148                  0.9903458        34.53922
1.152                  0.9925538        34.22503
1.156                  0.9959655        33.83983
1.16                   0.9999731        33.36112
1.164                   1.003857        32.78312
1.168                   1.006914        32.11778
1.172                   1.008585        31.39198
1.176                   1.008546         30.6429
1.18                     1.00677        29.91209
1.184                   1.003533        29.23877
1.188                  0.9993799        28.65323
1.192                  0.9950324        28.17119
1.196                  0.9912713        27.79001
1.2                    0.9887932          27.488
1.204                  0.9880773        27.22742
1.208                  0.9892864        26.96129
1.212                  0.9922297        26.64264
1.216                   0.996393        26.23376
1.22                    1.001035        25.71347
1.224                   1.005321        25.08047
1.228                   1.008474        24.35308
1.232                    1.00991        23.56559
1.236                   1.009335         22.7625
1.24                      1.0068        21.99145
1.244                   1.002703        21.29589
1.248                  0.9977289        20.70756
1.252                  0.9927442        20.24027
1.256                  0.9886486        19.88603
1.26                   0.9862101        19.61488
1.264                  0.9859128        19.37929
1.268                  0.9878542        19.12301
1.272                  0.9917168        18.79231
1.276                  0.9968231        18.34678
1.28                    1.002261        17.76681
1.284                   1.007051        17.05658
1.288                   1.010317        16.24242
1.292                   1.011436        15.36796
1.296                   1.010149        14.48703
1.3                     1.006605        13.65547
1.304                   1.001352        12.92258
1.308                  0.9952616        12.32258
1.312                  0.9893939        11.86742
1.316                  0.9848148        11.54237
1.32                   0.9823975        11.30637
1.324                  0.9826437        11.09842
1.328                  0.9855709        10.84917
1.332                  0.9906952        10.49516
1.336                  0.9971181        9.991636
1.34                    1.003692        9.320662
1.344                    1.00923        8.493242
1.348                   1.012706        7.546257
1.352                   1.013434        6.535837
1.356                   1.011177        5.528793
1.36                    1.006205        4.593001
1.364                  0.9992668        3.787221
1.368                  0.9914967        3.150819
1.372                  0.9842405        2.694652
1.376                   0.978826        2.395394
1.38                   0.9763089        2.196158
1.384                  0.9772467        2.015335
1.388                  0.9815629        1.762695
1.392                  0.9885415        1.358475
1.396                  0.9969557        0.749637
1.4                     1.005296     -0.08099129
1.404                   1.012037       -1.113658
1.408                   1.015894        -2.29689
1.412                   1.016035       -3.556277
1.416                   1.012213       -4.804889
1.42                    1.004835       -5.954629
1.424                  0.9949367       -6.928649
1.428                  0.9840639       -7.674883
1.432                  0.9740558       -8.179404
1.436                  0.9667363       -8.476142
1.44                   0.9635562       -8.647814
1.444                  0.9652641       -8.813837
1.448                  0.9717023       -9.106066
1.452                  0.9817998       -9.639642
1.456                  0.9937653       -10.48919
1.46                    1.005417       -11.67717
1.464                   1.014557       -13.17463
1.468                   1.019322       -14.90999
1.472                   1.018456       -16.78089
1.476                    1.01151       -18.66641
1.48                   0.9989514       -20.43942
1.484                  0.9821847       -21.98116
1.488                  0.9634603       -23.20041
1.492                   0.945633       -24.05805
1.496                  0.9317392       -24.59314
1.5                    0.9244058       -24.93886
1.504                  0.9252019       -25.31319
1.508                  0.9341435       -25.97763
1.512                  0.9495541       -27.17765
1.516                  0.9683338       -29.09298
1.52                   0.9864972         -31.818
1.524                   0.999769       -35.37139
1.528                   1.004081       -39.72095
1.532                  0.9959181       -44.80975
1.536                  0.9725326       -50.57734
1.54                    0.932057        -56.9757
1.544                  0.8735567       -63.98339
1.548                   0.797045       -71.62406
1.552                  0.7034878       -80.00079
