! TOUCHSTONE file generated by CST MICROWAVE STUDIO
! Date and time: Thu Jun  9 16:03:46 2022
! Project name: AppElm_antenne_patch_Alumina.cst
! Parameters = {L=30.5; W=41.8; e=0.035; h=1.6; lambda=0.190476; ls=112.5; w0=1.12; w1=0.373; ws=90; y0=14; y1=10}
! Header version: 2018
! Port assignment regex: !\s*Touchstone port\s*([0-9]+)\s*=\s*(CST MWS port|CST DS port)\s*([0-9]+|Zmin|Zmax)\s*\(\"(.*)\"\)(\s*mode\s*([0-9]+))?.*
! Touchstone port assignment:
! Touchstone port 1 = CST MWS port 1 ("")
# GHz S MA R 50
0                       0.979091              -0
0.004                  0.9802337       -10.35471
0.008                  0.9835115       -20.59936
0.012                  0.9884976       -30.63085
0.016                  0.9945535       -40.35845
0.02                    1.000922       -49.70689
0.024                   1.006831       -58.61702
0.028                   1.011592       -67.04466
0.032                   1.014682       -74.95852
0.036                     1.0158       -82.33813
0.04                    1.014893        -89.1725
0.044                   1.012161       -95.45964
0.048                   1.008024        -101.207
0.052                   1.003073       -106.4325
0.056                   0.997986       -111.1661
0.06                   0.9934479       -115.4497
0.064                  0.9900485       -119.3368
0.068                  0.9882034       -122.8893
0.072                  0.9880943       -126.1732
0.076                  0.9896479       -129.2519
0.08                   0.9925539       -132.1814
0.084                  0.9963223       -135.0047
0.088                   1.000362       -137.7495
0.092                   1.004073       -140.4281
0.096                   1.006934       -143.0389
0.1                     1.008567       -145.5697
0.104                    1.00879       -148.0017
0.108                   1.007631       -150.3141
0.112                   1.005317        -152.488
0.116                   1.002241       -154.5105
0.12                   0.9988986        -156.378
0.124                  0.9958155       -158.0973
0.128                   0.993465       -159.6865
0.132                  0.9921948       -161.1726
0.136                  0.9921737       -162.5884
0.14                   0.9933675       -163.9674
0.144                  0.9955481       -165.3393
0.148                  0.9983377       -166.7254
0.152                   1.001273       -168.1365
0.156                   1.003883        -169.572
0.16                    1.005761        -171.021
0.164                    1.00663        -172.465
0.168                   1.006374       -173.8815
0.172                   1.005062       -175.2471
0.176                   1.002927       -176.5422
0.18                    1.000329       -177.7536
0.184                  0.9977017       -178.8774
0.188                  0.9954775       -179.9194
0.192                  0.9940183        179.1046
0.196                  0.9935548        178.1722
0.2                    0.9941486         177.257
0.204                  0.9956832        176.3339
0.208                  0.9978864        175.3828
0.212                   1.000379        174.3919
0.216                   1.002743        173.3593
0.22                    1.004587        172.2925
0.224                   1.005615        171.2072
0.228                   1.005666        170.1242
0.232                   1.004745        169.0656
0.236                   1.003016         168.052
0.24                    1.000776        167.0983
0.244                  0.9984059        166.2119
0.248                  0.9963084        165.3905
0.252                  0.9948386        164.6229
0.256                  0.9942427        163.8902
0.26                   0.9946158        163.1693
0.264                  0.9958859         162.437
0.268                  0.9978269         161.674
0.272                   1.000101        160.8679
0.276                   1.002316        160.0158
0.28                    1.004097        159.1237
0.284                   1.005146        158.2056
0.288                   1.005289        157.2812
0.292                   1.004509        156.3718
0.296                   1.002943        155.4978
0.3                     1.000861        154.6745
0.304                  0.9986227        153.9101
0.308                  0.9966135        153.2036
0.312                  0.9951811        152.5452
0.316                  0.9945731        151.9175
0.32                   0.9948922        151.2986
0.324                  0.9960796        150.6662
0.328                  0.9979242        150.0015
0.332                   1.000102        149.2923
0.336                   1.002235        148.5355
0.34                    1.003954        147.7369
0.344                   1.004966          146.91
0.348                   1.005099         146.074
0.352                   1.004333        145.2501
0.356                   1.002801        144.4583
0.36                    1.000769        143.7139
0.364                  0.9985887        143.0249
0.368                  0.9966414        142.3905
0.372                  0.9952685        141.8008
0.376                  0.9947109        141.2386
0.38                   0.9950664        140.6825
0.384                  0.9962718        140.1103
0.388                  0.9981127        139.5039
0.392                   1.000264        138.8515
0.396                    1.00235        138.1505
0.4                     1.004005         137.407
0.404                   1.004943        136.6353
0.408                   1.005002        135.8545
0.412                   1.004172         135.086
0.416                   1.002595        134.3496
0.42                    1.000547        133.6601
0.424                  0.9983833         133.025
0.428                  0.9964861        132.4427
0.432                  0.9951903        131.9026
0.436                  0.9947271        131.3871
0.44                     0.99518        130.8743
0.444                  0.9964686        130.3423
0.448                  0.9983645        129.7732
0.452                   1.000532        129.1563
0.456                   1.002589        128.4898
0.46                    1.004174        127.7812
0.464                   1.005011        127.0452
0.468                   1.004951         126.302
0.472                   1.004003         125.573
0.476                   1.002332         124.878
0.48                    1.000228        124.2311
0.484                  0.9980601        123.6387
0.488                  0.9962127        123.0982
0.492                   0.995015        122.5976
0.496                  0.9946834        122.1182
0.5                     0.995279        121.6376
0.504                  0.9966976        121.1338
0.508                  0.9986869        120.5895
0.512                   1.000894        119.9952
0.516                   1.002928        119.3505
0.52                     1.00443        118.6641
0.524                   1.005136        117.9525
0.528                   1.004918        117.2365
0.532                   1.003812         116.538
0.536                    1.00201        115.8765
0.54                   0.9998242        115.2654
0.544                  0.9976419        114.7097
0.548                  0.9958509        114.2051
0.552                  0.9947735         113.738
0.556                  0.9946058        113.2882
0.56                   0.9953809        112.8325
0.564                  0.9969624        112.3489
0.568                   0.999069         111.821
0.572                   1.001325        111.2405
0.576                   1.003331        110.6089
0.58                     1.00473        109.9368
0.584                   1.005273        109.2422
0.588                   1.004861         108.547
0.592                   1.003562        107.8737
0.596                     1.0016        107.2413
0.6                    0.9993178        106.6623
0.604                  0.9971203        106.1399
0.608                  0.9954004        105.6678
0.612                  0.9944696        105.2303
0.616                  0.9944991        104.8055
0.62                   0.9954877        104.3695
0.624                  0.9972607        103.9002
0.628                   0.999502        103.3823
0.632                   1.001812        102.8091
0.636                   1.003778        102.1843
0.64                    1.005051        101.5207
0.644                   1.005403         100.838
0.648                   1.004765        100.1595
0.652                   1.003245        99.50807
0.656                   1.001105        98.90224
0.66                   0.9987222        98.35308
0.664                  0.9965198        97.86192
0.668                  0.9948943        97.41978
0.672                  0.9941427        97.00879
0.676                  0.9944059         96.6053
0.68                   0.9956414        96.18428
0.684                  0.9976305        95.72406
0.688                   1.000018        95.21039
0.692                   1.002378        94.63882
0.696                   1.004289        94.01547
0.7                     1.005409        93.35561
0.704                   1.005535        92.68098
0.708                   1.004639        92.01611
0.712                   1.002871        91.38424
0.716                   1.000539        90.80325
0.72                   0.9980532        90.28254
0.724                  0.9958587        89.82097
0.728                  0.9943528        89.40684
0.732                  0.9938126        89.01965
0.736                  0.9943425         88.6338
0.74                   0.9958524        88.22343
0.744                  0.9980739        87.76731
0.748                    1.00061        87.25275
0.752                   1.003007        86.67779
0.756                   1.004835        86.05131
0.76                    1.005765        85.39132
0.764                   1.005627        84.72176
0.768                   1.004435        84.06846
0.772                   1.002392        83.45485
0.776                  0.9998532        82.89791
0.78                   0.9972673        82.40498
0.784                  0.9950984        81.97214
0.788                  0.9937415        81.58454
0.792                  0.9934489        81.21881
0.796                  0.9942813        80.84732
0.8                    0.9960939        80.44349
0.804                  0.9985636         79.9868
0.808                   1.001248        79.46651
0.812                   1.003666         78.8835
0.816                   1.005382        78.24983
0.82                    1.006087        77.58642
0.824                   1.005645        76.91955
0.828                   1.004125        76.27634
0.832                   1.001785        75.68028
0.836                   0.999033        75.14706
0.84                   0.9963581        74.68165
0.844                  0.9942425        74.27688
0.848                  0.9930749        73.91434
0.852                  0.9930755        73.56754
0.856                  0.9942533        73.20682
0.86                   0.9964018        72.80505
0.864                  0.9991377        72.34272
0.868                    1.00197        71.81147
0.872                   1.004391        71.21548
0.876                   1.005965        70.57028
0.88                    1.006403        69.90004
0.884                   1.005617        69.23343
0.888                   1.003733        68.59885
0.892                   1.001073        68.01962
0.896                  0.9981027        67.50987
0.9                    0.9953524        67.07167
0.904                  0.9933215         66.6941
0.908                  0.9923861        66.35487
0.912                  0.9927274        66.02412
0.916                  0.9942937        65.67012
0.92                   0.9968094        65.26538
0.924                   0.999825        64.79181
0.928                   1.002799        64.24398
0.932                   1.005197        63.62967
0.936                   1.006586         62.9684
0.94                    1.006707        62.28781
0.944                   1.005526        61.61909
0.948                   1.003234        60.99185
0.952                   1.000225        60.42904
0.956                  0.9970277        59.94283
0.96                   0.9942154        59.53186
0.964                  0.9923015        59.18099
0.968                  0.9916453        58.86348
0.972                  0.9923793        58.54587
0.976                  0.9943825        58.19437
0.98                   0.9973003        57.78138
0.984                   1.000611        57.29066
0.988                   1.003719        56.72015
0.992                   1.006066        56.08187
0.996                   1.007224        55.39968
1                       1.006974        54.70501
1.004                    1.00534        54.03177
1.008                   1.002592        53.41069
1.012                  0.9992044        52.86413
1.016                  0.9957733         52.4018
1.02                   0.9929177         52.0184
1.024                  0.9911639        51.69383
1.028                  0.9908464         51.3964
1.032                    0.99204        51.08871
1.036                  0.9945423        50.73487
1.04                   0.9979099        50.30745
1.044                    1.00154        49.79256
1.048                   1.004781        49.19208
1.052                   1.007048         48.5229
1.056                   1.007926        47.81369
1.06                     1.00724        47.10013
1.064                   1.005086        46.41902
1.068                   1.001824        45.80227
1.072                  0.9980156        45.27142
1.076                  0.9943363        44.83319
1.08                   0.9914536         44.4776
1.084                  0.9899047        44.17884
1.088                  0.9899926        43.89956
1.092                  0.9917224        43.59797
1.096                   0.994797        43.23599
1.1                    0.9986703        42.78666
1.104                   1.002649        42.23896
1.108                   1.006019        41.59944
1.112                   1.008169        40.89053
1.116                     1.0087        40.14651
1.12                     1.00749        39.40777
1.124                   1.004721        38.71441
1.128                   1.000855        38.09963
1.132                  0.9965593        37.58393
1.136                  0.9925969         37.1705
1.14                   0.9896921        36.84377
1.144                  0.9883933         36.5712
1.148                  0.9889641        36.30873
1.152                  0.9913262        36.00951
1.156                  0.9950699        35.63311
1.16                   0.9995296        35.15319
1.164                   1.003907        34.56228
1.168                   1.007413        33.87237
1.172                    1.00941         33.1125
1.176                   1.009516        32.32334
1.18                    1.007674        31.55093
1.184                   1.004166         30.8393
1.188                   0.999577        30.22327
1.192                  0.9946987         29.7221
1.196                  0.9904027        29.33483
1.2                    0.9874817        29.03911
1.204                  0.9864977        28.79407
1.208                  0.9876671        28.54756
1.212                  0.9908101        28.24648
1.216                  0.9953806        27.84746
1.22                    1.000567        27.32506
1.224                   1.005441          26.676
1.228                   1.009126        25.91894
1.232                   1.010944        25.09069
1.236                   1.010534        24.23989
1.24                    1.007914        23.41956
1.244                   1.003489        22.67873
1.248                  0.9979919        22.05467
1.252                   0.992374        21.56538
1.256                  0.9876453        21.20499
1.26                   0.9846903        20.94265
1.264                  0.9840941        20.72687
1.268                  0.9860176        20.49498
1.272                  0.9901559        20.18572
1.276                    0.99579         19.7517
1.28                    1.001921         19.1683
1.284                   1.007453        18.43735
1.288                   1.011387        17.58574
1.292                   1.012989        16.66011
1.296                   1.011914        15.71928
1.3                     1.008267        14.82555
1.304                   1.002602         14.0353
1.308                  0.9958499         13.3897
1.312                  0.9891746        12.90627
1.316                  0.9837818        12.57321
1.32                   0.9806945        12.34862
1.324                  0.9805459         12.1665
1.328                  0.9834375         11.9492
1.332                  0.9889039        11.62348
1.336                  0.9959947        11.13558
1.34                    1.003453        10.46109
1.344                   1.009942        9.608036
1.348                   1.014279        8.613826
1.352                   1.015631        7.538242
1.356                   1.013648        6.454264
1.36                    1.008535         5.43787
1.364                   1.001043        4.557149
1.368                   0.992373        3.860997
1.372                  0.9840079        3.368438
1.376                   0.977463        3.060932
1.38                   0.9740033        2.881103
1.384                  0.9743753        2.740767
1.388                   0.978629        2.538068
1.392                   0.986083         2.17933
1.396                  0.9954466        1.598654
1.4                     1.005063       0.7696395
1.404                   1.013205      -0.2924208
1.408                   1.018369       -1.535822
1.412                   1.019512       -2.881887
1.416                   1.016216       -4.236044
1.42                    1.008781       -5.499659
1.424                  0.9982146       -6.582941
1.428                  0.9861354        -7.41947
1.432                  0.9745605       -7.981636
1.436                  0.9655845       -8.293746
1.44                   0.9609825       -8.436768
1.444                  0.9618157       -8.538652
1.448                  0.9681533        -8.74899
1.452                  0.9790111       -9.205237
1.456                  0.9925271       -10.00295
1.46                    1.006314        -11.1798
1.464                   1.017879       -12.71477
1.468                    1.02502        -14.5376
1.472                   1.026145       -16.54201
1.476                   1.020501       -18.59869
1.48                    1.008319       -20.56767
1.484                   0.990869       -22.31203
1.488                  0.9704092       -23.71632
1.492                  0.9499918       -24.71241
1.496                  0.9330675       -25.31081
1.5                     0.922872        -25.6269
1.504                  0.9216769       -25.88261
1.508                  0.9301251       -26.36893
1.512                   0.946932       -27.37742
1.516                  0.9690829       -29.13427
1.52                   0.9924102       -31.76804
1.524                   1.012285       -35.31621
1.528                   1.024216       -39.75396
1.532                    1.02426        -45.0266
1.536                   1.009285        -51.0761
1.54                   0.9771002       -57.86105
1.544                  0.9265378       -65.37403
1.548                  0.8574893       -73.66327
1.552                  0.7709593       -82.87037
