! TOUCHSTONE file generated by CST MICROWAVE STUDIO
! Date and time: Thu Jun  9 16:03:39 2022
! Project name: AppElm_antenne_patch_Alumina.cst
! Parameters = {L=30.5; W=41.8; e=0.035; h=1.6; lambda=0.190476; ls=81; w0=1.12; w1=0.373; ws=90; y0=14; y1=10}
! Header version: 2018
! Port assignment regex: !\s*Touchstone port\s*([0-9]+)\s*=\s*(CST MWS port|CST DS port)\s*([0-9]+|Zmin|Zmax)\s*\(\"(.*)\"\)(\s*mode\s*([0-9]+))?.*
! Touchstone port assignment:
! Touchstone port 1 = CST MWS port 1 ("")
# GHz S MA R 50
0                      0.9796559              -0
0.004                  0.9807821       -10.36605
0.008                   0.984012       -20.62221
0.012                  0.9889225       -30.66545
0.016                  0.9948814       -40.40507
0.02                    1.001139       -49.76579
0.024                   1.006933       -58.68838
0.028                   1.011585       -67.12856
0.032                   1.014581       -75.05502
0.036                   1.015628       -82.44733
0.04                    1.014683       -89.29473
0.044                   1.011948        -95.5955
0.048                   1.007846       -101.3576
0.052                   1.002962       -106.5994
0.056                   0.997969       -111.3514
0.06                    0.993538       -115.6559
0.064                  0.9902444       -119.5666
0.068                  0.9884877       -123.1451
0.072                  0.9884359       -126.4567
0.076                  0.9900054       -129.5643
0.08                   0.9928828       -132.5224
0.084                  0.9965811       -135.3732
0.088                    1.00052       -138.1435
0.092                   1.004113       -140.8451
0.096                   1.006857       -143.4762
0.1                     1.008391       -146.0248
0.104                   1.008549       -148.4728
0.108                   1.007368          -150.8
0.112                    1.00508       -152.9886
0.116                   1.002073       -155.0269
0.12                   0.9988336       -156.9119
0.124                  0.9958694       -158.6514
0.128                  0.9936341       -160.2635
0.132                  0.9924558       -161.7749
0.136                  0.9924869       -163.2178
0.14                   0.9936838       -164.6245
0.144                  0.9958173       -166.0234
0.148                  0.9985177       -167.4347
0.152                   1.001337       -168.8685
0.156                   1.003822       -170.3236
0.16                     1.00559       -171.7893
0.164                    1.00638       -173.2478
0.168                   1.006091       -174.6772
0.172                   1.004797       -176.0555
0.176                   1.002728       -177.3641
0.18                    1.000235        -178.591
0.184                  0.9977308       -179.7329
0.188                  0.9956279         179.204
0.192                  0.9942661        178.2043
0.196                  0.9938583        177.2463
0.2                    0.9944553        176.3048
0.204                  0.9959397        175.3561
0.208                  0.9980479        174.3814
0.212                   1.000418        173.3696
0.216                   1.002652        172.3193
0.22                    1.004383         171.238
0.224                   1.005333        170.1406
0.228                   1.005357        169.0468
0.232                   1.004464        167.9776
0.236                   1.002814        166.9522
0.24                     1.00069        165.9846
0.244                   0.998453        165.0813
0.248                  0.9964828        164.2399
0.252                  0.9951109        163.4496
0.256                  0.9945655        162.6923
0.26                   0.9949323        161.9464
0.264                  0.9961396        161.1901
0.268                  0.9979729        160.4053
0.272                   1.000113        159.5806
0.276                   1.002193        158.7133
0.28                    1.003861        157.8092
0.284                   1.004838        156.8816
0.288                   1.004966        155.9487
0.292                   1.004229        155.0307
0.296                   1.002757        154.1466
0.3                     1.000805        153.3107
0.304                  0.9987081        152.5303
0.308                  0.9968277        151.8047
0.312                  0.9954871        151.1244
0.316                  0.9949167        150.4732
0.32                   0.9952117        149.8308
0.324                  0.9963171        149.1764
0.328                  0.9980361        148.4922
0.332                   1.000068        147.7673
0.336                   1.002059        146.9983
0.34                    1.003668        146.1907
0.344                    1.00462        145.3572
0.348                   1.004754        144.5154
0.352                   1.004051        143.6851
0.356                   1.002633        142.8849
0.36                    1.000747        142.1291
0.364                  0.9987185        141.4251
0.368                  0.9969014        140.7723
0.372                  0.9956128        140.1617
0.376                  0.9950782        139.5773
0.38                   0.9953907        138.9993
0.384                  0.9964939        138.4072
0.388                  0.9981923         137.784
0.392                   1.000187        137.1188
0.396                   1.002129        136.4089
0.4                     1.003681        135.6597
0.404                   1.004574        134.8843
0.408                   1.004655        134.1002
0.412                   1.003911        133.3273
0.416                    1.00247        132.5839
0.42                    1.000582         131.884
0.424                  0.9985769        131.2347
0.428                   0.996806        130.6347
0.432                  0.9955814        130.0745
0.436                  0.9951205         129.538
0.44                   0.9955051        129.0051
0.444                  0.9966668        128.4556
0.448                     0.9984        127.8728
0.452                   1.000398        127.2464
0.456                    1.00231        126.5746
0.46                      1.0038        125.8636
0.464                   1.004607         125.127
0.468                   1.004591        124.3832
0.472                   1.003754        123.6518
0.476                   1.002238        122.9513
0.48                     1.00031        122.2951
0.484                  0.9983048        121.6893
0.488                  0.9965781        121.1319
0.492                  0.9954366        120.6122
0.496                  0.9950851        120.1134
0.5                    0.9955881        119.6148
0.504                  0.9968569        119.0963
0.508                  0.9986671        118.5415
0.512                   1.000698        117.9413
0.516                    1.00259        117.2948
0.52                    1.004011        116.6096
0.524                    1.00471        115.9003
0.528                   1.004563        115.1861
0.532                   1.003594         114.487
0.536                   1.001969        113.8212
0.54                   0.9999726        113.2015
0.544                  0.9979558         112.633
0.548                  0.9962767        112.1121
0.552                  0.9952364        111.6269
0.556                  0.9950231        111.1592
0.56                   0.9956779        110.6877
0.564                  0.9970856        110.1923
0.568                  0.9989962        109.6573
0.572                    1.00107        109.0745
0.576                   1.002939        108.4448
0.58                    1.004273        107.7772
0.584                   1.004833        107.0878
0.588                    1.00452        106.3967
0.592                   1.003383        105.7244
0.596                    1.00162        105.0888
0.6                    0.9995373        104.5018
0.604                  0.9975045        103.9671
0.608                  0.9958838        103.4793
0.612                  0.9949681        103.0247
0.616                  0.9949248        102.5838
0.62                   0.9957653        102.1345
0.624                  0.9973419        101.6564
0.628                  0.9993738        101.1349
0.632                   1.001499        100.5632
0.636                    1.00334        99.94383
0.64                     1.00457        99.28796
0.644                   1.004967        98.61322
0.648                   1.004459        97.94071
0.652                   1.003129        97.29155
0.656                   1.001208        96.68318
0.66                   0.9990337        96.12634
0.664                  0.9969917        95.62297
0.668                  0.9954488        95.16564
0.672                  0.9946858        94.73857
0.676                  0.9948447        94.32055
0.68                   0.9959014        93.88866
0.684                  0.9976695        93.42276
0.688                  0.9998336        92.90911
0.692                   1.002008        92.34276
0.696                   1.003804        91.72847
0.7                     1.004901        91.07946
0.704                   1.005101        90.41524
0.708                   1.004363        89.75818
0.712                   1.002811        89.12969
0.716                   1.000713        88.54672
0.72                   0.9984398        88.01857
0.724                  0.9963959        87.54508
0.728                  0.9949507        87.11638
0.732                  0.9943689         86.7144
0.736                  0.9947614        86.31607
0.74                   0.9960622        85.89773
0.744                  0.9980409        85.43945
0.748                   1.000344        84.92882
0.752                    1.00256        84.36306
0.756                   1.004293        83.74933
0.76                    1.005231        83.10339
0.764                   1.005202        82.44665
0.768                   1.004205        81.80273
0.772                   1.002409        81.19336
0.776                   1.000125        80.63468
0.78                   0.9977581        80.13426
0.784                  0.9957327        79.68949
0.788                  0.9944169        79.28766
0.792                  0.9940544        78.90816
0.796                  0.9947182        78.52606
0.8                    0.9962944        78.11691
0.804                   0.998503        77.66132
0.808                   1.000949        77.14858
0.812                   1.003195        76.57834
0.816                   1.004838        75.96066
0.82                    1.005581        75.31389
0.824                   1.005285        74.66169
0.828                   1.003993        74.02885
0.832                   1.001925        73.43728
0.836                  0.9994422        72.90203
0.84                   0.9969846        72.42862
0.844                  0.9949949        72.01155
0.848                  0.9938373        71.63501
0.852                  0.9937289        71.27547
0.856                  0.9946971        70.90614
0.86                   0.9965737        70.50195
0.864                  0.9990239        70.04432
0.868                   1.001609        69.52456
0.872                   1.003865        68.94524
0.876                   1.005385        68.31954
0.88                    1.005892         67.6688
0.884                   1.005287        67.01889
0.888                   1.003665        66.39584
0.892                   1.001303        65.82149
0.896                  0.9986149        65.30958
0.9                    0.9960793        64.86305
0.904                   0.994156         64.4731
0.908                     0.9932        64.12035
0.912                  0.9933946        63.77822
0.916                  0.9947141        63.41796
0.92                   0.9969276        63.01404
0.924                    0.99964        62.54904
0.928                   1.002365        62.01675
0.932                   1.004614        61.42306
0.936                   1.005979         60.7847
0.94                     1.00621        60.12626
0.944                   1.005252        59.47593
0.948                   1.003262        58.86096
0.952                   1.000582        58.30292
0.956                  0.9976822        57.81384
0.96                   0.9950818        57.39368
0.964                  0.9932552        57.02979
0.968                  0.9925435        56.69883
0.972                  0.9930882         56.3709
0.976                  0.9948016        56.01526
0.98                   0.9973813        55.60619
0.984                   1.000366        55.12783
0.988                    1.00322        54.57692
0.992                    1.00543         53.9632
0.996                   1.006592        53.30734
1                       1.006487        52.63743
1.004                   1.005118        51.98423
1.008                    1.00271         51.3761
1.012                  0.9996774        50.83414
1.016                  0.9965538        50.36821
1.02                   0.9939013        49.97474
1.024                  0.9922074        49.63662
1.028                   0.991793        49.32601
1.032                  0.9927481         49.0094
1.036                  0.9949122        48.65401
1.04                   0.9979025        48.23414
1.044                   1.001184        47.73592
1.048                   1.004166        47.15968
1.052                   1.006312        46.51947
1.056                   1.007226        45.84047
1.06                     1.00673        45.15464
1.064                   1.004891        44.49547
1.068                   1.002014        43.89243
1.072                  0.9985947        43.36591
1.076                  0.9952391        42.92314
1.08                   0.9925547         42.5563
1.084                  0.9910397        42.24315
1.088                  0.9909876        41.95069
1.092                  0.9924265        41.64139
1.096                    0.99511        41.28038
1.1                    0.9985621        40.84229
1.104                   1.002164         40.3158
1.108                   1.005268        39.70539
1.112                    1.00731        39.03023
1.116                   1.007911        38.32063
1.12                    1.006939        37.61291
1.124                   1.004537        36.94362
1.128                   1.001106        36.34345
1.132                  0.9972374        35.83179
1.136                  0.9936175        35.41274
1.14                   0.9909059        35.07339
1.144                  0.9896116        34.78535
1.148                   0.989993         34.5096
1.152                   0.992003        34.20402
1.156                  0.9952935        33.83142
1.16                   0.9992792        33.36699
1.164                   1.003245        32.80252
1.168                   1.006475        32.14753
1.172                    1.00838        31.42714
1.176                   1.008595        30.67757
1.18                     1.00705        29.94031
1.184                   1.003978        29.25552
1.188                  0.9998927        28.65531
1.192                  0.9954989        28.15788
1.196                  0.9915809         27.7634
1.2                    0.9888596        27.45281
1.204                  0.9878555        27.19029
1.208                  0.9887834        26.92937
1.212                  0.9915035         26.6224
1.216                  0.9955435        26.22953
1.22                    1.000185        25.72669
1.224                   1.004595        25.10954
1.228                   1.007977        24.39366
1.232                   1.009705        23.61138
1.236                   1.009438        22.80632
1.24                    1.007172        22.02615
1.244                   1.003256         21.3157
1.248                  0.9983379        20.70901
1.252                  0.9932681        20.22311
1.256                  0.9889549        19.85348
1.26                   0.9861996        19.57333
1.264                  0.9855412        19.33722
1.268                  0.9871422        19.08936
1.272                  0.9907481         18.7747
1.276                  0.9957293        18.34996
1.28                    1.001198        17.79187
1.284                   1.006171         17.1008
1.288                   1.009742        16.29992
1.292                   1.011238        15.43061
1.296                   1.010335        14.54572
1.3                     1.007116         13.7015
1.304                   1.002067        12.94902
1.308                  0.9960195        12.32562
1.312                  0.9900144        11.84734
1.316                  0.9851336        11.50394
1.32                   0.9822974        11.25837
1.324                  0.9820808        11.05208
1.328                  0.9845859        10.81593
1.332                  0.9894084        10.48436
1.336                  0.9957073        10.00863
1.34                    1.002361        9.365927
1.344                   1.008171        8.562481
1.348                    1.01207        7.631251
1.352                     1.0133        6.625763
1.356                   1.011544        5.611782
1.36                    1.006983        4.657845
1.364                   1.000288        3.825156
1.368                  0.9925396        3.157263
1.372                  0.9850633        2.670607
1.376                   0.979211        2.348016
1.38                   0.9761063        2.138028
1.384                  0.9764093        1.962245
1.388                  0.9801603        1.730388
1.392                  0.9867506        1.359315
1.396                  0.9950288        0.790186
1.4                     1.003514   -0.0009469092
1.404                   1.010662       -1.000719
1.408                   1.015126       -2.162741
1.412                   1.015976       -3.415928
1.416                   1.012852       -4.674691
1.42                     1.00604       -5.850108
1.424                  0.9964664        -6.86211
1.428                  0.9855966       -7.652834
1.432                   0.975239       -8.200215
1.436                  0.9672502       -8.528791
1.44                   0.9631815       -8.712713
1.444                   0.963937       -8.866262
1.448                  0.9695383       -9.121481
1.452                  0.9790785       -9.599118
1.456                  0.9908788       -10.38305
1.46                      1.0028       -11.50609
1.464                   1.012618       -12.94866
1.468                   1.018375       -14.64645
1.472                   1.018678       -16.50203
1.476                   1.012906       -18.39699
1.48                    1.001341        -20.2042
1.484                  0.9852044       -21.80166
1.488                  0.9665932       -23.09051
1.492                  0.9482724       -24.01872
1.496                  0.9332897       -24.60755
1.5                     0.924414       -24.97092
1.504                  0.9234835       -25.31236
1.508                   0.930859       -25.88975
1.512                  0.9452012       -26.95731
1.516                  0.9636621       -28.71141
1.52                   0.9823864       -31.26415
1.524                  0.9971111       -34.64802
1.528                    1.00369       -38.83906
1.532                  0.9984719       -43.78358
1.536                  0.9785368       -49.42064
1.54                   0.9418272       -55.69894
1.544                  0.8872106       -62.59109
1.548                  0.8145021       -70.11062
1.552                   0.724468       -78.34201
