! TOUCHSTONE file generated by CST MICROWAVE STUDIO
! Date and time: Thu Jun  9 16:03:36 2022
! Project name: AppElm_antenne_patch_Alumina.cst
! Parameters = {L=30.5; W=41.8; e=0.035; h=1.6; lambda=0.190476; ls=67.5; w0=1.12; w1=0.373; ws=90; y0=14; y1=10}
! Header version: 2018
! Port assignment regex: !\s*Touchstone port\s*([0-9]+)\s*=\s*(CST MWS port|CST DS port)\s*([0-9]+|Zmin|Zmax)\s*\(\"(.*)\"\)(\s*mode\s*([0-9]+))?.*
! Touchstone port assignment:
! Touchstone port 1 = CST MWS port 1 ("")
# GHz S MA R 50
0                      0.9794728              -0
0.004                  0.9805974       -10.36777
0.008                  0.9838222       -20.62551
0.012                  0.9887247       -30.67011
0.016                  0.9946727       -40.41079
0.02                    1.000918       -49.77214
0.024                   1.006697       -58.69493
0.028                   1.011336       -67.13481
0.032                    1.01432        -75.0605
0.036                   1.015361       -82.45159
0.04                    1.014415       -89.29738
0.044                   1.011688       -95.59629
0.048                   1.007604       -101.3564
0.052                   1.002748       -106.5964
0.056                  0.9977926       -111.3469
0.06                   0.9934055       -115.6505
0.064                  0.9901587        -119.561
0.068                  0.9884469       -123.1402
0.072                   0.988433       -126.4531
0.076                  0.9900293       -129.5626
0.08                   0.9929194       -132.5231
0.084                  0.9966145       -135.3761
0.088                   1.000535       -138.1484
0.092                   1.004099       -140.8513
0.096                   1.006806        -143.483
0.1                     1.008303       -146.0313
0.104                   1.008427       -148.4781
0.108                   1.007221       -150.8034
0.112                   1.004923       -152.9896
0.116                   1.001922       -155.0254
0.12                   0.9987046       -156.9082
0.124                  0.9957756        -158.646
0.128                  0.9935844       -160.2572
0.132                  0.9924523       -161.7688
0.136                   0.992525       -163.2128
0.14                   0.9937522       -164.6214
0.144                  0.9959005       -166.0228
0.148                  0.9985975       -167.4367
0.152                   1.001396       -168.8726
0.156                   1.003848       -170.3293
0.16                    1.005574       -171.7957
0.164                    1.00632       -173.2537
0.168                   1.005994       -174.6818
0.172                   1.004675        -176.058
0.176                   1.002598        -177.364
0.18                    1.000114       -178.5883
0.184                  0.9976374        -179.728
0.188                  0.9955754        179.2103
0.192                  0.9942614        178.2111
0.196                  0.9939007        177.2523
0.2                    0.9945364        176.3091
0.204                  0.9960445        175.3579
0.208                  0.9981574        174.3804
0.212                   1.000512         173.366
0.216                   1.002714        172.3136
0.22                    1.004401        171.2311
0.224                   1.005301        170.1336
0.228                   1.005279        169.0408
0.232                   1.004351        167.9736
0.236                   1.002682        166.9509
0.24                    1.000559        165.9862
0.244                  0.9983445        165.0855
0.248                  0.9964128        164.2461
0.252                    0.99509        163.4566
0.256                  0.9945961        162.6991
0.26                   0.9950078        161.9517
0.264                  0.9962458        161.1929
0.268                  0.9980901        160.4052
0.272                   1.000219        159.5776
0.276                   1.002269        158.7078
0.28                    1.003891        157.8022
0.284                   1.004816        156.8743
0.288                   1.004893        155.9423
0.292                   1.004115        155.0263
0.296                    1.00262         154.145
0.3                     1.000666        153.3122
0.304                  0.9985898        152.5349
0.308                  0.9967496        151.8115
0.312                  0.9954626        151.1324
0.316                  0.9949496        150.4811
0.32                   0.9952966        149.8372
0.324                   0.996439        149.1801
0.328                  0.9981741        148.4928
0.332                   1.000198        147.7645
0.336                   1.002158        146.9927
0.34                    1.003719        146.1832
0.344                   1.004612         145.349
0.348                   1.004689         144.508
0.352                   1.003938        143.6797
0.356                   1.002491        142.8825
0.36                    1.000599        142.1301
0.364                  0.9985898        141.4295
0.368                  0.9968139        140.7793
0.372                  0.9955817          140.17
0.376                  0.9951092        139.5856
0.38                   0.9954783        139.0061
0.384                  0.9966227        138.4113
0.388                  0.9983393        137.7846
0.392                   1.000326        137.1158
0.396                   1.002235        136.4028
0.4                     1.003734        135.6515
0.404                   1.004563        134.8754
0.408                    1.00458        134.0922
0.412                   1.003783        133.3216
0.416                   1.002309        132.5815
0.42                    1.000415        131.8855
0.424                  0.9984309        131.2399
0.428                  0.9967065        130.6428
0.432                  0.9955456        130.0842
0.436                  0.9951548        129.5477
0.44                   0.9956037        129.0132
0.444                  0.9968128        128.4607
0.448                   0.998568         127.874
0.452                   1.000559        127.2436
0.456                   1.002435        126.5682
0.46                    1.003867        125.8549
0.464                   1.004604        125.1175
0.468                   1.004518        124.3745
0.472                   1.003622        123.6456
0.476                    1.00207        122.9487
0.48                    1.000134        122.2966
0.484                  0.9981536        121.6949
0.488                  0.9964781        121.1407
0.492                  0.9954066        120.6227
0.496                  0.9951317        120.1237
0.5                     0.995704        119.6232
0.504                  0.9970231        119.1012
0.508                  0.9988546        118.5422
0.512                   1.000874        117.9375
0.516                   1.002723        117.2871
0.52                    1.004077        116.5994
0.524                   1.004696        115.8894
0.528                    1.00447        115.1762
0.532                   1.003436        114.4801
0.536                   1.001772        113.8185
0.54                   0.9997698        113.2036
0.544                  0.9977817        112.6396
0.548                  0.9961618        112.1223
0.552                  0.9952009        111.6389
0.556                  0.9950738         111.171
0.56                   0.9958061        110.6973
0.564                  0.9972687         110.198
0.568                  0.9992018        109.6582
0.572                   1.001261        109.0705
0.576                   1.003082        108.4366
0.58                    1.004341        107.7663
0.584                   1.004814        107.0763
0.588                   1.004415        106.3865
0.592                   1.003209        105.7176
0.596                   1.001406        105.0867
0.6                    0.9993222         104.505
0.604                  0.9973261        103.9753
0.608                  0.9957752        103.4911
0.612                  0.9949501        103.0383
0.616                   0.995003        102.5968
0.62                   0.9959278        102.1447
0.624                  0.9975615         101.662
0.628                  0.9996131        101.1349
0.632                   1.001717        100.5577
0.636                   1.003498        99.93379
0.64                    1.004639        99.27514
0.644                   1.004936        98.59986
0.648                   1.004331        97.92924
0.652                   1.002926        97.28406
0.656                   1.000964        96.68115
0.66                   0.9987918        96.13031
0.664                  0.9967946        95.63241
0.668                  0.9953326        95.17906
0.672                  0.9946723        94.75375
0.676                  0.9949379        94.33483
0.68                   0.9960857        93.89959
0.684                  0.9979128        93.42843
0.688                   1.000093        92.90856
0.692                   1.002237        92.33619
0.696                   1.003962         91.7171
0.7                     1.004959        91.06539
0.704                   1.005047        90.40103
0.708                   1.004204        89.74648
0.712                   1.002574         89.1228
0.716                   1.000439        88.54614
0.72                   0.9981774        88.02471
0.724                   0.996193         87.5572
0.728                  0.9948455         87.1326
0.732                  0.9943833        86.73203
0.736                  0.9948958        86.33218
0.74                   0.9962959        85.90953
0.744                   0.998335        85.44497
0.748                   1.000649        84.92718
0.752                   1.002823        84.35465
0.756                   1.004468        83.73574
0.76                    1.005289        83.08705
0.764                   1.005133        82.43056
0.768                    1.00402        81.78986
0.772                    1.00214        81.18619
0.776                  0.9998212        80.63474
0.78                    0.997475        80.14183
0.784                  0.9955227        79.70351
0.788                  0.9943209        79.30587
0.792                  0.9940933        78.92744
0.796                  0.9948883        78.54306
0.8                    0.9965684        78.12867
0.804                  0.9988343        77.66582
0.808                   1.001281        77.14506
0.812                   1.003468        76.56752
0.816                   1.005005        75.94453
0.82                    1.005611         75.2954
0.824                   1.005171        74.64422
0.828                   1.003753        74.01574
0.832                   1.001601        73.43115
0.836                  0.9990915         72.9044
0.84                   0.9966705        72.43952
0.844                  0.9947762        72.02949
0.848                  0.9937571        71.65714
0.852                  0.9938061        71.29814
0.856                  0.9949226        70.92555
0.86                   0.9969116        70.51483
0.864                  0.9994179         70.0486
0.868                   1.001992        69.51967
0.872                   1.004172        68.93229
0.876                   1.005565          68.301
0.88                    1.005914        67.64814
0.884                   1.005148        67.00002
0.888                   1.003391        66.38244
0.892                   1.000945        65.81634
0.896                  0.9982395        65.31412
0.9                    0.9957592        64.87699
0.904                  0.9939551         64.4944
0.908                  0.9931624        64.14554
0.912                  0.9935352        63.80307
0.916                  0.9950161        63.43815
0.92                   0.9973441         63.0261
0.924                   1.000103        62.55094
0.928                   1.002798        62.00829
0.932                   1.004943        61.40586
0.936                   1.006151        60.76192
0.94                    1.006195        60.10204
0.944                   1.005054        59.45478
0.948                   1.002918        58.84695
0.952                   1.000155        58.29903
0.956                   0.997252        57.82134
0.96                   0.9947315        57.41183
0.964                  0.9930557        57.05588
0.968                    0.99254        56.72861
0.972                  0.9932909        56.39935
0.976                  0.9951839        56.03753
0.98                   0.9978837        55.61854
0.984                   1.000907        55.12831
0.988                   1.003711        54.56573
0.992                   1.005789        53.94256
0.996                   1.006763        53.28117
1                       1.006444        52.61064
1.004                   1.004873        51.96196
1.008                   1.002312        51.36284
1.012                  0.9992041        50.83293
1.016                  0.9961001        50.38006
1.02                   0.9935613        49.99826
1.024                  0.9920581        49.66821
1.028                  0.9918779        49.36046
1.032                  0.9930699        49.04077
1.036                  0.9954303        48.67685
1.04                   0.9985401        48.24453
1.044                   1.001842        47.73214
1.048                   1.004742        47.14251
1.052                   1.006714          46.492
1.056                   1.007395        45.80762
1.06                    1.006645         45.1223
1.064                   1.004574        44.46958
1.068                   1.001531        43.87802
1.072                  0.9980435        43.36614
1.076                  0.9947321        42.93867
1.08                   0.9921999        42.58498
1.084                  0.9909211        42.28029
1.088                  0.9911478        41.98988
1.092                  0.9928577        41.67569
1.096                  0.9957554        41.30369
1.1                     0.999325        40.85047
1.104                   1.002926        40.30746
1.108                   1.005909        39.68207
1.112                   1.007731        38.99611
1.116                    1.00805        38.28177
1.12                    1.006782        37.57635
1.124                   1.004125        36.91622
1.128                   1.000525        36.33074
1.132                  0.9966087        35.83695
1.136                  0.9930762         35.4358
1.14                   0.9905769        35.11107
1.144                  0.9895858        34.83141
1.148                  0.9903089         34.5561
1.152                  0.9926379        34.24262
1.156                   0.996167        33.85518
1.16                    1.000267        33.37164
1.164                   1.004202        32.78711
1.168                   1.007261        32.11464
1.172                   1.008881        31.38228
1.176                   1.008749        30.62839
1.18                    1.006852        29.89532
1.184                   1.003488        29.22279
1.188                   0.999223        28.64099
1.192                  0.9948011        28.16517
1.196                  0.9910181        27.79162
1.2                    0.9885765        27.49726
1.204                  0.9879509        27.24283
1.208                  0.9892889        26.98014
1.212                  0.9923764        26.66147
1.216                  0.9966729        26.24909
1.22                    1.001412        25.72237
1.224                   1.005742        25.08123
1.228                   1.008878        24.34538
1.232                   1.010234        23.55054
1.236                   1.009531         22.7425
1.24                    1.006842        21.96992
1.244                    1.00259        21.27657
1.248                  0.9974883        20.69412
1.252                  0.9924288        20.23552
1.256                  0.9883281        19.89135
1.26                    0.985959        19.62982
1.264                  0.9857967         19.4015
1.268                  0.9879165        19.14868
1.272                  0.9919699        18.81688
1.276                  0.9972461        18.36584
1.28                    1.002803        17.77693
1.284                    1.00764        17.05589
1.288                   1.010872        16.23086
1.292                   1.011884        15.34728
1.296                   1.010431        14.46049
1.3                     1.006692        13.62744
1.304                    1.00125        12.89786
1.308                  0.9950114        12.30563
1.312                   0.989067        11.86153
1.316                  0.9845019        11.54885
1.32                   0.9821925        11.32414
1.324                  0.9826256        11.12398
1.328                  0.9857867        10.87725
1.332                  0.9911504        10.51978
1.336                  0.9977746        10.00732
1.34                    1.004475        9.323413
1.344                    1.01004        8.481219
1.348                   1.013438        7.520003
1.352                    1.01399        6.498173
1.356                   1.011489        5.484455
1.36                    1.006241        4.548048
1.364                  0.9990432        3.748214
1.368                  0.9910768        3.123789
1.372                  0.9837287        2.683922
1.376                  0.9783516        2.402482
1.38                   0.9760031        2.219118
1.384                  0.9772169        2.048867
1.388                  0.9818702         1.79913
1.392                  0.9891876        1.389377
1.396                  0.9978825        0.767509
1.4                     1.006396     -0.08136304
1.404                   1.013172       -1.134446
1.408                    1.01692       -2.337024
1.412                   1.016822       -3.611655
1.416                   1.012671       -4.868871
1.42                    1.004927       -6.018782
1.424                   0.994693       -6.983818
1.428                  0.9835833       -7.712645
1.432                  0.9734966       -8.193853
1.436                  0.9662937        -8.46569
1.44                    0.963427       -8.616329
1.444                  0.9656063       -8.770473
1.448                  0.9726003        -9.06355
1.452                  0.9832446       -9.611558
1.456                  0.9956555       -10.48726
1.46                    1.007576       -11.70933
1.464                   1.016765       -13.24419
1.468                   1.021343       -15.01556
1.472                   1.020078       -16.91674
1.476                   1.012572       -18.82299
1.48                   0.9993702       -20.60406
1.484                  0.9819795       -22.13911
1.488                  0.9627648       -23.33667
1.492                  0.9446943       -24.16035
1.496                  0.9308918       -24.65583
1.5                    0.9240171        -24.9666
1.504                   0.925597       -25.32219
1.508                    0.93553       -25.99304
1.512                  0.9519756         -27.228
1.516                  0.9716637       -29.20453
1.52                   0.9904686       -32.01144
1.524                    1.00402       -35.66136
1.528                   1.008203       -40.11753
1.532                  0.9994968       -45.32062
1.536                  0.9751796       -51.21021
1.54                   0.9334382       -57.74079
1.544                  0.8734154       -64.89656
1.548                  0.7952249       -72.71169
1.552                  0.6999615       -81.30889
