! TOUCHSTONE file generated by CST MICROWAVE STUDIO
! Date and time: Thu Jun  9 16:03:45 2022
! Project name: AppElm_antenne_patch_Alumina.cst
! Parameters = {L=30.5; W=41.8; e=0.035; h=1.6; lambda=0.190476; ls=108; w0=1.12; w1=0.373; ws=90; y0=14; y1=10}
! Header version: 2018
! Port assignment regex: !\s*Touchstone port\s*([0-9]+)\s*=\s*(CST MWS port|CST DS port)\s*([0-9]+|Zmin|Zmax)\s*\(\"(.*)\"\)(\s*mode\s*([0-9]+))?.*
! Touchstone port assignment:
! Touchstone port 1 = CST MWS port 1 ("")
# GHz S MA R 50
0                      0.9792019              -0
0.004                  0.9803431        -10.3551
0.008                   0.983617       -20.60013
0.012                  0.9885968       -30.63195
0.016                  0.9946441       -40.35981
0.02                    1.001002       -49.70843
0.024                     1.0069       -58.61863
0.028                   1.011648       -67.04624
0.032                   1.014727       -74.95991
0.036                   1.015833       -82.33922
0.04                    1.014918       -89.17318
0.044                    1.01218       -95.45984
0.048                    1.00804       -101.2067
0.052                   1.003089       -106.4317
0.056                  0.9980065       -111.1649
0.06                   0.9934747       -115.4483
0.064                  0.9900829       -119.3354
0.068                  0.9882452       -122.8882
0.072                  0.9881416       -126.1724
0.076                  0.9896977       -129.2517
0.08                   0.9926026       -132.1818
0.084                  0.9963656       -135.0057
0.088                   1.000397        -137.751
0.092                   1.004097       -140.4298
0.096                   1.006945       -143.0406
0.1                     1.008567       -145.5712
0.104                   1.008781       -148.0028
0.108                   1.007616       -150.3146
0.112                   1.005301       -152.4878
0.116                   1.002228       -154.5098
0.12                   0.9988939       -156.3767
0.124                  0.9958211       -158.0958
0.128                  0.9934816        -159.685
0.132                  0.9922214       -161.1715
0.136                  0.9922073       -162.5878
0.14                   0.9934037       -163.9675
0.144                  0.9955821         -165.34
0.148                  0.9983649       -166.7267
0.152                    1.00129       -168.1382
0.156                   1.003887       -169.5738
0.16                    1.005754       -171.0226
0.164                   1.006612       -172.4662
0.168                   1.006351        -173.882
0.172                   1.005038       -175.2469
0.176                   1.002906       -176.5414
0.18                    1.000317       -177.7523
0.184                  0.9977008       -178.8757
0.188                  0.9954886       -179.9178
0.192                  0.9940404        179.1059
0.196                  0.9935849        178.1729
0.2                     0.994182         177.257
0.204                  0.9957145        176.3332
0.208                  0.9979108        175.3815
0.212                   1.000393        174.3903
0.216                   1.002744        173.3575
0.22                    1.004576         172.291
0.224                   1.005594        171.2062
0.228                   1.005639        170.1237
0.232                   1.004718        169.0659
0.236                   1.002994        168.0529
0.24                    1.000763        167.0998
0.244                  0.9984053        166.2136
0.248                  0.9963207        165.3922
0.252                  0.9948621        164.6242
0.256                  0.9942739        163.8909
0.26                   0.9946496        163.1693
0.264                  0.9959167        162.4362
0.268                  0.9978496        161.6726
0.272                   1.000112        160.8662
0.276                   1.002314         160.014
0.28                    1.004083        159.1221
0.284                   1.005121        158.2047
0.288                    1.00526        157.2809
0.292                   1.004481        156.3723
0.296                   1.002921        155.4989
0.3                      1.00085        154.6761
0.304                  0.9986244        153.9119
0.308                  0.9966286        153.2053
0.312                  0.9952072        152.5464
0.316                  0.9946058         151.918
0.32                   0.9949263        151.2983
0.324                   0.996109        150.6652
0.328                  0.9979438        149.9999
0.332                   1.000109        149.2905
0.336                   1.002228        148.5337
0.34                    1.003934        147.7354
0.344                   1.004937        146.9092
0.348                   1.005067        146.0739
0.352                   1.004303        145.2508
0.356                   1.002779        144.4597
0.36                    1.000759        143.7157
0.364                  0.9985935        143.0268
0.368                  0.9966601        142.3922
0.372                  0.9952977        141.8019
0.376                  0.9947459         141.239
0.38                   0.9951011         140.682
0.384                  0.9962998        140.1091
0.388                  0.9981293        139.5021
0.392                   1.000267        138.8495
0.396                   1.002338        138.1486
0.4                     1.003981        137.4057
0.404                   1.004911        136.6347
0.408                   1.004969        135.8548
0.412                   1.004142        135.0871
0.416                   1.002576        134.3513
0.42                    1.000541        133.6622
0.424                  0.9983936        133.0271
0.428                  0.9965101        132.4444
0.432                  0.9952244        131.9036
0.436                  0.9947654        131.3872
0.44                   0.9952156        130.8735
0.444                  0.9964955        130.3408
0.448                  0.9983781        129.7712
0.452                    1.00053        129.1542
0.456                   1.002572         128.488
0.46                    1.004145          127.78
0.464                   1.004975        127.0449
0.468                   1.004915        126.3026
0.472                   1.003975        125.5744
0.476                   1.002316          124.88
0.48                    1.000228        124.2333
0.484                   0.998076        123.6409
0.488                  0.9962423        123.0998
0.492                  0.9950535        122.5984
0.496                  0.9947239        122.1181
0.5                    0.9953148        121.6365
0.504                  0.9967219         121.132
0.508                  0.9986956        120.5873
0.512                   1.000886         119.993
0.516                   1.002905        119.3487
0.52                    1.004396        118.6632
0.524                   1.005097        117.9525
0.528                   1.004881        117.2374
0.532                   1.003785        116.5398
0.536                   1.001997        115.8788
0.54                   0.9998297        115.2679
0.544                  0.9976644        114.7119
0.548                   0.995887        114.2066
0.552                  0.9948169        113.7386
0.556                  0.9946491        113.2877
0.56                   0.9954166        112.8311
0.564                  0.9969843        112.3469
0.568                  0.9990734        111.8187
0.572                   1.001312        111.2383
0.576                   1.003302        110.6073
0.58                    1.004691        109.9362
0.584                   1.005232        109.2426
0.588                   1.004826        108.5484
0.592                   1.003539        107.8759
0.596                   1.001594         107.244
0.6                    0.9993316         106.665
0.604                  0.9971518        106.1422
0.608                  0.9954448        105.6692
0.612                  0.9945195        105.2306
0.616                  0.9945462        104.8047
0.62                   0.9955242        104.3677
0.624                  0.9972804        103.8979
0.628                  0.9995019        103.3797
0.632                   1.001793        102.8069
0.636                   1.003744        102.1828
0.64                    1.005009        101.5203
0.644                   1.005361        100.8388
0.648                   1.004732        100.1614
0.652                   1.003227        99.51068
0.656                   1.001108        98.90519
0.66                   0.9987455        98.35587
0.664                   0.996561        97.86405
0.668                   0.994947        97.42088
0.672                  0.9941984        97.00867
0.676                  0.9944556        96.60399
0.68                   0.9956768        96.18202
0.684                  0.9976461        95.72131
0.688                   1.000012        95.20766
0.692                   1.002352        94.63665
0.696                   1.004249        94.01426
0.7                     1.005363        93.35561
0.704                   1.005493        92.68223
0.708                   1.004609        92.01846
0.712                    1.00286        91.38728
0.716                   1.000551         90.8065
0.72                   0.9980875        90.28541
0.724                  0.9959108        89.82298
0.728                  0.9944148        89.40762
0.732                  0.9938748        89.01907
0.736                  0.9943947        88.63196
0.74                   0.9958867         88.2207
0.744                  0.9980855        87.76421
0.748                   1.000598        87.24986
0.752                   1.002975        86.67568
0.756                    1.00479        86.05038
0.76                    1.005718        85.39177
0.764                   1.005587        84.72353
0.768                   1.004412        84.07131
0.772                   1.002392        83.45828
0.776                  0.9998787        82.90135
0.78                   0.9973164         82.4078
0.784                  0.9951647        81.97382
0.788                  0.9938154        81.58477
0.792                  0.9935193        81.21752
0.796                  0.9943374        80.84474
0.8                    0.9961279        80.44008
0.804                  0.9985714        79.98316
0.808                    1.00123        79.46333
0.812                   1.003628        78.88132
0.816                   1.005334        78.24903
0.82                    1.006039        77.58717
0.824                   1.005609        76.92171
0.828                    1.00411        76.27951
0.832                   1.001797        75.68386
0.836                  0.9990735        75.15039
0.84                   0.9964228        74.68409
0.844                   0.994323        74.27788
0.848                  0.9931595        73.91364
0.852                  0.9931517        73.56518
0.856                  0.9943099        73.20316
0.86                   0.9964312        72.80067
0.864                  0.9991372        72.33834
0.868                   1.001943        71.80782
0.872                   1.004344        71.21312
0.876                    1.00591        70.56955
0.88                    1.006352        69.90101
0.884                   1.005583        69.23586
0.888                   1.003725        68.60221
0.892                   1.001096         68.0232
0.896                  0.9981567        67.51292
0.9                    0.9954307        67.07348
0.904                  0.9934131        66.69418
0.908                  0.9924774        66.35302
0.912                  0.9928045        66.02048
0.916                  0.9943453         65.6652
0.92                   0.9968285        65.25993
0.924                  0.9998104        64.78665
0.928                   1.002756        64.23985
0.932                   1.005136        63.62718
0.936                    1.00652        62.96781
0.94                    1.006651        62.28907
0.944                   1.005492        61.62184
0.948                   1.003232         60.9954
0.952                   1.000258        60.43257
0.956                  0.9970939        59.94546
0.96                   0.9943051        59.53289
0.964                  0.9924013        59.17993
0.968                  0.9917391        58.86024
0.972                  0.9924521        58.54077
0.976                  0.9944225        58.18807
0.98                   0.9973019        57.77477
0.984                   1.000575        57.28469
0.988                   1.003654        56.71562
0.992                   1.005984        56.07935
0.996                   1.007142        55.39936
1                       1.006907        54.70671
1.004                   1.005303        54.03493
1.008                   1.002594         53.4145
1.012                  0.9992455        52.86761
1.016                  0.9958488        52.40399
1.02                   0.9930152        52.01854
1.024                  0.9912668        51.69151
1.028                  0.9909362        51.39169
1.032                  0.9921004        51.08209
1.036                  0.9945619        50.72721
1.04                   0.9978844        50.29982
1.044                   1.001473        49.78602
1.048                   1.004684        49.18748
1.052                   1.006938        48.52073
1.056                   1.007822        47.81408
1.06                    1.007159        47.10272
1.064                   1.005044        46.42306
1.068                   1.001827        45.80674
1.072                  0.9980638        45.27516
1.076                  0.9944205        44.83516
1.08                   0.9915578        44.47703
1.084                  0.9900085         44.1754
1.088                  0.9900751        43.89348
1.092                   0.991766        43.58997
1.096                  0.9947907         43.2272
1.1                    0.9986125        42.77831
1.104                   1.002547        42.23224
1.108                   1.005888        41.59523
1.112                   1.008029        40.88929
1.116                   1.008574        40.14817
1.12                    1.007398        39.41177
1.124                   1.004678        38.71976
1.128                   1.000866        38.10509
1.132                   0.996621        37.58813
1.136                  0.9926963        37.17231
1.14                   0.9898081        36.84241
1.144                  0.9885014        36.56644
1.148                  0.9890399        36.30105
1.152                   0.991351        35.99997
1.156                   0.995034        35.62306
1.16                    0.999434         35.1441
1.164                   1.003763        34.55547
1.168                   1.007242        33.86876
1.172                   1.009236        33.11242
1.176                   1.009366        32.32659
1.18                     1.00757        31.55664
1.184                   1.004124        30.84621
1.188                  0.9995988        30.22983
1.192                  0.9947776        29.72675
1.196                  0.9905197        29.33628
1.2                    0.9876099         29.0366
1.204                  0.9866069        28.78757
1.208                  0.9877294        28.53783
1.212                  0.9908059        28.23498
1.216                  0.9953016        27.83591
1.22                    1.000418        27.31525
1.224                   1.005241        26.66936
1.228                     1.0089         25.9164
1.232                   1.010724        25.09249
1.236                   1.010352        24.24552
1.24                    1.007795        23.42784
1.244                   1.003446        22.68799
1.248                   0.998027        22.06295
1.252                  0.9924738        21.57088
1.256                  0.9877837        21.20625
1.26                   0.9848323        20.93893
1.264                  0.9842025        20.71845
1.268                  0.9860602        20.48303
1.272                  0.9901115        20.17216
1.276                  0.9956531        19.73877
1.28                    1.001702        19.15812
1.284                   1.007179        18.43157
1.288                   1.011092        17.58526
1.292                   1.012713        16.66494
1.296                   1.011694        15.72858
1.3                     1.008131        14.83768
1.304                   1.002566        14.04807
1.308                  0.9959101        13.40065
1.312                  0.9893103        12.91311
1.316                  0.9839561        12.57428
1.32                   0.9808612        12.34328
1.324                  0.9806576        12.15537
1.328                  0.9834553        11.93407
1.332                   0.988805          11.607
1.336                  0.9957767        11.12067
1.34                    1.003135        10.45039
1.344                   1.009561        9.603451
1.348                   1.013883        8.616245
1.352                    1.01527        7.547426
1.356                    1.01337        6.468876
1.36                    1.008374        5.455624
1.364                   1.001013        4.575075
1.368                  0.9924653        3.875857
1.372                  0.9841902        3.377269
1.376                  0.9776828        3.061688
1.38                   0.9741966        2.873213
1.384                  0.9744785        2.725419
1.388                   0.978592        2.518057
1.392                  0.9858793        2.158475
1.396                  0.9950791        1.580992
1.4                     1.004562        0.758648
1.404                   1.012626       -0.294386
1.408                    1.01778       -1.527828
1.412                   1.018983       -2.864507
1.416                   1.015811       -4.211299
1.42                    1.008544        -5.47083
1.424                  0.9981624       -6.554253
1.428                   0.986253       -7.395565
1.432                  0.9747975       -7.966793
1.436                  0.9658611       -8.290895
1.44                   0.9612019       -8.446572
1.444                  0.9618822       -8.559009
1.448                  0.9679925       -8.775297
1.452                  0.9785858       -9.231402
1.456                  0.9918447       -10.02274
1.46                    1.005425       -11.18802
1.464                   1.016866         -12.708
1.468                   1.023989       -14.51451
1.472                   1.025204       -16.50339
1.476                   1.019749       -18.54736
1.48                     1.00783       -20.50838
1.484                  0.9906767        -22.2512
1.488                  0.9704965       -23.66157
1.492                  0.9502814       -24.67151
1.496                  0.9334233       -25.28988
1.5                    0.9231142       -25.62815
1.504                   0.921613       -25.90259
1.508                  0.9295902       -26.39846
1.512                  0.9458236       -27.40364
1.516                  0.9673777       -29.14363
1.52                   0.9901615       -31.74868
1.524                   1.009607       -35.25897
1.528                   1.021259       -39.65218
1.532                   1.021197       -44.87523
1.536                   1.006288       -50.87066
1.54                   0.9743295       -57.59654
1.544                  0.9241257       -65.04368
1.548                  0.8555289       -73.25689
1.552                  0.7694862       -82.37175
