! TOUCHSTONE file generated by CST MICROWAVE STUDIO
! Date and time: Thu Jun  9 16:03:38 2022
! Project name: AppElm_antenne_patch_Alumina.cst
! Parameters = {L=30.5; W=41.8; e=0.035; h=1.6; lambda=0.190476; ls=76.5; w0=1.12; w1=0.373; ws=90; y0=14; y1=10}
! Header version: 2018
! Port assignment regex: !\s*Touchstone port\s*([0-9]+)\s*=\s*(CST MWS port|CST DS port)\s*([0-9]+|Zmin|Zmax)\s*\(\"(.*)\"\)(\s*mode\s*([0-9]+))?.*
! Touchstone port assignment:
! Touchstone port 1 = CST MWS port 1 ("")
# GHz S MA R 50
0                      0.9794927              -0
0.004                  0.9806186       -10.36673
0.008                   0.983848       -20.62351
0.012                  0.9887577       -30.66726
0.016                  0.9947154       -40.40727
0.02                    1.000972       -49.76818
0.024                   1.006765       -58.69079
0.028                   1.011417       -67.13079
0.032                   1.014414       -75.05688
0.036                   1.015465       -82.44867
0.04                    1.014526       -89.29542
0.044                   1.011801       -95.59545
0.048                   1.007711       -101.3568
0.052                   1.002844        -106.598
0.056                  0.9978704       -111.3495
0.06                     0.99346       -115.6538
0.064                  0.9901871       -119.5645
0.068                  0.9884492       -123.1434
0.072                  0.9884124       -126.4557
0.076                  0.9899917       -129.5641
0.08                   0.9928731       -132.5231
0.084                  0.9965691       -135.3747
0.088                     1.0005       -138.1457
0.092                   1.004082       -140.8476
0.096                   1.006812       -143.4788
0.1                     1.008334       -146.0272
0.104                   1.008481       -148.4745
0.108                   1.007293       -150.8009
0.112                   1.005005       -152.9886
0.116                   1.002004       -155.0259
0.12                   0.9987756       -156.9102
0.124                   0.995827       -158.6491
0.128                  0.9936094        -160.261
0.132                  0.9924487       -161.7727
0.136                  0.9924944       -163.2161
0.14                   0.9937006       -164.6236
0.144                  0.9958376       -166.0234
0.148                  0.9985343       -167.4357
0.152                   1.001344       -168.8701
0.156                   1.003816       -170.3256
0.16                    1.005569       -171.7914
0.164                   1.006345       -173.2496
0.168                   1.006045       -174.6783
0.172                   1.004746       -176.0557
0.176                   1.002677       -177.3634
0.18                    1.000191       -178.5895
0.184                  0.9977004       -179.7307
0.188                  0.9956142        179.2064
0.192                  0.9942699        178.2067
0.196                  0.9938778        177.2482
0.2                    0.9944862        176.3059
0.204                  0.9959755        175.3563
0.208                  0.9980815        174.3805
0.212                   1.000443        173.3679
0.216                   1.002663         172.317
0.22                    1.004377        171.2355
0.224                   1.005309        170.1382
0.228                   1.005319         169.045
0.232                   1.004417        167.9766
0.236                   1.002763        166.9522
0.24                    1.000644        165.9856
0.244                  0.9984184        165.0831
0.248                  0.9964637        164.2422
0.252                  0.9951093        163.4519
0.256                  0.9945803        162.6943
0.26                   0.9949596        161.9477
0.264                  0.9961733        161.1905
0.268                  0.9980057        160.4047
0.272                   1.000138        159.5791
0.276                   1.002204        158.7112
0.28                    1.003855        157.8069
0.284                   1.004815        156.8794
0.288                   1.004928        155.9471
0.292                   1.004181          155.03
0.296                   1.002707        154.1469
0.3                      1.00076         153.312
0.304                  0.9986749        152.5326
0.308                  0.9968114        151.8074
0.312                  0.9954903        151.1272
0.316                  0.9949382        150.4757
0.32                   0.9952479        149.8325
0.324                  0.9963612         149.177
0.328                  0.9980802        148.4918
0.332                   1.000104        147.7658
0.336                   1.002082        146.9961
0.34                    1.003672        146.1882
0.344                   1.004605        145.3547
0.348                   1.004723        144.5134
0.352                   1.004008        143.6839
0.356                   1.002586        142.8848
0.36                    1.000703          142.13
0.364                  0.9986856         141.427
0.368                  0.9968848        140.7747
0.372                  0.9956153        140.1642
0.376                  0.9950988        139.5795
0.38                   0.9954256        139.0007
0.384                  0.9965362        138.4076
0.388                  0.9982338        137.7833
0.392                    1.00022        137.1171
0.396                   1.002146        136.4064
0.4                     1.003679         135.657
0.404                   1.004551        134.8816
0.408                   1.004615        134.0982
0.412                   1.003859        133.3263
0.416                   1.002413        132.5841
0.42                     1.00053        131.8854
0.424                   0.998538        131.2371
0.428                  0.9967857        130.6377
0.432                   0.995583        130.0777
0.436                   0.995143        129.5408
0.44                    0.995544        129.0071
0.444                  0.9967151        128.4565
0.448                  0.9984489        127.8724
0.452                   1.000439         127.245
0.456                   1.002335        126.5723
0.46                    1.003805        125.8609
0.464                   1.004591        125.1245
0.468                   1.004557        124.3812
0.472                   1.003707        123.6509
0.476                   1.002188        122.9516
0.48                    1.000264        122.2965
0.484                  0.9982728        121.6917
0.488                  0.9965656        121.1349
0.492                  0.9954462        120.6153
0.496                  0.9951157         120.116
0.5                    0.9956345        119.6165
0.504                  0.9969114        119.0966
0.508                  0.9987199        118.5406
0.512                    1.00074        117.9392
0.516                   1.002613        117.2918
0.52                    1.004011        116.6063
0.524                   1.004686        115.8972
0.528                   1.004518        115.1837
0.532                   1.003536        114.4858
0.536                   1.001906        113.8214
0.54                   0.9999157        113.2031
0.544                  0.9979137        112.6357
0.548                  0.9962563        112.1155
0.552                  0.9952404        111.6304
0.556                  0.9950504        111.1622
0.56                   0.9957229        110.6898
0.564                  0.9971395         110.193
0.568                   0.999049        109.6566
0.572                   1.001112        109.0727
0.576                   1.002962        108.4421
0.58                    1.004271        107.7742
0.584                   1.004808        107.0851
0.588                   1.004475        106.3947
0.592                   1.003326        105.7237
0.596                    1.00156        105.0896
0.6                    0.9994857         104.504
0.604                  0.9974707        103.9704
0.608                  0.9958748        103.4831
0.612                  0.9949859        103.0286
0.616                  0.9949673        102.5869
0.62                   0.9958257        102.1364
0.624                  0.9974101        101.6568
0.628                  0.9994382        101.1336
0.632                   1.001549        100.5606
0.636                   1.003367        99.94032
0.64                    1.004568        99.28415
0.644                   1.004938        98.60975
0.648                   1.004407         97.9382
0.652                   1.003063        97.29045
0.656                   1.001139        96.68371
0.66                   0.9989736        96.12843
0.664                  0.9969509        95.62628
0.668                  0.9954344        95.16957
0.672                     0.9947        94.74249
0.676                  0.9948847        94.32373
0.68                   0.9959594        93.89058
0.684                  0.9977344        93.42309
0.688                  0.9998933        92.90779
0.692                   1.002051         92.3401
0.696                   1.003822        91.72497
0.7                      1.00489         91.0758
0.704                   1.005061        90.41215
0.708                   1.004301        89.75628
0.712                   1.002736        89.12943
0.716                   1.000639        88.54825
0.72                   0.9983799        88.02178
0.724                  0.9963609        87.54951
0.728                  0.9949473        87.12137
0.732                  0.9943987        86.71915
0.736                  0.9948198        86.31983
0.74                   0.9961402        85.89988
0.744                  0.9981255        85.43969
0.748                   1.000421        84.92718
0.752                   1.002617        84.35988
0.756                   1.004321        83.74523
0.76                    1.005225         83.0991
0.764                   1.005165        82.44299
0.768                   1.004143         81.8004
0.772                   1.002333         81.1928
0.776                   1.000051        80.63605
0.78                   0.9976995        80.13739
0.784                  0.9957009        79.69384
0.788                  0.9944184        79.29252
0.792                  0.9940903        78.91263
0.796                  0.9947824        78.52934
0.8                    0.9963761        78.11841
0.804                  0.9985877        77.66079
0.808                   1.001022        77.14608
0.812                   1.003242        76.57437
0.816                   1.004851        75.95591
0.82                    1.005556        75.30925
0.824                   1.005226        74.65802
0.828                   1.003909         74.0269
0.832                    1.00183        73.43748
0.836                  0.9993531        72.90452
0.84                   0.9969169        72.43308
0.844                  0.9949611        72.01736
0.848                  0.9938441        71.64122
0.852                  0.9937757        71.28112
0.856                  0.9947768        70.91035
0.86                   0.9966728        70.50406
0.864                   0.999126        70.04406
0.868                   1.001696        69.52213
0.872                   1.003923        68.94115
0.876                   1.005406        68.31464
0.88                    1.005872        67.66407
0.884                   1.005231        67.01528
0.888                   1.003584        66.39413
0.892                   1.001214        65.82213
0.896                   0.998535        65.31259
0.9                    0.9960258        64.86804
0.904                  0.9941412        64.47929
0.908                  0.9932296        64.12669
0.912                  0.9934664        63.78362
0.916                   0.994818        63.42147
0.92                   0.9970474        63.01503
0.924                  0.9997563        62.54736
0.928                   1.002459        62.01269
0.932                    1.00467        61.41737
0.936                   1.005989        60.77836
0.94                    1.006171        60.12043
0.944                   1.005173        59.47167
0.948                   1.003157        58.85911
0.952                    1.00047        58.30393
0.956                  0.9975838        57.81767
0.96                   0.9950164        57.39979
0.964                  0.9932366        57.03721
0.968                   0.992577        56.70634
0.972                  0.9931697        56.37727
0.976                  0.9949186        56.01944
0.98                   0.9975149        55.60753
0.984                   1.000494        55.12622
0.988                   1.003322        54.57279
0.992                   1.005489        53.95741
0.996                     1.0066        53.30107
1                       1.006445        52.63194
1.004                   1.005036         51.9807
1.008                   1.002605        51.37535
1.012                  0.9995714        50.83654
1.016                  0.9964708        50.37361
1.02                   0.9938618        49.98236
1.024                  0.9922249        49.64526
1.028                  0.9918706        49.33425
1.032                  0.9928787         49.0158
1.036                  0.9950789        48.65746
1.04                   0.9980817        48.23401
1.044                   1.001349        47.73227
1.048                   1.004294        47.15312
1.052                   1.006384        46.51112
1.056                   1.007235        45.83177
1.06                    1.006679        45.14707
1.064                   1.004792        44.49036
1.068                   1.001889        43.89071
1.072                   0.998471        43.36793
1.076                  0.9951438        42.92861
1.08                   0.9925105        42.56425
1.084                  0.9910606        42.25214
1.088                  0.9910758        41.95906
1.092                  0.9925716        41.64752
1.096                  0.9952911        41.28312
1.1                    0.9987516        40.84107
1.104                   1.002332        40.31079
1.108                   1.005389        39.69745
1.112                   1.007366        39.02077
1.116                   1.007895         38.3113
1.12                    1.006857        37.60542
1.124                   1.004409        36.93942
1.128                   1.000959        36.34348
1.132                  0.9971035        35.83627
1.136                  0.9935288         35.4211
1.14                   0.9908876        35.08429
1.144                  0.9896774        34.79696
1.148                  0.9901419        34.51987
1.152                  0.9922197        34.21104
1.156                  0.9955502         33.8339
1.16                   0.9995412        33.36442
1.164                   1.003476        32.79522
1.168                   1.006646        32.13671
1.172                    1.00847        31.41449
1.176                   1.008599        30.66516
1.18                    1.006976        29.93018
1.184                   1.003852        29.24926
1.188                  0.9997463        28.65394
1.192                  0.9953713        28.16149
1.196                  0.9915089        27.77124
1.2                    0.9888706        27.46319
1.204                  0.9879626        27.20089
1.208                  0.9889817        26.93787
1.212                   0.991771        26.62658
1.216                  0.9958448        26.22813
1.22                    1.000477        25.71937
1.224                   1.004837          25.097
1.228                   1.008134        24.37751
1.232                   1.009759        23.59389
1.236                   1.009385        22.78995
1.24                    1.007029        22.01339
1.244                   1.003055         21.3084
1.248                  0.9981244        20.70825
1.252                   0.993091         20.2288
1.256                   0.988859         19.8644
1.26                   0.9862179        19.58715
1.264                   0.985687        19.35096
1.268                  0.9874063        19.09994
1.272                  0.9910997        18.77954
1.276                  0.9961223        18.34751
1.28                    1.001579        17.78188
1.284                   1.006488        17.08431
1.288                   1.009954        16.27902
1.292                   1.011325        15.40812
1.296                   1.010296        14.52472
1.3                     1.006973        13.68486
1.304                   1.001864        12.93895
1.308                  0.9958113         12.3232
1.312                   0.989862        11.85223
1.316                  0.9850906        11.51429
1.32                      0.9824        11.27102
1.324                   0.982339        11.06312
1.328                  0.9849809        10.82149
1.332                  0.9898944         10.4814
1.336                  0.9962201        9.995562
1.34                    1.002829        9.342868
1.344                   1.008529        8.531186
1.348                   1.012268        7.594775
1.352                   1.013314        6.587987
1.356                   1.011378        5.576858
1.36                    1.006671        4.629613
1.364                  0.9998922        3.806537
1.368                  0.9921375        3.149688
1.372                  0.9847383        2.673567
1.376                   0.979037        2.358905
1.38                   0.9761323        2.152432
1.384                  0.9766483        1.974731
1.388                  0.9805856        1.735639
1.392                  0.9872993        1.353257
1.396                  0.9956137       0.7707999
1.4                      1.00404     -0.03333735
1.404                   1.011043       -1.043627
1.408                     1.0153       -2.212009
1.412                   1.015915        -3.46637
1.416                   1.012567       -4.720805
1.42                    1.005584       -5.886842
1.424                  0.9959279       -6.885683
1.428                  0.9850892       -7.661608
1.432                  0.9748836       -8.195444
1.436                  0.9671521       -8.514973
1.44                   0.9634076       -8.697197
1.444                  0.9644978       -8.857964
1.448                  0.9703816       -9.128987
1.452                  0.9800959       -9.628818
1.456                   0.991926       -10.43795
1.46                    1.003721       -11.58555
1.464                   1.013269       -13.04885
1.468                   1.018649       -14.76116
1.472                   1.018516       -16.62357
1.476                   1.012308       -18.51705
1.48                     1.00037        -20.3147
1.484                  0.9839811       -21.89584
1.488                  0.9652849       -23.16429
1.492                  0.9470694       -24.07235
1.496                  0.9323705       -24.64699
1.5                    0.9239026        -25.0081
1.504                   0.923409       -25.36349
1.508                   0.931134       -25.97171
1.512                  0.9456284       -27.08364
1.516                  0.9639656       -28.88994
1.52                   0.9822547       -31.49682
1.524                  0.9962373       -34.93229
1.528                   1.001802       -39.16976
1.532                  0.9953502       -44.15456
1.536                  0.9740272       -49.82586
1.54                   0.9358446       -56.13332
1.544                  0.8797404       -63.05118
1.548                   0.805598       -70.59583
1.552                  0.7142502       -78.85719
