! TOUCHSTONE file generated by CST MICROWAVE STUDIO
! Date and time: Thu Jun  9 16:03:44 2022
! Project name: AppElm_antenne_patch_Alumina.cst
! Parameters = {L=30.5; W=41.8; e=0.035; h=1.6; lambda=0.190476; ls=103.5; w0=1.12; w1=0.373; ws=90; y0=14; y1=10}
! Header version: 2018
! Port assignment regex: !\s*Touchstone port\s*([0-9]+)\s*=\s*(CST MWS port|CST DS port)\s*([0-9]+|Zmin|Zmax)\s*\(\"(.*)\"\)(\s*mode\s*([0-9]+))?.*
! Touchstone port assignment:
! Touchstone port 1 = CST MWS port 1 ("")
# GHz S MA R 50
0                      0.9792784              -0
0.004                  0.9804175       -10.35608
0.008                   0.983685       -20.60204
0.012                  0.9886544       -30.63466
0.016                  0.9946879       -40.36314
0.02                    1.001029       -49.71215
0.024                   1.006908       -58.62248
0.028                   1.011638        -67.0499
0.032                   1.014699        -74.9631
0.036                    1.01579       -82.34166
0.04                    1.014864       -89.17462
0.044                   1.012122        -95.4601
0.048                   1.007986       -101.2057
0.052                   1.003044       -106.4297
0.056                  0.9979786        -111.162
0.06                    0.993468       -115.4449
0.064                  0.9900995        -119.332
0.068                  0.9882836       -122.8853
0.072                  0.9881976       -126.1705
0.076                  0.9897636       -129.2511
0.08                   0.9926693       -132.1826
0.084                  0.9964237       -135.0078
0.088                   1.000438       -137.7541
0.092                   1.004115       -140.4336
0.096                   1.006938       -143.0445
0.1                     1.008536       -145.5745
0.104                    1.00873       -148.0052
0.108                   1.007554       -150.3156
0.112                   1.005238       -152.4874
0.116                   1.002174       -154.5079
0.12                   0.9988576       -156.3738
0.124                  0.9958089       -158.0923
0.128                  0.9934958       -159.6815
0.132                    0.99226       -161.1685
0.136                  0.9922642       -162.5859
0.14                   0.9934696       -163.9671
0.144                  0.9956461       -165.3411
0.148                  0.9984163       -166.7292
0.152                    1.00132       -168.1416
0.156                   1.003892       -169.5776
0.16                    1.005732       -171.0261
0.164                   1.006568       -172.4689
0.168                   1.006292       -173.8835
0.172                   1.004974       -175.2469
0.176                   1.002848       -176.5398
0.18                    1.000275       -177.7495
0.184                   0.997683       -178.8722
0.188                  0.9954982       -179.9141
0.192                   0.994076        179.1091
0.196                  0.9936405         178.175
0.2                    0.9942483        177.2577
0.204                  0.9957801        176.3322
0.208                  0.9979643        175.3791
0.212                   1.000426        174.3868
0.216                    1.00275        173.3536
0.22                    1.004555        172.2873
0.224                   1.005549        171.2033
0.228                   1.005579        170.1222
0.232                   1.004652        169.0659
0.236                   1.002934        168.0545
0.24                     1.00072        167.1026
0.244                  0.9983871        166.2172
0.248                  0.9963305        165.3959
0.252                  0.9948983        164.6274
0.256                  0.9943301        163.8929
0.26                   0.9947162        163.1698
0.264                  0.9959816        162.4351
0.268                  0.9979016          161.67
0.272                   1.000141        160.8626
0.276                   1.002316        160.0101
0.28                    1.004057        159.1185
0.284                   1.005072         158.202
0.288                   1.005196        157.2796
0.292                   1.004413        156.3726
0.296                   1.002861        155.5008
0.3                     1.000809        154.6792
0.304                  0.9986094        153.9157
0.308                  0.9966424        153.2091
0.312                  0.9952477        152.5496
0.316                  0.9946658          151.92
0.32                    0.994995        151.2987
0.324                  0.9961743        150.6639
0.328                  0.9979941        149.9972
0.332                   1.000135        149.2868
0.336                   1.002225        148.5298
0.34                    1.003904        147.7319
0.344                   1.004885        146.9067
0.348                   1.005001        146.0729
0.352                   1.004236        145.2515
0.356                   1.002722        144.4619
0.36                    1.000723        143.7191
0.364                  0.9985851        143.0309
0.368                  0.9966811         142.396
0.372                  0.9953448         141.805
0.376                   0.994811        141.2407
0.38                   0.9951727         140.682
0.384                  0.9963651        140.1074
0.388                  0.9981767         139.499
0.392                   1.000288        138.8456
0.396                   1.002329        138.1446
0.4                     1.003944        137.4022
0.404                   1.004853        136.6324
0.408                   1.004899        135.8541
0.412                   1.004074        135.0881
0.416                   1.002521        134.3539
0.42                     1.00051        133.6659
0.424                  0.9983913        133.0312
0.428                  0.9965377        132.4482
0.432                  0.9952775        131.9065
0.436                  0.9948343        131.3886
0.44                   0.9952883        130.8731
0.444                  0.9965586        130.3386
0.448                  0.9984202        129.7678
0.452                   1.000544        129.1501
0.456                   1.002554         128.484
0.46                      1.0041        127.7767
0.464                    1.00491         127.043
0.468                   1.004842        126.3024
0.472                   1.003906         125.576
0.476                   1.002264         124.883
0.48                    1.000202        124.2374
0.484                  0.9980816        123.6452
0.488                  0.9962785        123.1036
0.492                  0.9951141        122.6011
0.496                   0.994798        122.1191
0.5                    0.9953889        121.6357
0.504                  0.9967831        121.1295
0.508                  0.9987328        120.5836
0.512                   1.000892        119.9888
0.516                   1.002879        119.3448
0.52                    1.004343        118.6602
0.524                   1.005026         117.951
0.528                   1.004806        117.2378
0.532                   1.003718        116.5419
0.536                   1.001951        115.8824
0.54                   0.9998132        115.2723
0.544                   0.997681        114.7165
0.548                  0.9959341        114.2104
0.552                  0.9948868        113.7409
0.556                  0.9947292        113.2883
0.56                   0.9954931        112.8297
0.564                  0.9970435        112.3438
0.568                  0.9991047        111.8146
0.572                    1.00131        111.2339
0.576                   1.003268        110.6034
0.58                    1.004631        109.9334
0.584                   1.005156        109.2416
0.588                   1.004749        108.5494
0.592                   1.003475        107.8786
0.596                   1.001555        107.2481
0.6                    0.9993248        106.6697
0.604                  0.9971795        106.1467
0.608                  0.9955025        105.6727
0.612                  0.9945974        105.2325
0.616                  0.9946307        104.8047
0.62                   0.9956003        104.3657
0.624                  0.9973347        103.8943
0.628                  0.9995251        103.3753
0.632                    1.00178        102.8023
0.636                   1.003699         102.179
0.64                     1.00494         101.518
0.644                    1.00528        100.8384
0.648                   1.004654         100.163
0.652                   1.003167        99.51409
0.656                   1.001077        98.90984
0.66                   0.9987503        98.36095
0.664                  0.9966013        97.86867
0.668                  0.9950167        97.42424
0.672                  0.9942855        97.01017
0.676                   0.994545        96.60336
0.68                   0.9957531        96.17943
0.684                   0.997696        95.71724
0.688                   1.000027        95.20288
0.692                    1.00233        94.63206
0.696                   1.004195        94.01072
0.7                     1.005287        93.35381
0.704                   1.005409        92.68252
0.708                   1.004534        92.02085
0.712                   1.002808        91.39141
0.716                   1.000532        90.81166
0.72                   0.9981078        90.29077
0.724                  0.9959676        89.82756
0.728                  0.9944994        89.41063
0.732                  0.9939732        89.01995
0.736                  0.9944906        88.63059
0.74                   0.9959638        88.21734
0.744                  0.9981311         87.7595
0.748                   1.000605        87.24469
0.752                   1.002943        86.67098
0.756                   1.004728        86.04706
0.76                    1.005636        85.39043
0.764                   1.005503        84.72448
0.768                   1.004342        84.07438
0.772                    1.00235        83.46301
0.776                  0.9998753        82.90689
0.78                   0.9973541        82.41321
0.784                  0.9952389        81.97812
0.788                  0.9939149        81.58717
0.792                  0.9936282        81.21754
0.796                  0.9944377        80.84239
0.8                    0.9962031        80.43579
0.804                    0.99861         79.9777
0.808                   1.001227        79.45769
0.812                   1.003585        78.87654
0.816                   1.005261        78.24596
0.82                    1.005951        77.58637
0.824                   1.005524        76.92332
0.828                   1.004046        76.28328
0.832                   1.001768        75.68916
0.836                  0.9990866        75.15627
0.84                   0.9964794        74.68945
0.844                  0.9944159        74.28173
0.848                  0.9932746        73.91522
0.852                  0.9932707        73.56418
0.856                  0.9944137        73.19969
0.86                   0.9965036        72.79532
0.864                  0.9991673        72.33205
0.868                   1.001928        71.80172
0.872                   1.004289        71.20823
0.876                   1.005827        70.56674
0.88                     1.00626        69.90074
0.884                     1.0055        69.23815
0.888                    1.00367        68.60664
0.892                   1.001082        68.02894
0.896                  0.9981901        67.51889
0.9                    0.9955097        67.07851
0.904                  0.9935269        66.69724
0.908                   0.992609        66.35342
0.912                  0.9929333        66.01803
0.916                  0.9944511        65.66022
0.92                   0.9968952        65.25318
0.924                  0.9998287        64.77926
0.928                   1.002726        64.23302
0.932                   1.005065        63.62201
0.936                   1.006425        62.96509
0.94                    1.006552        62.28916
0.944                    1.00541         61.6246
0.948                   1.003185        61.00023
0.952                   1.000259        60.43846
0.956                  0.9971464        59.95118
0.96                   0.9944038        59.53717
0.964                  0.9925324        59.18174
0.968                   0.991882          58.859
0.972                  0.9925837        58.53645
0.976                  0.9945217        58.18119
0.98                   0.9973532        57.76634
0.984                   1.000571        57.27601
0.988                   1.003598        56.70798
0.992                   1.005889        56.07389
0.996                   1.007026        55.39679
1                       1.006794        54.70727
1.004                   1.005215        54.03828
1.008                    1.00255        53.41982
1.012                  0.9992565        52.87367
1.016                  0.9959157        52.40941
1.02                   0.9931288          52.022
1.024                  0.9914087        51.69199
1.028                  0.9910827         51.3887
1.032                   0.992226        51.07584
1.036                  0.9946446        50.71848
1.04                     0.99791        50.28984
1.044                   1.001438        49.77627
1.048                   1.004594        49.17936
1.052                    1.00681        48.51538
1.056                   1.007679        47.81212
1.06                    1.007028         47.1042
1.064                   1.004948        46.42743
1.068                   1.001785        45.81293
1.072                  0.9980854         45.2817
1.076                  0.9945027         44.8405
1.08                   0.9916866        44.47975
1.084                  0.9901611        44.17454
1.088                  0.9902233        43.88873
1.092                   0.991882        43.58178
1.096                  0.9948521        43.21662
1.1                    0.9986066        42.76689
1.104                   1.002473        42.22162
1.108                   1.005758        41.58694
1.112                   1.007865        40.88442
1.116                   1.008402        40.14722
1.12                    1.007248        39.41458
1.124                   1.004576        38.72551
1.128                   1.000831        38.11239
1.132                  0.9966576        37.59529
1.136                  0.9927977        37.17753
1.14                   0.9899552        36.84421
1.144                  0.9886653        36.56396
1.148                   0.989188        36.29419
1.152                  0.9914527        35.98948
1.156                  0.9950667        35.61038
1.16                   0.9993875        35.13107
1.164                   1.003641          34.544
1.168                   1.007062        33.86043
1.172                   1.009026        33.10832
1.176                   1.009158          32.327
1.18                    1.007397         31.5612
1.184                   1.004014         30.8537
1.188                  0.9995687        30.23854
1.192                  0.9948296        29.73462
1.196                  0.9906412        29.34136
1.2                    0.9877745        29.03734
1.204                   0.986779        28.78317
1.208                  0.9878709        28.52854
1.212                   0.990883        28.22192
1.216                  0.9952922        27.82099
1.22                    1.000315        27.30066
1.224                   1.005054        26.65729
1.228                   1.008654        25.90854
1.232                   1.010454        25.08979
1.236                   1.010096        24.24814
1.24                    1.007592        23.43497
1.244                   1.003326         22.6981
1.248                  0.9980037        22.07385
1.252                  0.9925457        21.58011
1.256                  0.9879307        21.21152
1.26                    0.985019        20.93865
1.264                  0.9843844        20.71199
1.268                  0.9861922        20.47099
1.272                  0.9901565        20.15622
1.276                   0.995589        19.72137
1.28                    1.001527        19.14198
1.284                   1.006909        18.41916
1.288                   1.010762        17.57839
1.292                   1.012367        16.66452
1.296                    1.01138        15.73445
1.3                     1.007894        14.84863
1.304                   1.002436        14.06194
1.308                   0.995901        13.41466
1.312                  0.9894134        12.92424
1.316                  0.9841412        12.57986
1.32                   0.9810805        12.34156
1.324                  0.9808541        12.14596
1.328                  0.9835739        11.91812
1.332                  0.9888031        11.58695
1.336                  0.9956334        11.09977
1.34                    1.002853        10.43203
1.344                   1.009169        9.590546
1.348                   1.013427          8.6108
1.352                   1.014809         7.55024
1.356                   1.012964        6.479425
1.36                    1.008075         5.47209
1.364                   1.000858        4.594523
1.368                   0.992465        3.894592
1.372                  0.9843271        3.391411
1.376                  0.9779116         3.06791
1.38                   0.9744504         2.86953
1.384                  0.9746809        2.711764
1.388                  0.9786721        2.496412
1.392                  0.9857858        2.132476
1.396                  0.9947902        1.555142
1.4                      1.00409        0.737416
1.404                   1.012014      -0.3073331
1.408                   1.017094        -1.53015
1.412                   1.018304       -2.855475
1.416                    1.01522       -4.191902
1.42                    1.008109       -5.443738
1.424                  0.9979305       -6.523619
1.428                  0.9862338       -7.366596
1.432                  0.9749617       -7.944985
1.436                  0.9661391       -8.280951
1.44                   0.9614934       -8.451167
1.444                  0.9620733       -8.577865
1.448                  0.9679794        -8.80501
1.452                  0.9782956       -9.266156
1.456                  0.9912496       -10.05564
1.46                    1.004547       -11.21245
1.464                   1.015773       -12.71873
1.468                    1.02278       -14.50826
1.472                      1.024       -16.47911
1.476                   1.018672       -18.50635
1.48                    1.006987       -20.45431
1.484                  0.9901431       -22.19012
1.488                  0.9702959        -23.6016
1.492                  0.9503727         -24.622
1.496                  0.9336922       -25.25969
1.5                    0.9233813       -25.62309
1.504                    0.92166       -25.92291
1.508                  0.9292017       -26.43778
1.512                  0.9448299       -27.45022
1.516                  0.9656846       -29.18324
1.52                    0.987758       -31.76749
1.524                   1.006556       -35.24518
1.528                   1.017681       -39.59634
1.532                   1.017248        -44.7697
1.536                    1.00214       -50.70864
1.54                   0.9701568       -57.37097
1.544                  0.9200865       -64.74597
1.548                  0.8517491        -72.8752
1.552                  0.7660396       -81.88851
