! TOUCHSTONE file generated by CST MICROWAVE STUDIO
! Date and time: Tue Jun  7 22:11:16 2022
! Project name: AppElm_antenne_patch_FR4.cst
! Parameters = {L=45; W=58.5; e=0.035; h=1.6; lambda=0.190476; ls=120; w0=1.6; w1=0.5064; ws=120; y0=20; y1=23.81}
! Header version: 2018
! Port assignment regex: !\s*Touchstone port\s*([0-9]+)\s*=\s*(CST MWS port|CST DS port)\s*([0-9]+|Zmin|Zmax)\s*\(\"(.*)\"\)(\s*mode\s*([0-9]+))?.*
! Touchstone port assignment:
! Touchstone port 1 = CST MWS port 1 ("")
# GHz S MA R 50
0                      0.9890846              -0
0.004                  0.9897328       -9.927963
0.008                  0.9915885       -19.76879
0.012                   0.994399       -29.43962
0.016                  0.9977855       -38.86538
0.02                      1.0013       -47.98128
0.024                   1.004489       -56.73396
0.028                   1.006955       -65.08158
0.032                   1.008407       -72.99339
0.036                   1.008698       -80.44898
0.04                    1.007839       -87.43784
0.044                   1.005992       -93.95891
0.048                   1.003448       -100.0207
0.052                   1.000584       -105.6412
0.056                  0.9978073       -110.8477
0.06                   0.9955019       -115.6758
0.064                  0.9939689       -120.1676
0.068                  0.9933879       -124.3689
0.072                  0.9937915       -128.3256
0.076                  0.9950665       -132.0806
0.08                   0.9969769       -135.6702
0.084                  0.9992051       -139.1218
0.088                   1.001403       -142.4535
0.092                   1.003245       -145.6743
0.096                   1.004477       -148.7851
0.1                     1.004945       -151.7818
0.104                   1.004621       -154.6573
0.108                   1.003593       -157.4045
0.112                   1.002054       -160.0189
0.116                   1.000267       -162.5003
0.12                    0.998523       -164.8544
0.124                  0.9970949       -167.0923
0.128                  0.9961962       -169.2306
0.132                  0.9959484       -171.2888
0.136                  0.9963644       -173.2874
0.14                   0.9973507       -175.2451
0.144                  0.9987259       -177.1769
0.148                   1.000254        -179.092
0.152                   1.001683        179.0066
0.156                   1.002787        177.1216
0.16                    1.003402        175.2603
0.164                   1.003445         173.433
0.168                   1.002931        171.6505
0.172                    1.00196        169.9224
0.176                   1.000705        168.2553
0.18                   0.9993798        166.6511
0.184                  0.9982044        165.1069
0.188                   0.997368         163.615
0.192                  0.9969989        162.1639
0.196                  0.9971452        160.7404
0.2                    0.9977676        159.3315
0.204                  0.9987492        157.9261
0.208                  0.9999165         156.517
0.212                    1.00107        155.1016
0.216                   1.002018         153.682
0.22                    1.002608        152.2645
0.224                    1.00275         150.858
0.228                    1.00243        149.4728
0.232                   1.001711        148.1182
0.236                   1.000722        146.8015
0.24                   0.9996329        145.5263
0.244                  0.9986289        144.2921
0.248                  0.9978773        143.0941
0.252                  0.9975003         141.924
0.256                  0.9975543        140.7715
0.26                   0.9980222        139.6258
0.264                  0.9988167        138.4777
0.268                  0.9997967        137.3208
0.272                   1.000792        136.1525
0.276                   1.001635        134.9743
0.28                    1.002183        133.7916
0.284                   1.002349        132.6121
0.288                   1.002109        131.4453
0.292                    1.00151        130.2998
0.296                   1.000658        129.1828
0.3                    0.9997005        128.0983
0.304                  0.9988025        127.0464
0.308                  0.9981167        126.0235
0.312                  0.9977582        125.0228
0.316                  0.9977848        124.0353
0.32                   0.9981873        123.0515
0.324                  0.9988921         122.063
0.328                  0.9997746        121.0639
0.332                   1.000681        120.0515
0.336                   1.001455        119.0274
0.34                    1.001966        117.9961
0.344                   1.002128        116.9651
0.348                   1.001916         115.943
0.352                    1.00137        114.9381
0.356                   1.000587        113.9572
0.36                   0.9997032        113.0042
0.364                  0.9988723        112.0796
0.368                  0.9982381        111.1802
0.372                  0.9979096        110.2996
0.376                  0.9979424        109.4295
0.38                   0.9983288        108.5611
0.384                  0.9989994        107.6864
0.388                  0.9998362        106.7998
0.392                   1.000693        105.8991
0.396                    1.00142        104.9855
0.4                     1.001893        104.0638
0.404                   1.002031        103.1409
0.408                   1.001811        102.2254
0.412                   1.001272        101.3252
0.416                    1.00051        100.4469
0.42                   0.9996564         99.5943
0.424                  0.9988615        98.76763
0.428                  0.9982636        97.96375
0.432                  0.9979673        97.17642
0.436                  0.9980237        96.39752
0.44                   0.9984222         95.6184
0.444                  0.9990919        94.83142
0.448                  0.9999151        94.03133
0.452                   1.000747        93.21615
0.456                   1.001441        92.38742
0.46                    1.001877        91.54991
0.464                   1.001979        90.71085
0.468                   1.001728        89.87852
0.472                   1.001169        89.06092
0.476                     1.0004        88.26436
0.48                   0.9995545         87.4923
0.484                  0.9987819        86.74479
0.488                  0.9982185        86.01832
0.492                  0.9979638         85.3065
0.496                   0.998063        84.60104
0.5                    0.9984991        83.89335
0.504                   0.999195          83.176
0.508                   1.000028        82.44405
0.512                    1.00085         81.6959
0.516                   1.001518        80.93354
0.52                    1.001911        80.16218
0.524                   1.001961        79.38932
0.528                   1.001657        78.62344
0.532                   1.001051        77.87253
0.536                   1.000248        77.14268
0.54                   0.9993898        76.43701
0.544                  0.9986266        75.75508
0.548                  0.9980942        75.09289
0.552                  0.9978873        74.44351
0.556                  0.9980436        73.79841
0.56                   0.9985362        73.14885
0.564                  0.9992782        72.48752
0.568                   1.000138        71.80983
0.572                   1.000964        71.11471
0.576                   1.001607        70.40478
0.58                    1.001955        69.68586
0.584                   1.001942        68.96593
0.588                    1.00157        68.25378
0.592                   1.000903        67.55742
0.596                   1.000056        66.88275
0.6                    0.9991788         66.2324
0.604                  0.9984277        65.60523
0.608                  0.9979369        64.99657
0.612                  0.9977959         64.3988
0.616                  0.9980318         63.8029
0.62                   0.9986046        63.19991
0.624                  0.9994134        62.58271
0.628                   1.000315        61.94709
0.632                    1.00115        61.29273
0.636                   1.001768        60.62302
0.64                    1.002057        59.94464
0.644                   1.001965        59.26621
0.648                   1.001503        58.59694
0.652                   1.000752        57.94493
0.656                  0.9998424        57.31576
0.66                   0.9989346        56.71148
0.664                  0.9981909        56.13012
0.668                  0.9977452        55.56604
0.672                  0.9976797         55.0108
0.676                  0.9980086        54.45473
0.68                   0.9986755        53.88866
0.684                  0.9995624        53.30559
0.688                   1.000512        52.70192
0.692                   1.001354        52.07815
0.696                   1.001938        51.43872
0.7                     1.002155        50.79124
0.704                   1.001965        50.14518
0.708                   1.001397        49.51018
0.712                   1.000548        48.89441
0.716                  0.9995683        48.30305
0.72                   0.9986308        47.73735
0.724                  0.9979045        47.19429
0.728                   0.997522        46.66707
0.732                  0.9975552        46.14624
0.736                   0.998002        45.62141
0.74                   0.9987853        45.08317
0.744                  0.9997671        44.52477
0.748                   1.000772        43.94335
0.752                    1.00162        43.34049
0.756                   1.002157        42.72186
0.76                    1.002284        42.09625
0.764                   1.001972        41.47407
0.768                   1.001273        40.86547
0.772                   1.000306         40.2786
0.776                  0.9992414        39.71816
0.78                   0.9982683        39.18439
0.784                  0.9975623          38.673
0.788                  0.9972533         38.1758
0.792                  0.9974003        37.68217
0.796                  0.9979811        37.18094
0.8                    0.9988941        36.66247
0.804                  0.9999774        36.12039
0.808                   1.001037         35.5528
0.812                    1.00188        34.96254
0.816                   1.002353        34.35676
0.82                    1.002366        33.74559
0.824                    1.00191        33.14046
0.828                    1.00106        32.55203
0.832                  0.9999629        31.98836
0.836                  0.9988122        31.45341
0.84                    0.997814        30.94617
0.844                  0.9971502         30.4608
0.848                  0.9969448        29.98749
0.852                  0.9972404        29.51426
0.856                  0.9979892        29.02911
0.86                   0.9990604        28.52225
0.864                   1.000264        27.98789
0.868                   1.001384         27.4253
0.872                   1.002217        26.83893
0.876                    1.00261        26.23763
0.88                    1.002485         25.6331
0.884                   1.001857        25.03788
0.888                   1.000831        24.46318
0.892                  0.9995842        23.91682
0.896                  0.9983383        23.40183
0.9                    0.9973171        22.91567
0.904                   0.996708        22.45064
0.908                  0.9966263        21.99507
0.912                  0.9970936        21.53547
0.916                  0.9980313        21.05899
0.92                   0.9992748         20.5558
0.924                   1.000602        20.02091
0.928                   1.001773        19.45505
0.932                   1.002575        18.86459
0.936                   1.002855        18.26035
0.94                    1.002557        17.65579
0.944                   1.001722        17.06467
0.948                   1.000491        16.49865
0.952                  0.9990799        15.96516
0.956                  0.9977384        15.46595
0.96                   0.9967104        14.99662
0.964                   0.996187        14.54719
0.968                  0.9962712        14.10382
0.972                  0.9969566        13.65133
0.976                  0.9981273        13.17598
0.98                   0.9995776        12.66804
0.984                   1.001049        12.12361
0.988                   1.002275        11.54526
0.992                   1.003031        10.94164
0.996                   1.003173        10.32593
1                       1.002664        9.713588
1.004                   1.001583        9.119723
1.008                   1.000114        8.556417
1.012                  0.9985127        8.030512
1.016                   0.997066        7.542198
1.02                   0.9960377        7.084747
1.024                  0.9956211         6.64552
1.028                  0.9959014        6.208164
1.032                  0.9968383        5.755595
1.036                  0.9982704        5.273201
1.04                   0.9999443        4.751561
1.044                   1.001559         4.18818
1.048                   1.002821        3.587932
1.052                   1.003493        2.962195
1.056                   1.003444        2.326897
1.06                    1.002665        1.699806
1.064                   1.001281        1.097489
1.068                  0.9995251       0.5323893
1.072                  0.9977061      0.01046967
1.076                  0.9961498      -0.4701152
1.08                   0.9951431      -0.9189976
1.084                   0.994879       -1.352088
1.088                  0.9954187       -1.788773
1.092                   0.996678       -2.248328
1.096                  0.9984397       -2.746297
1.1                     1.000392       -3.291587
1.104                   1.002184       -3.884865
1.108                   1.003488       -4.518379
1.112                   1.004059        -5.17741
1.116                   1.003777       -5.842779
1.12                    1.002673       -6.493943
1.124                   1.000925       -7.112621
1.128                  0.9988303       -7.686034
1.132                  0.9967571        -8.20938
1.136                  0.9950801       -8.687053
1.14                   0.9941112       -9.132281
1.144                   0.994041       -9.564976
1.148                  0.9948995       -10.00817
1.152                  0.9965472       -10.48371
1.156                  0.9986975        -11.0081
1.16                    1.000968       -11.58946
1.164                   1.002947       -12.22602
1.168                   1.004269       -12.90651
1.172                   1.004678       -13.61204
1.176                   1.004075       -14.31934
1.18                    1.002539       -15.00456
1.184                   1.000318       -15.64735
1.188                  0.9977884       -16.23458
1.192                  0.9953962       -16.76298
1.196                  0.9935759        -17.2403
1.2                    0.9926711       -17.68445
1.204                  0.9928678       -18.12051
1.208                  0.9941545       -18.57623
1.212                  0.9963198       -19.07671
1.216                  0.9989876       -19.63968
1.22                    1.001684       -20.27219
1.224                   1.003919       -20.96935
1.228                   1.005279       -21.71532
1.232                   1.005493       -22.48592
1.236                   1.004488       -23.25264
1.24                    1.002404       -23.98728
1.244                  0.9995767       -24.66677
1.248                  0.9964882       -25.27738
1.252                  0.9936843       -25.81778
1.256                  0.9916792       -26.30007
1.26                   0.9908587       -26.74832
1.264                  0.9914036       -27.19448
1.268                  0.9932476       -27.67256
1.272                  0.9960842         -28.212
1.276                  0.9994179       -28.83211
1.28                    1.002652        -29.5385
1.284                   1.005193       -30.32216
1.288                   1.006558       -31.16112
1.292                   1.006457       -32.02407
1.296                   1.004848       -32.87535
1.3                     1.001954       -33.68067
1.304                  0.9982332       -34.41288
1.308                  0.9943124       -35.05713
1.312                  0.9908821       -35.61451
1.316                  0.9885745       -36.10311
1.32                   0.9878425       -36.55577
1.324                  0.9888655       -37.01456
1.328                   0.991505       -37.52282
1.332                  0.9953206        -38.1167
1.336                  0.9996448       -38.81825
1.34                    1.003702       -39.63145
1.344                   1.006742       -40.54175
1.348                   1.008173       -41.51868
1.352                   1.007662       -42.52073
1.356                   1.005202       -43.50171
1.36                    1.001126       -44.41787
1.364                  0.9960658       -45.23518
1.368                  0.9908644       -45.93613
1.372                  0.9864373       -46.52447
1.376                  0.9836096       -47.02681
1.38                   0.9829533       -47.48951
1.384                  0.9846631       -47.97075
1.388                  0.9884999       -48.52935
1.392                  0.9938206       -49.21298
1.396                  0.9996875       -50.04903
1.4                     1.005032       -51.03991
1.404                   1.008837       -52.16317
1.408                   1.010313       -53.37552
1.412                   1.009029        -54.6193
1.416                   1.005002        -55.8307
1.42                   0.9987171       -56.94889
1.424                  0.9910842       -57.92588
1.428                   0.983317       -58.73637
1.432                  0.9767474       -59.38573
1.436                  0.9725888       -59.91377
1.44                   0.9716902       -60.39119
1.444                  0.9743373       -60.90792
1.448                  0.9801591       -61.55529
1.452                  0.9881676        -62.4072
1.456                   0.996923       -63.50605
1.46                    1.004779       -64.85632
1.464                   1.010155       -66.42554
1.468                    1.01179       -68.15049
1.472                   1.008939       -69.94615
1.476                   1.001523        -71.7156
1.48                   0.9901849       -73.36173
1.484                  0.9762799       -74.80109
1.488                   0.961746       -75.98075
1.492                  0.9488553       -76.89708
1.496                   0.939832       -77.61098
1.5                    0.9363853       -78.25136
1.504                  0.9392593       -78.99904
1.508                  0.9479468       -80.05223
1.512                  0.9606694        -81.5858
1.516                  0.9746236       -83.72083
1.52                   0.9863868       -86.51416
1.524                  0.9923541       -89.96521
1.528                  0.9891097       -94.03137
1.532                  0.9736991        -98.6439
1.536                  0.9438077       -103.7194
1.54                   0.8978641       -109.1659
1.544                  0.8350896       -114.8826
1.548                   0.755509       -120.7523
1.552                  0.6599362       -126.6206
