! TOUCHSTONE file generated by CST MICROWAVE STUDIO
! Date and time: Tue Jun 14 14:31:17 2022
! Project name: AppElm_antenne_patch_FR4.cst
! Parameters = {L=45; W=58.5; e=0.035; h=1.6; lambda=0.190476; ls=126; w0=2.54; w1=0.847; ws=120; y0=18; y1=23.8}
! Header version: 2018
! Port assignment regex: !\s*Touchstone port\s*([0-9]+)\s*=\s*(CST MWS port|CST DS port)\s*([0-9]+|Zmin|Zmax)\s*\(\"(.*)\"\)(\s*mode\s*([0-9]+))?.*
! Touchstone port assignment:
! Touchstone port 1 = CST MWS port 1 ("")
# GHz S MA R 50
0                      0.9875177              -0
0.004                  0.9882566       -9.978187
0.008                  0.9903719       -19.86333
0.012                  0.9935744       -29.56723
0.016                  0.9974319       -39.01048
0.02                    1.001434       -48.12515
0.024                   1.005063       -56.85581
0.028                    1.00787       -65.15955
0.032                   1.009525        -73.0052
0.036                   1.009861       -80.37235
0.04                    1.008892       -87.25076
0.044                   1.006801          -93.64
0.048                    1.00392       -99.54958
0.052                   1.000675       -104.9991
0.056                  0.9975308       -110.0181
0.06                   0.9949215       -114.6452
0.064                  0.9931906       -118.9264
0.068                  0.9925404       -122.9116
0.072                  0.9930073       -126.6513
0.076                  0.9944605       -130.1919
0.08                   0.9966299       -133.5725
0.084                  0.9991537       -136.8225
0.088                   1.001636       -139.9605
0.092                   1.003709       -142.9945
0.096                   1.005085       -145.9244
0.1                     1.005593       -148.7437
0.104                   1.005204       -151.4432
0.108                   1.004021       -154.0138
0.112                   1.002266       -156.4493
0.116                   1.000238       -158.7488
0.12                   0.9982689       -160.9178
0.124                  0.9966672       -162.9685
0.128                  0.9956735       -164.9191
0.132                  0.9954225       -166.7911
0.136                  0.9959248       -168.6075
0.14                   0.9970691       -170.3887
0.144                  0.9986455       -172.1511
0.148                   1.000383       -173.9044
0.152                   1.001994       -175.6513
0.156                   1.003225        -177.388
0.16                     1.00389       -179.1057
0.164                   1.003901        179.2079
0.168                    1.00328        177.5654
0.172                   1.002146        175.9781
0.176                     1.0007        174.4532
0.18                    0.999189        172.9932
0.184                  0.9978631        171.5946
0.188                  0.9969372        170.2484
0.192                  0.9965539        168.9417
0.196                  0.9967624        167.6592
0.2                     0.997512        166.3862
0.204                  0.9986629        165.1104
0.208                   1.000013         163.824
0.212                    1.00133        162.5245
0.216                   1.002396        161.2148
0.22                    1.003039        159.9025
0.224                   1.003161        158.5983
0.228                   1.002752        157.3139
0.232                    1.00189        156.0604
0.236                   1.000729         154.846
0.24                   0.9994676        153.6746
0.244                  0.9983202        152.5453
0.248                  0.9974789        151.4525
0.252                  0.9970804        150.3862
0.256                   0.997185        149.3345
0.26                   0.9977661        148.2851
0.264                  0.9987166        147.2274
0.268                  0.9998685        146.1541
0.272                   1.001023        145.0629
0.276                   1.001983         143.956
0.28                    1.002589        142.8398
0.284                   1.002743        141.7239
0.288                   1.002424         140.619
0.292                   1.001692        139.5356
0.296                   1.000675        138.4817
0.3                    0.9995508        137.4617
0.304                   0.998511        136.4757
0.308                  0.9977335         135.519
0.312                  0.9973491        134.5834
0.316                  0.9974201        133.6584
0.32                   0.9979297        132.7327
0.324                   0.998786        131.7966
0.328                   0.999838        130.8436
0.332                   1.000903         129.871
0.336                   1.001798        128.8808
0.34                     1.00237        127.8788
0.344                   1.002524        126.8741
0.348                   1.002236        125.8769
0.352                   1.001559         124.897
0.356                   1.000611        123.9423
0.36                   0.9995557        123.0173
0.364                  0.9985771        122.1222
0.368                   0.997844         121.253
0.372                  0.9974823         120.402
0.376                  0.9975539        119.5592
0.38                    0.998044        118.7141
0.384                  0.9988658        117.8573
0.388                  0.9998752        116.9826
0.392                   1.000896        116.0874
0.396                   1.001752        115.1737
0.4                     1.002296        114.2473
0.404                   1.002434        113.3169
0.408                   1.002144        112.3924
0.412                   1.001478        111.4836
0.416                   1.000551        110.5981
0.42                   0.9995241        109.7404
0.424                  0.9985775        108.9105
0.428                   0.997876        108.1046
0.432                  0.9975424         107.315
0.436                  0.9976347        106.5319
0.44                    0.998137        105.7449
0.444                  0.9989608        104.9451
0.448                  0.9999619        104.1262
0.452                   1.000965         103.286
0.456                   1.001796        102.4267
0.46                    1.002308        101.5541
0.464                   1.002414        100.6772
0.468                   1.002094        99.80585
0.472                   1.001402        98.94983
0.476                   1.000459        98.11669
0.48                   0.9994289        97.31056
0.484                  0.9984906        96.53146
0.488                  0.9978095        95.77514
0.492                  0.9975051        95.03375
0.496                  0.9976319        94.29733
0.5                    0.9981679        93.55542
0.504                   0.999019        92.79907
0.508                   1.000036        92.02234
0.512                   1.001039        91.22333
0.516                   1.001853        90.40454
0.52                    1.002333        89.57231
0.524                   1.002395        88.73576
0.528                   1.002025        87.90523
0.532                   1.001286        87.09045
0.536                   1.000305        86.29893
0.54                   0.9992537        85.53458
0.544                  0.9983153        84.79694
0.548                  0.9976561        84.08129
0.552                  0.9973934        83.37933
0.556                  0.9975752         82.6806
0.56                   0.9981711        81.97449
0.564                   0.999077        81.25198
0.568                   1.000134        80.50735
0.572                   1.001156        79.73917
0.576                   1.001962        78.95048
0.58                     1.00241        78.14825
0.584                   1.002418        77.34217
0.588                   1.001983        76.54299
0.592                   1.001178        75.76063
0.596                   1.000141        75.00256
0.6                    0.9990543        74.27232
0.604                  0.9981084        73.56893
0.608                  0.9974719        72.88693
0.612                  0.9972592        72.21731
0.616                  0.9975108        71.54905
0.62                   0.9981842        70.87112
0.624                  0.9991621        70.17449
0.628                   1.000273        69.45369
0.632                   1.001319        68.70787
0.636                   1.002116         67.9408
0.64                    1.002521        67.16029
0.644                   1.002459        66.37676
0.648                   1.001938        65.60152
0.652                   1.001044        64.84476
0.656                  0.9999316        64.11385
0.66                   0.9987956        63.41192
0.664                  0.9978368        62.73722
0.668                  0.9972261        62.08342
0.672                  0.9970754        61.44054
0.676                   0.997414        60.79683
0.68                   0.9981855        60.14075
0.684                   0.999255        59.46323
0.688                   1.000434        58.75915
0.692                   1.001515        58.02832
0.696                   1.002304        57.27547
0.7                      1.00266        56.50943
0.704                   1.002515        55.74151
0.708                   1.001891         54.9837
0.712                   1.000892        54.24652
0.716                  0.9996916        53.53718
0.72                   0.9984998        52.85825
0.724                  0.9975285        52.20713
0.728                  0.9969526        51.57633
0.732                  0.9968781        50.95477
0.736                  0.9973231        50.32976
0.74                   0.9982119        49.68925
0.744                  0.9993896         49.0241
0.748                   1.000648        48.32965
0.752                   1.001765        47.60658
0.756                   1.002538        46.86074
0.76                    1.002829        46.10217
0.764                   1.002579        45.34332
0.768                   1.001827        44.59691
0.772                   1.000698        43.87381
0.776                  0.9993879        43.18108
0.78                    0.998126        42.52058
0.784                  0.9971368         41.8886
0.788                  0.9965991        41.27633
0.792                  0.9966125        40.67137
0.796                  0.9971795        40.05995
0.8                     0.998203        39.42945
0.804                  0.9995036        38.77065
0.808                   1.000851        38.07949
0.812                   1.002004        37.35767
0.816                   1.002756        36.61242
0.82                    1.002968        35.85514
0.824                   1.002595        35.09956
0.828                   1.001695        34.35928
0.832                   1.000419        33.64552
0.836                  0.9989881        32.96507
0.84                   0.9976544        32.31894
0.844                  0.9966559         31.7021
0.848                  0.9961747        31.10416
0.852                  0.9963026        30.51116
0.856                   0.997023         29.9081
0.86                   0.9982126        29.28169
0.864                  0.9996634        28.62276
0.868                   1.001119        27.92793
0.872                   1.002319        27.20017
0.876                   1.003048        26.44828
0.88                     1.00317        25.68534
0.884                   1.002655        24.92649
0.888                   1.001584        24.18633
0.892                    1.00014        23.47648
0.896                  0.9985719        22.80337
0.9                    0.9971576        22.16702
0.904                   0.996151        21.56081
0.908                  0.9957373        20.97251
0.912                  0.9959979        20.38638
0.916                  0.9968933        19.78604
0.92                   0.9982703        19.15746
0.924                  0.9998872        18.49158
0.928                   1.001457        17.78587
0.932                     1.0027        17.04482
0.936                   1.003389        16.27907
0.94                    1.003393         15.5036
0.944                   1.002702        14.73522
0.948                   1.001424        13.98968
0.952                  0.9997767        13.27898
0.956                  0.9980453        12.60913
0.96                   0.9965359        11.97891
0.964                  0.9955207        11.37985
0.968                  0.9951881        10.79752
0.972                  0.9956066        10.21408
0.976                  0.9967102        9.611546
0.98                   0.9983094         8.97507
0.984                   1.000124        8.295703
0.988                   1.001831        7.571981
0.992                   1.003125        6.810131
0.996                   1.003771        6.022966
1                       1.003643        5.227702
1.004                   1.002749        4.443055
1.008                   1.001235        3.686096
1.012                  0.9993574        2.969275
1.016                  0.9974424        2.298091
1.02                   0.9958299        1.669861
1.024                  0.9948133        1.073893
1.028                  0.9945839       0.4931928
1.032                  0.9951946      -0.0925459
1.036                  0.9965475      -0.7032057
1.04                   0.9984099       -1.354552
1.044                   1.000455       -2.055343
1.048                    1.00232       -2.805785
1.052                   1.003669       -3.597551
1.056                   1.004254       -4.415247
1.06                    1.003957       -5.239021
1.064                   1.002811       -6.047849
1.068                   1.001002       -6.823074
1.072                  0.9988348       -7.551661
1.076                  0.9966848       -8.228702
1.08                   0.9949338       -8.858581
1.084                  0.9939004       -9.454612
1.088                  0.9937808       -10.03695
1.092                  0.9946096       -10.62888
1.096                  0.9962515       -11.25253
1.1                    0.9984222       -11.92487
1.104                    1.00074       -12.65444
1.108                   1.002791       -13.43997
1.112                   1.004205       -14.27069
1.116                   1.004718       -15.12809
1.12                    1.004218       -15.98916
1.124                   1.002771       -16.83007
1.128                   1.000608       -17.63023
1.132                  0.9980942        -18.3758
1.136                  0.9956649        -19.0625
1.14                    0.993753       -19.69683
1.144                  0.9927099       -20.29535
1.148                  0.9927387         -20.882
1.152                  0.9938526       -21.48384
1.156                    0.99587       -22.12595
1.16                   0.9984435       -22.82676
1.164                   1.001122       -23.59468
1.168                    1.00343       -24.42671
1.172                   1.004949       -25.30901
1.176                   1.005393       -26.21934
1.18                    1.004659        -27.1307
1.184                   1.002845       -28.01568
1.188                   1.000241       -28.85104
1.192                  0.9972849        -29.6218
1.196                  0.9944894       -30.32427
1.2                    0.9923541       -30.96738
1.204                  0.9912744       -31.57166
1.208                  0.9914656       -32.16595
1.212                  0.9929177       -32.78213
1.216                  0.9953924       -33.44914
1.22                   0.9984635        -34.1875
1.224                   1.001591        -35.0056
1.228                   1.004217       -35.89836
1.232                   1.005862       -36.84821
1.236                   1.006207       -37.82813
1.24                    1.005153       -38.80596
1.244                    1.00284       -39.74951
1.248                   0.999631       -40.63185
1.252                  0.9960588       -41.43613
1.256                  0.9927391       -42.15907
1.26                   0.9902647       -42.81257
1.264                  0.9890962       -43.42234
1.268                  0.9894723        -44.0238
1.272                  0.9913577       -44.65556
1.276                  0.9944437        -45.3521
1.28                    0.998199       -46.13718
1.284                   1.001964        -47.0196
1.288                   1.005065       -47.99187
1.292                   1.006932       -49.03168
1.296                   1.007196       -50.10569
1.3                     1.005752       -51.17471
1.304                   1.002788       -52.19978
1.308                  0.9987605        -53.1485
1.312                  0.9943317       -54.00071
1.316                  0.9902624       -54.75313
1.32                   0.9872819       -55.42119
1.324                  0.9859533       -56.03763
1.328                  0.9865598       -56.64728
1.332                  0.9890409       -57.29873
1.336                  0.9929941       -58.03493
1.34                   0.9977409       -58.88497
1.344                   1.002447        -59.8589
1.348                   1.006266       -60.94633
1.352                   1.008485       -62.11861
1.356                   1.008642       -63.33345
1.36                    1.006611       -64.54136
1.364                   1.002632       -65.69293
1.368                  0.9972906        -66.7466
1.372                  0.9914358       -67.67601
1.376                  0.9860538       -68.47615
1.38                   0.9820989       -69.16667
1.384                  0.9803159       -69.79047
1.388                  0.9810862       -70.40716
1.392                  0.9843364        -71.0819
1.396                  0.9895363       -71.87253
1.4                    0.9957854       -72.81835
1.404                    1.00197       -73.93306
1.408                   1.006955       -75.20334
1.412                   1.009774       -76.59161
1.416                   1.009784       -78.04222
1.42                    1.006785       -79.48927
1.424                   1.001064       -80.86561
1.428                  0.9933854       -82.11265
1.432                  0.9849002       -83.19068
1.436                  0.9769856       -84.08852
1.44                   0.9710198       -84.83004
1.444                  0.9681229       -85.47483
1.448                  0.9689176       -86.11005
1.452                  0.9733703       -86.83431
1.456                  0.9807622       -87.73761
1.46                   0.9898018       -88.88334
1.464                  0.9988469       -90.29746
1.468                   1.006178       -91.96629
1.472                   1.010274       -93.84074
1.476                   1.010041       -95.84453
1.48                     1.00499       -97.88381
1.484                  0.9953444       -99.85776
1.488                  0.9820662       -101.6708
1.492                  0.9667985       -103.2477
1.496                  0.9516904       -104.5512
1.5                    0.9390928       -105.6012
1.504                   0.931133       -106.4868
1.508                  0.9292343       -107.3634
1.512                  0.9337091       -108.4288
1.516                  0.9435648       -109.8839
1.52                   0.9565962       -111.8928
1.524                  0.9697141       -114.5598
1.528                  0.9793829       -117.9259
1.532                  0.9820433       -121.9818
1.536                  0.9744461       -126.6853
1.54                   0.9538839       -131.9781
1.544                  0.9183344       -137.7984
1.548                  0.8665357       -144.0903
1.552                  0.7980121       -150.8111
