! TOUCHSTONE file generated by CST MICROWAVE STUDIO
! Date and time: Tue Jun  7 21:11:35 2022
! Project name: AppElm_antenne_patch_FR4.cst
! Parameters = {L=45; W=58.5; e=0.035; h=1.6; lambda=0.190476; ls=120; w0=1.6; w1=0.533333; ws=126; y0=20; y1=23.81}
! Header version: 2018
! Port assignment regex: !\s*Touchstone port\s*([0-9]+)\s*=\s*(CST MWS port|CST DS port)\s*([0-9]+|Zmin|Zmax)\s*\(\"(.*)\"\)(\s*mode\s*([0-9]+))?.*
! Touchstone port assignment:
! Touchstone port 1 = CST MWS port 1 ("")
# GHz S MA R 50
0                      0.9893419              -0
0.004                  0.9899801       -9.930897
0.008                  0.9918068       -19.77463
0.012                  0.9945709       -29.44831
0.016                  0.9978976       -38.87681
0.02                    1.001343       -47.99529
0.024                    1.00446        -56.7503
0.028                   1.006855       -65.09999
0.032                   1.008246       -73.01361
0.036                   1.008491       -80.47084
0.04                    1.007605       -87.46128
0.044                   1.005755       -93.98415
0.048                   1.003233       -100.0483
0.052                   1.000414       -105.6721
0.056                  0.9977034       -110.8832
0.06                   0.9954759       -115.7175
0.064                  0.9940243       -120.2172
0.068                  0.9935178       -124.4282
0.072                  0.9939788       -128.3961
0.076                  0.9952867       -132.1633
0.08                   0.9972007       -135.7654
0.084                  0.9994019       -139.2293
0.088                   1.001546       -142.5724
0.092                   1.003315       -145.8031
0.096                   1.004464       -148.9221
0.1                     1.004853       -151.9252
0.104                   1.004461       -154.8053
0.108                    1.00339       -157.5559
0.112                   1.001838        -160.173
0.116                   1.000071       -162.6571
0.12                   0.9983762       -165.0144
0.124                  0.9970203       -167.2569
0.128                  0.9962055       -169.4015
0.132                  0.9960404       -171.4679
0.136                  0.9965248       -173.4763
0.14                   0.9975542       -175.4452
0.144                  0.9989404       -177.3886
0.148                   1.000445        -179.315
0.152                   1.001821        178.7732
0.156                    1.00285        176.8794
0.16                    1.003379        175.0112
0.164                    1.00334        173.1789
0.168                    1.00276        171.3934
0.172                    1.00175        169.6636
0.176                    1.00049        167.9953
0.18                   0.9991942        166.3898
0.184                  0.9980781        164.8434
0.188                  0.9973213        163.3476
0.192                  0.9970394        161.8908
0.196                  0.9972659        160.4597
0.2                    0.9979481        159.0415
0.204                  0.9989593        157.6259
0.208                   1.000121        156.2063
0.212                   1.001235        154.7811
0.216                   1.002116        153.3531
0.22                    1.002621         151.929
0.224                   1.002676        150.5181
0.228                   1.002282        149.1304
0.232                   1.001512        147.7749
0.236                   1.000505        146.4583
0.24                   0.9994344        145.1832
0.244                  0.9984818        143.9484
0.248                  0.9978063        142.7483
0.252                  0.9975172        141.5743
0.256                  0.9976566        140.4158
0.26                   0.9981924        139.2624
0.264                  0.9990262        138.1053
0.268                    1.00001         136.939
0.272                   1.000974        135.7617
0.276                   1.001753        134.5758
0.28                    1.002219        133.3871
0.284                   1.002295        132.2039
0.288                   1.001976        131.0353
0.292                    1.00132        129.8898
0.296                   1.000443        128.7739
0.3                     0.999498        127.6907
0.304                   0.998647        126.6395
0.308                  0.9980356        125.6159
0.312                  0.9977658        124.6126
0.316                  0.9978803        123.6204
0.32                   0.9983551          122.63
0.324                  0.9991038        121.6335
0.328                  0.9999943        120.6258
0.332                   1.000871        119.6053
0.336                   1.001584        118.5742
0.34                    1.002011        117.5377
0.344                   1.002082        116.5037
0.348                   1.001787        115.4806
0.352                   1.001181        114.4766
0.356                    1.00037        113.4978
0.36                   0.9994956        112.5471
0.364                  0.9987105        111.6243
0.368                  0.9981505        110.7251
0.372                  0.9979119        109.8429
0.376                  0.9980348        108.9691
0.38                   0.9984954        108.0949
0.384                  0.9992116         107.213
0.388                   1.000057        106.3186
0.392                   1.000885        105.4104
0.396                    1.00155        104.4906
0.4                     1.001938        103.5643
0.404                   1.001983        102.6392
0.408                   1.001678        101.7236
0.412                   1.001077        100.8251
0.416                   1.000286        99.94975
0.42                   0.9994432        99.10029
0.424                  0.9986957        98.27616
0.428                  0.9981744        97.47334
0.432                  0.9979702        96.68504
0.436                  0.9981185        95.90294
0.44                   0.9985922        95.11859
0.444                  0.9993076        94.32495
0.448                   1.000138        93.51759
0.452                   1.000939        92.69546
0.456                   1.001568          91.861
0.46                    1.001916        91.01966
0.464                   1.001923        90.17902
0.468                   1.001586        89.34735
0.472                   1.000966        88.53225
0.476                    1.00017        87.73931
0.48                   0.9993382        86.97109
0.484                  0.9986169        86.22667
0.488                  0.9981337        85.50174
0.492                  0.9979744        84.78929
0.496                  0.9981672        84.08092
0.5                    0.9986786        83.36826
0.504                  0.9994184        82.64452
0.508                   1.000256        81.90559
0.512                   1.001043        81.15088
0.516                   1.001641        80.38329
0.52                    1.001943        79.60868
0.524                   1.001896         78.8349
0.528                   1.001506        78.07036
0.532                    1.00084        77.32259
0.536                   1.000015        76.59695
0.54                   0.9991751         75.8956
0.544                  0.9984687        75.21709
0.548                  0.9980215        74.55659
0.552                  0.9979134        73.90669
0.556                  0.9981645        73.25868
0.56                   0.9987312        72.60413
0.564                  0.9995132        71.93644
0.568                   1.000372        71.25192
0.572                   1.001156        70.55051
0.576                   1.001724        69.83576
0.58                    1.001976        69.11411
0.584                   1.001864        68.39386
0.588                   1.001406        67.68369
0.592                   1.000682        66.99108
0.596                  0.9998174        66.32109
0.6                    0.9989654        65.67539
0.604                  0.9982777        65.05182
0.608                  0.9978777        64.44486
0.612                  0.9978388        63.84643
0.616                  0.9981701        63.24741
0.62                   0.9988143        62.63926
0.624                   0.999658        62.01558
0.628                   1.000552        61.37318
0.632                   1.001337        60.71274
0.636                   1.001872         60.0386
0.64                    1.002061        59.35801
0.644                   1.001867        58.67987
0.648                   1.001322        58.01318
0.652                   1.000518        57.36546
0.656                  0.9995981        56.74139
0.66                   0.9987238        56.14195
0.664                  0.9980515        55.56418
0.668                  0.9977031         55.0016
0.672                  0.9977433        54.44536
0.676                  0.9981675        53.88579
0.68                    0.998902        53.31419
0.684                   0.999817        52.72442
0.688                    1.00075        52.11391
0.692                   1.001534        51.48423
0.696                   1.002027        50.84071
0.7                     1.002139        50.19157
0.704                   1.001846        49.54639
0.708                   1.001196        48.91457
0.712                   1.000301        48.30357
0.716                  0.9993195        47.71761
0.72                   0.9984251        47.15684
0.724                  0.9977795        46.61721
0.728                  0.9975011        46.09112
0.732                  0.9976434        45.56879
0.736                  0.9981847        45.03991
0.74                    0.999031        44.49568
0.744                   1.000033        43.93025
0.748                   1.001012         43.3419
0.752                   1.001791        42.73328
0.756                    1.00223        42.11092
0.76                    1.002246        41.48416
0.764                   1.001831        40.86344
0.768                   1.001054        40.25857
0.772                   1.000049        39.67691
0.776                  0.9989925        39.12207
0.78                   0.9980737        38.59317
0.784                  0.9974585        38.08487
0.788                  0.9972606        37.58827
0.792                  0.9975196        37.09245
0.796                  0.9981929        36.58649
0.8                    0.9991626        36.06143
0.804                   1.000256        35.51194
0.808                   1.001278        34.93727
0.812                   1.002042        34.34138
0.816                   1.002408        33.73225
0.82                    1.002306        33.12046
0.824                   1.001746        32.51739
0.828                   1.000823        31.93323
0.832                  0.9996962        31.37514
0.836                  0.9985654        30.84592
0.84                   0.9976332        30.34339
0.844                  0.9970706        29.86066
0.848                  0.9969833        29.38727
0.852                   0.997393        28.91106
0.856                  0.9982311        28.42039
0.86                   0.9993512        27.90629
0.864                   1.000554         27.3641
0.868                   1.001624         26.7943
0.872                   1.002366        26.20246
0.876                   1.002643        25.59821
0.88                    1.002399        24.99361
0.884                   1.001668        24.40108
0.888                   1.000575        23.83116
0.892                   0.999309         23.2907
0.896                  0.9980956        22.78148
0.9                    0.9971533        22.29975
0.904                   0.996656        21.83678
0.908                  0.9966991        21.38032
0.912                  0.9972816        20.91684
0.916                  0.9983042        20.43396
0.92                   0.9995871        19.92283
0.924                   1.000901        19.37966
0.928                   1.002008        18.80648
0.932                   1.002706        18.21074
0.936                   1.002863          17.604
0.94                    1.002441        16.99998
0.944                   1.001505        16.41217
0.948                   1.000215        15.85146
0.952                  0.9987956        15.32415
0.956                  0.9975005         14.8307
0.96                   0.9965655        14.36543
0.964                  0.9961651        13.91738
0.968                  0.9963804        13.47222
0.972                  0.9971818        13.01483
0.976                   0.998432        12.53214
0.98                   0.9999113        12.01551
0.984                   1.001355        11.46236
0.988                   1.002503        10.87658
0.992                   1.003144        10.26791
0.996                   1.003153        9.650168
1                       1.002517        9.038983
1.004                   1.001339        8.449043
1.008                  0.9998185        7.891535
1.012                  0.9982227        7.372054
1.016                  0.9968375        6.889391
1.02                   0.9959165        6.435525
1.024                  0.9956342        5.996876
1.028                  0.9960518        5.556692
1.032                  0.9971042        5.098121
1.036                  0.9986093        4.607367
1.04                      1.0003        4.076248
1.044                   1.001873        3.503694
1.048                   1.003041        2.895934
1.052                   1.003585        2.265399
1.056                   1.003394        1.628599
1.06                    1.002485        1.003325
1.064                   1.001007       0.4055938
1.068                  0.9992102      -0.1531974
1.072                  0.9974108      -0.6684643
1.076                  0.9959323       -1.143538
1.08                   0.9950484        -1.58937
1.084                  0.9949306       -2.022766
1.088                  0.9956139       -2.463394
1.092                  0.9969881       -2.930137
1.096                  0.9988155       -3.437548
1.1                     1.000772       -3.993144
1.104                   1.002507       -4.596052
1.108                   1.003701       -5.237161
1.112                   1.004129       -5.900755
1.116                   1.003697       -6.567081
1.12                    1.002461        -7.21573
1.124                   1.000623       -7.829163
1.128                  0.9984973       -8.395758
1.132                  0.9964587       -8.912234
1.136                  0.9948763       -9.384568
1.14                   0.9940464       -9.827335
1.144                  0.9941347       -10.26129
1.148                  0.9951427       -10.70962
1.152                  0.9969042        -11.1936
1.156                  0.9991118       -11.72856
1.16                    1.001372       -12.32108
1.164                   1.003277       -12.96776
1.168                   1.004471       -13.65589
1.172                   1.004722       -14.36563
1.176                   1.003959       -15.07327
1.18                    1.002288       -15.75519
1.184                  0.9999807       -16.39192
1.188                  0.9974314       -16.97166
1.192                    0.99509       -17.49283
1.196                  0.9933834       -17.96488
1.2                    0.9926359       -18.40708
1.204                  0.9930057       -18.84534
1.208                  0.9944503        -19.3074
1.212                  0.9967299       -19.81763
1.216                  0.9994479       -20.39236
1.22                    1.002121       -21.03692
1.224                   1.004264       -21.74472
1.228                   1.005479       -22.49842
1.232                   1.005519       -23.27289
1.236                   1.004342       -24.03928
1.24                    1.002118       -24.76975
1.244                  0.9992085       -25.44223
1.248                  0.9961112       -26.04454
1.252                  0.9933753        -26.5772
1.256                  0.9915046       -27.05414
1.26                   0.9908622       -27.50086
1.264                  0.9915973       -27.95011
1.268                  0.9936099       -28.43575
1.272                  0.9965629       -28.98629
1.276                    0.99994       -29.61943
1.28                    1.003137       -30.33885
1.284                   1.005567       -31.13368
1.288                   1.006765       -31.98043
1.292                    1.00647       -32.84681
1.296                   1.004673       -33.69689
1.3                     1.001631       -34.49683
1.304                  0.9978283       -35.22064
1.308                  0.9939089       -35.85522
1.312                  0.9905655       -36.40375
1.316                  0.9884172       -36.88632
1.32                   0.9878905        -37.3374
1.324                  0.9891289       -37.79984
1.328                  0.9919557       -38.31671
1.332                   0.995897       -38.92299
1.336                   1.000264       -39.63887
1.34                    1.004273       -40.46615
1.344                   1.007182       -41.38825
1.348                   1.008422       -42.37302
1.352                   1.007693       -43.37796
1.356                   1.005024       -44.35658
1.36                    1.000784       -45.26563
1.364                  0.9956379       -46.07242
1.368                  0.9904456       -46.76137
1.372                  0.9861258       -47.33866
1.376                  0.9834886       -47.83325
1.38                   0.9830752       -48.29337
1.384                  0.9850382       -48.77812
1.388                  0.9890944       -49.34594
1.392                  0.9945619       -50.04308
1.396                   1.000478       -50.89469
1.4                     1.005765       -51.90068
1.404                   1.009417       -53.03623
1.408                   1.010668       -54.25616
1.412                   1.009125       -55.50159
1.416                   1.004849       -56.70831
1.42                   0.9983672        -57.8159
1.424                  0.9906277       -58.77775
1.428                  0.9828701       -59.57076
1.432                  0.9764333       -60.20321
1.436                  0.9725159       -60.71799
1.44                    0.971931       -61.18837
1.444                  0.9749134       -61.70561
1.448                  0.9810358       -62.36073
1.452                  0.9892602       -63.22587
1.456                  0.9981121       -64.34061
1.46                    1.005932       -65.70624
1.464                   1.011147       -67.28732
1.468                   1.012521       -69.01822
1.472                   1.009355       -70.81211
1.476                   1.001619       -72.57107
1.48                    0.990015        -74.1978
1.484                  0.9759539       -75.60973
1.488                   0.961421        -76.7562
1.492                  0.9487161       -77.63728
1.496                  0.9400633       -78.31862
1.5                    0.9371372       -78.93394
1.504                  0.9406163       -79.66739
1.508                  0.9499092        -80.7178
1.512                   0.963155       -82.25769
1.516                  0.9774842       -84.40388
1.52                   0.9894353       -87.20833
1.524                  0.9953903       -90.66584
1.528                  0.9919415       -94.72993
1.532                  0.9761589        -99.3283
1.536                  0.9457624        -104.374
1.54                   0.8992219       -109.7702
1.544                  0.8358061       -115.4094
1.548                  0.7555926       -121.1628
1.552                  0.6594595       -126.8552
