! TOUCHSTONE file generated by CST MICROWAVE STUDIO
! Date and time: Tue Jun  7 21:11:31 2022
! Project name: AppElm_antenne_patch_FR4.cst
! Parameters = {L=45; W=58.5; e=0.035; h=1.6; lambda=0.190476; ls=120; w0=1.6; w1=0.533333; ws=102; y0=20; y1=23.81}
! Header version: 2018
! Port assignment regex: !\s*Touchstone port\s*([0-9]+)\s*=\s*(CST MWS port|CST DS port)\s*([0-9]+|Zmin|Zmax)\s*\(\"(.*)\"\)(\s*mode\s*([0-9]+))?.*
! Touchstone port assignment:
! Touchstone port 1 = CST MWS port 1 ("")
# GHz S MA R 50
0                      0.9891925              -0
0.004                  0.9898353       -9.927092
0.008                  0.9916754       -19.76721
0.012                  0.9944614       -29.43763
0.016                  0.9978176       -38.86341
0.02                    1.001299       -47.97983
0.024                   1.004455       -56.73356
0.028                   1.006892       -65.08281
0.032                   1.008322       -72.99684
0.036                     1.0086       -80.45529
0.04                    1.007738       -87.44766
0.044                   1.005899       -93.97295
0.048                   1.003373       -100.0397
0.052                   1.000535       -105.6662
0.056                  0.9977894       -110.8795
0.06                    0.995516       -115.7153
0.064                  0.9940124       -120.2156
0.068                  0.9934542        -124.426
0.072                  0.9938714       -128.3923
0.076                  0.9951489       -132.1571
0.08                   0.9970514       -135.7563
0.084                   0.999262       -139.2173
0.088                   1.001436       -142.5579
0.092                   1.003251       -145.7868
0.096                   1.004456       -148.9052
0.1                     1.004904       -151.9089
0.104                   1.004566       -154.7909
0.108                   1.003535       -157.5444
0.112                   1.002003        -160.165
0.116                   1.000232       -162.6529
0.12                   0.9985106       -165.0138
0.124                  0.9971076        -167.259
0.128                  0.9962324       -169.4051
0.132                  0.9960022       -171.4716
0.136                  0.9964272       -173.4787
0.14                   0.9974117        -175.445
0.144                  0.9987745       -177.3851
0.148                   1.000281        -179.308
0.152                   1.001683        178.7834
0.156                    1.00276        176.8919
0.16                     1.00335        175.0249
0.164                   1.003376        173.1923
0.168                   1.002853         171.405
0.172                   1.001886        169.6723
0.176                   1.000646        168.0004
0.18                   0.9993451        166.3911
0.184                  0.9981986        164.8412
0.188                   0.997391         163.343
0.192                  0.9970465        161.8851
0.196                  0.9972088        160.4545
0.2                    0.9978358        159.0381
0.204                  0.9988103        157.6255
0.208                  0.9999597        156.2095
0.212                   1.001088        154.7879
0.216                   1.002008        153.3628
0.22                    1.002571        151.9406
0.224                   1.002693          150.53
0.228                   1.002363        149.1411
0.232                   1.001646        147.7831
0.236                    1.00067        146.4629
0.24                   0.9996042        145.1838
0.244                  0.9986286        143.9451
0.248                   0.997906         142.742
0.252                  0.9975532        141.5662
0.256                  0.9976226        140.4076
0.26                   0.9980938        139.2557
0.264                  0.9988788        138.1015
0.268                  0.9998383        136.9389
0.272                   1.000806        135.7655
0.276                   1.001617        134.5831
0.28                    1.002137        133.3969
0.284                   1.002281        132.2147
0.288                   1.002032        131.0456
0.292                   1.001437         129.898
0.296                   1.000601        128.7787
0.3                    0.9996711        127.6915
0.304                  0.9988059        126.6362
0.308                  0.9981532        125.6092
0.312                  0.9978224        124.6038
0.316                  0.9978661         123.611
0.32                   0.9982724        122.6217
0.324                  0.9989669        121.6279
0.328                  0.9998267        120.6239
0.332                   1.000702        119.6074
0.336                   1.001442          118.58
0.34                    1.001921        117.5463
0.344                   1.002061        116.5136
0.348                   1.001839        115.4903
0.352                   1.001298        114.4843
0.356                   1.000533         113.502
0.36                   0.9996774        112.5472
0.364                  0.9988808        111.6201
0.368                  0.9982801        110.7172
0.372                  0.9979782        109.8326
0.376                  0.9980259        108.9579
0.38                    0.998412        108.0847
0.384                  0.9990672        107.2055
0.388                  0.9998758        106.3149
0.392                   1.000696        105.4111
0.396                   1.001386        104.4953
0.4                     1.001826        103.5723
0.404                   1.001941         102.649
0.408                   1.001713        101.7333
0.412                   1.001184        100.8331
0.416                   1.000445        99.95436
0.42                   0.9996271        99.10063
0.424                  0.9988722        98.27201
0.428                  0.9983124        97.46524
0.432                  0.9980451        96.67423
0.436                  0.9981165        95.89113
0.44                    0.998513        95.10766
0.444                   0.999164        94.31664
0.448                  0.9999547        93.51319
0.452                   1.000746        92.69557
0.456                     1.0014        91.86543
0.46                    1.001802         91.0275
0.464                   1.001882        90.18872
0.468                   1.001627        89.35705
0.472                   1.001081        88.54007
0.476                   1.000341        87.74362
0.48                   0.9995352        86.97091
0.484                  0.9988062        86.22172
0.488                   0.998282        85.49257
0.492                  0.9980553        84.77722
0.496                  0.9981659        84.06778
0.5                    0.9985945        83.35607
0.504                  0.9992651        82.63511
0.508                   1.000059        81.90037
0.512                   1.000837         81.1505
0.516                    1.00146        80.38755
0.52                    1.001819         79.6166
0.524                    1.00185        78.84487
0.528                   1.001547        78.08038
0.532                   1.000962        77.33065
0.536                   1.000196        76.60129
0.54                   0.9993848        75.89516
0.544                  0.9986707        75.21157
0.548                  0.9981803        74.54661
0.552                  0.9980011        73.89363
0.556                  0.9981654        73.24447
0.56                   0.9986447        72.59092
0.564                  0.9993542        71.92618
0.568                   1.000168        71.24607
0.572                   1.000942        70.54974
0.576                   1.001539        69.83983
0.58                    1.001851        69.12196
0.584                   1.001822        68.40375
0.588                   1.001455        67.69348
0.592                   1.000814        66.99865
0.596                    1.00001        66.32464
0.6                    0.9991841        65.67381
0.604                  0.9984839        65.04489
0.608                  0.9980343        64.43328
0.612                  0.9979166        63.83176
0.616                  0.9981534        63.23177
0.62                   0.9987039        62.62497
0.624                  0.9994716        62.00468
0.628                    1.00032        61.36721
0.632                   1.001098        60.71234
0.636                   1.001668        60.04345
0.64                    1.001925        59.36689
0.644                   1.001823        58.69084
0.648                   1.001377        58.02394
0.652                   1.000663        57.37368
0.656                  0.9998075        56.74518
0.66                   0.9989605        56.14017
0.664                  0.9982736        55.55663
0.668                  0.9978709        54.98912
0.672                  0.9978261        54.42965
0.676                    0.99815        53.86914
0.68                   0.9987865        53.29906
0.684                  0.9996233        52.71297
0.688                   1.000511        52.10768
0.692                   1.001292         51.4838
0.696                   1.001825        50.84565
0.7                     1.002012        50.20045
0.704                   1.001817        49.55711
0.708                    1.00127        48.92463
0.712                   1.000466        48.31055
0.716                  0.9995456        47.71958
0.72                   0.9986711        47.15271
0.724                      0.998        46.60695
0.728                   0.997654        46.07581
0.732                  0.9976978         45.5504
0.736                  0.9981264        45.02102
0.74                   0.9988656        44.47895
0.744                  0.9997842        43.91801
0.748                   1.000718         43.3357
0.752                     1.0015        42.73362
0.756                   1.001988        42.11719
0.76                     1.00209        41.49473
0.764                   1.001785        40.87592
0.768                   1.001122        40.27022
0.772                   1.000214        39.68512
0.776                  0.9992229        39.12481
0.78                   0.9983236        38.58937
0.784                   0.997679        38.07462
0.788                  0.9974077        37.57283
0.792                   0.997562        37.07403
0.796                  0.9981181        36.56786
0.8                    0.9989792         36.0454
0.804                  0.9999926         35.5009
0.808                   1.000977        34.93268
0.812                   1.001754        34.34359
0.816                   1.002182        33.74037
0.82                     1.00218        33.13254
0.824                   1.001741        32.53075
0.828                   1.000939        31.94488
0.832                   0.999912        31.38232
0.836                  0.9988407        30.84659
0.84                   0.9979169        30.33661
0.844                  0.9973085        29.84677
0.848                  0.9971283         29.3679
0.852                  0.9974137        28.88883
0.856                  0.9981173        28.39843
0.86                    0.999116        27.88771
0.864                   1.000232        27.35142
0.868                   1.001264        26.78901
0.872                   1.002024        26.20476
0.876                   1.002372        25.60698
0.88                    1.002238        25.00661
0.884                   1.001639        24.41529
0.888                   1.000674        23.84335
0.892                   0.999511        23.29796
0.896                  0.9983549        22.78174
0.9                    0.9974137         22.2922
0.904                  0.9968597        21.82202
0.908                  0.9967981        21.36031
0.912                  0.9972458        20.89453
0.916                  0.9981275        20.41279
0.92                   0.9992887        19.90605
0.924                   1.000522        19.36981
0.928                   1.001605        18.80488
0.932                   1.002341        18.21728
0.936                    1.00259        17.61715
0.94                    1.002301        17.01703
0.944                   1.001516        16.42967
0.948                   1.000367        15.86583
0.952                  0.9990558        15.33229
0.956                  0.9978144        14.83053
0.96                   0.9968687        14.35631
0.964                  0.9963942        13.90028
0.968                  0.9964841        13.44956
0.972                  0.9971302        12.99006
0.976                  0.9982229        12.50911
0.98                   0.9995704        11.99778
0.984                   1.000932        11.45256
0.988                   1.002061        10.87596
0.992                    1.00275        10.27609
0.996                   1.002867        9.665254
1                        1.00238        9.057838
1.004                   1.001365        8.467827
1.008                   0.999994         7.90635
1.012                  0.9985058        7.379637
1.016                  0.9971663        6.887718
1.02                   0.9962195         6.42422
1.024                  0.9958432        5.977328
1.028                  0.9961145        5.531832
1.032                  0.9969933        5.071908
1.036                   0.998329        4.584053
1.04                   0.9998849        4.059608
1.044                   1.001381        3.496351
1.048                   1.002546        2.898892
1.052                   1.003161        2.277872
1.056                   1.003104        1.648134
1.06                     1.00237        1.026194
1.064                   1.001076       0.4274084
1.068                   0.999441      -0.1367462
1.072                  0.9977508      -0.6608405
1.076                  0.9963085       -1.146705
1.08                   0.9953794       -1.603375
1.084                   0.995141       -2.045675
1.088                  0.9956487       -2.491603
1.092                  0.9968228       -2.959019
1.096                  0.9984606       -3.462297
1.1                     1.000272       -4.009647
1.104                   1.001932       -4.601625
1.108                   1.003135       -5.230959
1.112                   1.003656        -5.88398
1.116                   1.003384       -6.542765
1.12                    1.002349       -7.188218
1.124                   1.000718       -7.803427
1.128                  0.9987686       -8.376561
1.132                  0.9968437       -8.903265
1.136                  0.9952907       -9.387733
1.14                   0.9943988       -9.842339
1.144                  0.9943439       -10.28563
1.148                  0.9951525         -10.739
1.152                  0.9966941       -11.22274
1.156                  0.9987015       -11.75217
1.16                    1.000818       -12.33482
1.164                   1.002662       -12.96902
1.168                   1.003892       -13.64427
1.172                    1.00427       -14.34295
1.176                   1.003705       -15.04336
1.18                    1.002271       -15.72328
1.184                   1.000198       -16.36379
1.188                  0.9978394       -16.95268
1.192                  0.9956081       -17.48696
1.196                  0.9939092       -17.97389
1.2                    0.9930618       -18.43014
1.204                   0.993239       -18.87905
1.208                  0.9944296        -19.3464
1.212                  0.9964375       -19.85553
1.216                  0.9989125       -20.42297
1.22                    1.001413        -21.0553
1.224                   1.003485       -21.74803
1.228                   1.004739        -22.4864
1.232                   1.004925       -23.24786
1.236                   1.003973       -24.00578
1.24                    1.002015       -24.73381
1.244                  0.9993652       -25.41044
1.248                   0.996473       -26.02286
1.252                  0.9938481       -26.56989
1.256                  0.9919706       -27.06283
1.26                   0.9912012       -27.52415
1.264                   0.991709       -27.98366
1.268                  0.9934336        -28.4731
1.272                  0.9960899       -29.02003
1.276                  0.9992158       -29.64261
1.28                    1.002254       -30.34625
1.284                   1.004649       -31.12267
1.288                   1.005947       -31.95144
1.292                   1.005874       -32.80328
1.296                    1.00439       -33.64481
1.3                       1.0017        -34.4439
1.304                  0.9982328       -35.17507
1.308                   0.994573       -35.82441
1.312                  0.9913656       -36.39288
1.316                  0.9892028        -36.8973
1.32                   0.9885087       -37.36827
1.324                  0.9894537       -37.84502
1.328                  0.9919106       -38.36804
1.332                  0.9954702       -38.97127
1.336                  0.9995094       -39.67552
1.34                    1.003301       -40.48481
1.344                   1.006142       -41.38571
1.348                   1.007472       -42.34978
1.352                   1.006977       -43.33808
1.356                   1.004645        -44.3071
1.36                    1.000787       -45.21561
1.364                  0.9959957       -46.03151
1.368                   0.991061       -46.73814
1.372                  0.9868444       -47.33887
1.376                  0.9841233       -47.85847
1.38                   0.9834402       -48.34025
1.384                  0.9849848       -48.83873
1.388                    0.98854       -49.40925
1.392                  0.9935084       -50.09699
1.396                  0.9990122       -50.92829
1.4                     1.004046       -51.90607
1.404                   1.007649       -53.00975
1.408                    1.00907       -54.19881
1.412                   1.007897       -55.41904
1.416                   1.004137       -56.61012
1.42                   0.9982417       -57.71456
1.424                  0.9910647       -58.68692
1.428                  0.9837473       -59.50322
1.432                  0.9775449       -60.16837
1.436                  0.9736028       -60.71962
1.44                   0.9727258       -61.22327
1.444                  0.9751919        -61.7638
1.448                  0.9806613       -62.42733
1.452                  0.9882106        -63.2842
1.456                  0.9964836       -64.37539
1.46                    1.003922       -65.70617
1.464                   1.009022       -67.24669
1.468                   1.010573       -68.93754
1.472                   1.007858       -70.69807
1.476                   1.000783       -72.43613
1.48                   0.9899476       -74.05918
1.484                  0.9766276       -75.48764
1.488                  0.9626531       -76.67107
1.492                  0.9501735       -77.60555
1.496                  0.9412975       -78.34787
1.5                    0.9376528        -79.0188
1.504                  0.9399622       -79.78848
1.508                  0.9477679       -80.84468
1.512                  0.9594013       -82.35478
1.516                  0.9722032       -84.43664
1.52                   0.9829004       -87.14728
1.524                  0.9880191       -90.48799
1.528                  0.9842465       -94.41789
1.532                  0.9686996       -98.86842
1.536                  0.9391061       -103.7538
1.54                   0.8939138        -108.976
1.544                  0.8323458       -114.4229
1.548                  0.7544228       -119.9573
1.552                  0.6609633       -125.3893
