! TOUCHSTONE file generated by CST MICROWAVE STUDIO
! Date and time: Thu May 12 15:28:09 2022
! Project name: AppElm_antenne_dipole_FR4.cst
! Parameters = {L=38.8; e=0.035; f=2.45e+09; h=1.6; i=0.8; l1=3.4; lambda=122.449; ls=30; wl=1.7; ws=80}
! Header version: 2018
! Port assignment regex: !\s*Touchstone port\s*([0-9]+)\s*=\s*(CST MWS port|CST DS port)\s*([0-9]+|Zmin|Zmax)\s*\(\"(.*)\"\)(\s*mode\s*([0-9]+))?.*
! Touchstone port assignment:
! Touchstone port 1 = CST MWS port 1 ("")
# GHz S MA R 50
0                       0.999297              -0
0.004                  0.9992976     -0.05081614
0.008                  0.9992993      -0.1016367
0.012                  0.9993022       -0.152466
0.016                  0.9993062      -0.2033084
0.02                   0.9993114      -0.2541682
0.024                  0.9993177      -0.3050498
0.028                  0.9993251      -0.3559572
0.032                  0.9993335      -0.4068947
0.036                   0.999343      -0.4578663
0.04                   0.9993535       -0.508876
0.044                  0.9993649      -0.5599275
0.048                  0.9993774      -0.6110247
0.052                  0.9993907      -0.6621711
0.056                  0.9994049      -0.7133703
0.06                   0.9994198      -0.7646256
0.064                  0.9994355      -0.8159401
0.068                  0.9994519      -0.8673168
0.072                   0.999469      -0.9187587
0.076                  0.9994867      -0.9702683
0.08                   0.9995049       -1.021848
0.084                  0.9995236       -1.073501
0.088                  0.9995428       -1.125228
0.092                  0.9995624       -1.177031
0.096                  0.9995821       -1.228913
0.1                    0.9996021       -1.280874
0.104                  0.9996222       -1.332917
0.108                  0.9996424       -1.385042
0.112                  0.9996627       -1.437249
0.116                  0.9996829        -1.48954
0.12                   0.9997031       -1.541915
0.124                  0.9997232       -1.594374
0.128                  0.9997428       -1.646917
0.132                  0.9997622       -1.699544
0.136                  0.9997813       -1.752254
0.14                   0.9997999       -1.805047
0.144                   0.999818       -1.857922
0.148                  0.9998355       -1.910878
0.152                  0.9998524       -1.963913
0.156                  0.9998687       -2.017026
0.16                   0.9998843       -2.070216
0.164                  0.9998991       -2.123481
0.168                  0.9999129       -2.176818
0.172                  0.9999259       -2.230226
0.176                   0.999938       -2.283701
0.18                   0.9999491       -2.337243
0.184                  0.9999592       -2.390848
0.188                  0.9999683       -2.444514
0.192                  0.9999762       -2.498237
0.196                   0.999983       -2.552015
0.2                    0.9999888       -2.605845
0.204                  0.9999934       -2.659723
0.208                  0.9999968       -2.713648
0.212                  0.9999989       -2.767615
0.216                          1        -2.82162
0.22                   0.9999997       -2.875661
0.224                  0.9999982       -2.929735
0.228                  0.9999956       -2.983838
0.232                  0.9999916       -3.037967
0.236                  0.9999864       -3.092119
0.24                   0.9999802       -3.146289
0.244                  0.9999728       -3.200475
0.248                  0.9999641       -3.254675
0.252                  0.9999542       -3.308884
0.256                  0.9999435       -3.363099
0.26                   0.9999315       -3.417319
0.264                  0.9999185       -3.471539
0.268                  0.9999045       -3.525758
0.272                  0.9998896       -3.579971
0.276                  0.9998735       -3.634178
0.28                   0.9998568       -3.688375
0.284                  0.9998391       -3.742562
0.288                  0.9998208       -3.796734
0.292                  0.9998017       -3.850891
0.296                  0.9997818       -3.905031
0.3                    0.9997614       -3.959153
0.304                  0.9997406       -4.013254
0.308                  0.9997191       -4.067336
0.312                  0.9996972       -4.121395
0.316                  0.9996751       -4.175432
0.32                   0.9996527       -4.229447
0.324                  0.9996301       -4.283438
0.328                  0.9996073       -4.337406
0.332                  0.9995844       -4.391353
0.336                  0.9995617       -4.445276
0.34                   0.9995389       -4.499178
0.344                  0.9995164        -4.55306
0.348                  0.9994939       -4.606923
0.352                  0.9994719       -4.660768
0.356                  0.9994502       -4.714597
0.36                   0.9994288       -4.768412
0.364                  0.9994081       -4.822215
0.368                  0.9993879       -4.876008
0.372                  0.9993684       -4.929794
0.376                  0.9993495       -4.983576
0.38                   0.9993314       -5.037357
0.384                  0.9993141        -5.09114
0.388                  0.9992976       -5.144929
0.392                  0.9992822       -5.198727
0.396                  0.9992677       -5.252537
0.4                    0.9992542       -5.306365
0.404                  0.9992419       -5.360214
0.408                  0.9992306       -5.414087
0.412                  0.9992205       -5.467991
0.416                  0.9992114       -5.521929
0.42                   0.9992038       -5.575907
0.424                  0.9991973       -5.629929
0.428                  0.9991921       -5.683998
0.432                  0.9991881       -5.738122
0.436                  0.9991855       -5.792305
0.44                   0.9991841       -5.846553
0.444                  0.9991843       -5.900868
0.448                  0.9991856       -5.955259
0.452                  0.9991883       -6.009729
0.456                  0.9991923       -6.064283
0.46                   0.9991975       -6.118929
0.464                   0.999204       -6.173669
0.468                  0.9992119       -6.228509
0.472                   0.999221       -6.283455
0.476                  0.9992313       -6.338512
0.48                   0.9992427       -6.393684
0.484                  0.9992553       -6.448975
0.488                   0.999269       -6.504394
0.492                  0.9992839        -6.55994
0.496                  0.9992996       -6.615621
0.5                    0.9993165       -6.671442
0.504                  0.9993341       -6.727405
0.508                  0.9993525       -6.783515
0.512                  0.9993719       -6.839775
0.516                  0.9993919       -6.896189
0.52                   0.9994125       -6.952763
0.524                  0.9994338       -7.009496
0.528                  0.9994554       -7.066395
0.532                  0.9994777       -7.123461
0.536                  0.9995002       -7.180696
0.54                    0.999523       -7.238103
0.544                   0.999546       -7.295684
0.548                  0.9995691       -7.353442
0.552                  0.9995921       -7.411377
0.556                  0.9996152        -7.46949
0.56                   0.9996381       -7.527785
0.564                  0.9996608        -7.58626
0.568                  0.9996832       -7.644917
0.572                  0.9997053       -7.703756
0.576                  0.9997268       -7.762777
0.58                   0.9997476        -7.82198
0.584                   0.999768       -7.881365
0.588                  0.9997875        -7.94093
0.592                  0.9998062       -8.000674
0.596                  0.9998241       -8.060597
0.6                    0.9998409       -8.120697
0.604                  0.9998567       -8.180973
0.608                  0.9998715       -8.241421
0.612                   0.999885        -8.30204
0.616                  0.9998973        -8.36283
0.62                   0.9999082       -8.423784
0.624                  0.9999178       -8.484903
0.628                   0.999926       -8.546182
0.632                  0.9999326       -8.607619
0.636                  0.9999377       -8.669209
0.64                   0.9999413       -8.730952
0.644                  0.9999432       -8.792839
0.648                  0.9999436       -8.854872
0.652                  0.9999421       -8.917043
0.656                  0.9999391        -8.97935
0.66                   0.9999342       -9.041788
0.664                  0.9999274       -9.104355
0.668                  0.9999191       -9.167046
0.672                  0.9999091       -9.229856
0.676                  0.9998971        -9.29278
0.68                   0.9998834       -9.355816
0.684                  0.9998679        -9.41896
0.688                  0.9998508       -9.482206
0.692                  0.9998317       -9.545549
0.696                   0.999811        -9.60899
0.7                    0.9997887        -9.67252
0.704                  0.9997648       -9.736134
0.708                  0.9997392       -9.799836
0.712                  0.9997118       -9.863616
0.716                  0.9996832        -9.92747
0.72                   0.9996529         -9.9914
0.724                  0.9996213        -10.0554
0.728                  0.9995883       -10.11946
0.732                  0.9995541       -10.18359
0.736                  0.9995186       -10.24778
0.74                   0.9994818       -10.31203
0.744                  0.9994441       -10.37633
0.748                  0.9994054       -10.44069
0.752                  0.9993658       -10.50511
0.756                  0.9993253       -10.56957
0.76                    0.999284       -10.63409
0.764                  0.9992422       -10.69865
0.768                  0.9991997       -10.76327
0.772                  0.9991568       -10.82794
0.776                  0.9991136       -10.89265
0.78                     0.99907       -10.95742
0.784                  0.9990262       -11.02224
0.788                  0.9989825       -11.08711
0.792                  0.9989387       -11.15203
0.796                  0.9988951       -11.21701
0.8                    0.9988516       -11.28205
0.804                  0.9988085       -11.34715
0.808                  0.9987658       -11.41232
0.812                  0.9987237       -11.47754
0.816                  0.9986821       -11.54284
0.82                   0.9986412       -11.60822
0.824                  0.9986011       -11.67367
0.828                  0.9985619        -11.7392
0.832                  0.9985237       -11.80482
0.836                  0.9984866       -11.87054
0.84                   0.9984505       -11.93635
0.844                  0.9984157       -12.00226
0.848                  0.9983821       -12.06829
0.852                  0.9983499       -12.13443
0.856                   0.998319       -12.20069
0.86                   0.9982896       -12.26709
0.864                  0.9982617       -12.33362
0.868                  0.9982356       -12.40029
0.872                  0.9982109       -12.46711
0.876                  0.9981878       -12.53409
0.88                   0.9981665       -12.60124
0.884                  0.9981469       -12.66856
0.888                   0.998129       -12.73606
0.892                  0.9981128       -12.80375
0.896                  0.9980984       -12.87164
0.9                    0.9980857       -12.93974
0.904                  0.9980749       -13.00805
0.908                  0.9980657       -13.07659
0.912                  0.9980583       -13.14535
0.916                  0.9980525       -13.21436
0.92                   0.9980484       -13.28362
0.924                  0.9980459       -13.35313
0.928                  0.9980451        -13.4229
0.932                  0.9980458       -13.49295
0.936                  0.9980479       -13.56328
0.94                   0.9980515       -13.63391
0.944                  0.9980563       -13.70482
0.948                  0.9980625       -13.77605
0.952                    0.99807       -13.84758
0.956                  0.9980785       -13.91943
0.96                    0.998088       -13.99161
0.964                  0.9980985       -14.06412
0.968                  0.9981097       -14.13698
0.972                  0.9981217       -14.21018
0.976                  0.9981344       -14.28373
0.98                   0.9981474       -14.35764
0.984                  0.9981609       -14.43191
0.988                  0.9981747       -14.50655
0.992                  0.9981885       -14.58157
0.996                  0.9982024       -14.65696
1                      0.9982161       -14.73273
1.004                  0.9982297       -14.80889
1.008                  0.9982428       -14.88544
1.012                  0.9982553       -14.96238
1.016                  0.9982671       -15.03971
1.02                   0.9982782       -15.11744
1.024                  0.9982883       -15.19557
1.028                  0.9982974        -15.2741
1.032                  0.9983052       -15.35303
1.036                  0.9983116       -15.43236
1.04                   0.9983165       -15.51209
1.044                  0.9983198       -15.59222
1.048                  0.9983213       -15.67276
1.052                  0.9983209       -15.75374
1.056                  0.9983185       -15.83505
1.06                    0.998314       -15.91679
1.064                  0.9983071       -15.99891
1.068                  0.9982978       -16.08142
1.072                  0.9982859       -16.16434
1.076                  0.9982715       -16.24764
1.08                   0.9982543       -16.33133
1.084                  0.9982343       -16.41542
1.088                  0.9982115       -16.49984
1.092                  0.9981855       -16.58465
1.096                  0.9981565       -16.66983
1.1                    0.9981242        -16.7554
1.104                  0.9980888       -16.84132
1.108                    0.99805       -16.92758
1.112                   0.998008       -17.01418
1.116                  0.9979624       -17.10114
1.12                   0.9979134       -17.18846
1.124                  0.9978608       -17.27605
1.128                  0.9978047       -17.36402
1.132                  0.9977452        -17.4523
1.136                   0.997682        -17.5409
1.14                   0.9976154       -17.62981
1.144                  0.9975452       -17.71903
1.148                  0.9974715       -17.80854
1.152                  0.9973942       -17.89835
1.156                  0.9973135       -17.98845
1.16                   0.9972294       -18.07884
1.164                  0.9971418        -18.1695
1.168                  0.9970507       -18.26044
1.172                  0.9969565       -18.35165
1.176                  0.9968591       -18.44313
1.18                   0.9967585       -18.53487
1.184                  0.9966549       -18.62686
1.188                  0.9965483       -18.71912
1.192                  0.9964387       -18.81162
1.196                  0.9963265       -18.90437
1.2                    0.9962116       -18.99737
1.204                   0.996094       -19.09062
1.208                  0.9959742        -19.1841
1.212                  0.9958519       -19.27783
1.216                  0.9957275        -19.3718
1.22                   0.9956011       -19.46601
1.224                  0.9954727       -19.56047
1.228                  0.9953428       -19.65516
1.232                  0.9952111        -19.7501
1.236                  0.9950779       -19.84529
1.24                   0.9949434       -19.94072
1.244                  0.9948077       -20.03641
1.248                  0.9946711       -20.13235
1.252                  0.9945337       -20.22855
1.256                  0.9943955       -20.32502
1.26                   0.9942568       -20.42176
1.264                  0.9941176       -20.51877
1.268                  0.9939783       -20.61606
1.272                  0.9938388       -20.71365
1.276                  0.9936995       -20.81153
1.28                   0.9935603       -20.90972
1.284                  0.9934215       -21.00822
1.288                  0.9932831       -21.10706
1.292                  0.9931453       -21.20623
1.296                  0.9930083       -21.30574
1.3                    0.9928722       -21.40561
1.304                  0.9927371       -21.50585
1.308                   0.992603       -21.60648
1.312                  0.9924703        -21.7075
1.316                  0.9923387       -21.80893
1.32                   0.9922085       -21.91078
1.324                  0.9920798       -22.01307
1.328                  0.9919527       -22.11582
1.332                  0.9918271       -22.21903
1.336                  0.9917032       -22.32273
1.34                   0.9915809       -22.42693
1.344                  0.9914603       -22.53165
1.348                  0.9913415        -22.6369
1.352                  0.9912244        -22.7427
1.356                   0.991109       -22.84907
1.36                   0.9909954       -22.95603
1.364                  0.9908836       -23.06359
1.368                  0.9907734       -23.17178
1.372                  0.9906647       -23.28061
1.376                  0.9905577       -23.39009
1.38                   0.9904521       -23.50025
1.384                   0.990348       -23.61111
1.388                  0.9902452       -23.72268
1.392                  0.9901435       -23.83499
1.396                  0.9900429       -23.94804
1.4                    0.9899433       -24.06186
1.404                  0.9898445       -24.17648
1.408                  0.9897464       -24.29189
1.412                  0.9896487       -24.40813
1.416                  0.9895514       -24.52521
1.42                   0.9894541       -24.64315
1.424                  0.9893567       -24.76195
1.428                  0.9892591       -24.88166
1.432                  0.9891609       -25.00226
1.436                  0.9890619       -25.12379
1.44                    0.988962       -25.24626
1.444                  0.9888608       -25.36968
1.448                  0.9887581       -25.49406
1.452                  0.9886537       -25.61943
1.456                  0.9885472       -25.74579
1.46                   0.9884385       -25.87316
1.464                   0.988327       -26.00155
1.468                  0.9882128       -26.13097
1.472                  0.9880952       -26.26144
1.476                  0.9879742       -26.39296
1.48                   0.9878494       -26.52554
1.484                  0.9877205       -26.65919
1.488                  0.9875873       -26.79392
1.492                  0.9874492       -26.92974
1.496                  0.9873062       -27.06666
1.5                    0.9871576       -27.20468
1.504                  0.9870035       -27.34381
1.508                  0.9868433       -27.48406
1.512                  0.9866768       -27.62542
1.516                  0.9865038       -27.76791
1.52                   0.9863238       -27.91153
1.524                  0.9861364       -28.05628
1.528                  0.9859417       -28.20216
1.532                   0.985739       -28.34917
1.536                  0.9855283       -28.49732
1.54                   0.9853091       -28.64661
1.544                  0.9850813       -28.79703
1.548                  0.9848445       -28.94859
1.552                  0.9845985       -29.10129
