! TOUCHSTONE file generated by CST MICROWAVE STUDIO
! Date and time: Tue Jun 14 13:48:50 2022
! Project name: AppElm_antenne_patch_FR4.cst
! Parameters = {L=45; W=58.5; e=0.035; h=1.6; lambda=0.190476; ls=120; w0=2.54; w1=0.847; ws=120; y0=18; y1=19.04}
! Header version: 2018
! Port assignment regex: !\s*Touchstone port\s*([0-9]+)\s*=\s*(CST MWS port|CST DS port)\s*([0-9]+|Zmin|Zmax)\s*\(\"(.*)\"\)(\s*mode\s*([0-9]+))?.*
! Touchstone port assignment:
! Touchstone port 1 = CST MWS port 1 ("")
# GHz S MA R 50
0                      0.9852728              -0
0.004                  0.9860913       -9.868871
0.008                  0.9884408       -19.64644
0.012                  0.9920196       -29.24619
0.016                  0.9963734       -38.59037
0.02                     1.00096       -47.61245
0.024                   1.005224       -56.25821
0.028                   1.008662       -64.48541
0.032                   1.010892       -72.26295
0.036                   1.011688       -79.56968
0.04                    1.011011       -86.39365
0.044                   1.009001       -92.73168
0.048                   1.005965       -98.58956
0.052                   1.002332       -103.9825
0.056                  0.9985972       -108.9356
0.06                    0.995258       -113.4834
0.064                  0.9927454       -117.6694
0.068                  0.9913642        -121.543
0.072                  0.9912531       -125.1564
0.076                  0.9923667       -128.5605
0.08                   0.9944883       -131.8003
0.084                  0.9972681       -134.9119
0.088                   1.000278       -137.9203
0.092                   1.003076       -140.8388
0.096                   1.005271       -143.6704
0.1                     1.006576       -146.4096
0.104                    1.00684       -149.0453
0.108                   1.006067       -151.5645
0.112                   1.004414        -153.955
0.116                   1.002159       -156.2088
0.12                   0.9996623       -158.3241
0.124                  0.9973119       -160.3069
0.128                  0.9954641       -162.1711
0.132                    0.99439       -163.9373
0.136                  0.9942334       -165.6305
0.14                   0.9949917       -167.2764
0.144                  0.9965186       -168.8987
0.148                  0.9985517       -170.5152
0.152                   1.000756       -172.1362
0.156                   1.002781       -173.7639
0.16                    1.004313       -175.3921
0.164                   1.005124        -177.009
0.168                   1.005103       -178.5987
0.172                   1.004273        179.8557
0.176                   1.002782        178.3691
0.18                     1.00088        176.9517
0.184                  0.9988817        175.6079
0.188                  0.9971108        174.3343
0.192                  0.9958514        173.1206
0.196                  0.9953008        171.9507
0.2                    0.9955376        170.8053
0.204                  0.9965093        169.6652
0.208                  0.9980431        168.5139
0.212                   0.999877        167.3405
0.216                   1.001704        166.1412
0.22                    1.003224        164.9194
0.224                   1.004192        163.6847
0.228                   1.004455        162.4514
0.232                    1.00398         161.236
0.236                   1.002851        160.0541
0.24                    1.001262        158.9182
0.244                  0.9994799        157.8355
0.248                   0.997803        156.8065
0.252                  0.9965109        155.8248
0.256                  0.9958176        154.8781
0.26                   0.9958346        153.9499
0.264                  0.9965527        153.0228
0.268                  0.9978435        152.0809
0.272                  0.9994837         151.113
0.276                   1.001193        150.1139
0.28                    1.002683        149.0854
0.284                   1.003705        148.0358
0.288                   1.004089        146.9781
0.292                   1.003777        145.9278
0.296                   1.002824        144.9008
0.3                     1.001393        143.9101
0.304                  0.9997291        142.9641
0.308                   0.998115        142.0648
0.312                  0.9968262        141.2075
0.316                  0.9960822        140.3816
0.32                   0.9960084        139.5719
0.324                  0.9966152        138.7617
0.328                  0.9977947        137.9356
0.332                  0.9993416         137.082
0.336                   1.000989        136.1954
0.34                    1.002454        135.2767
0.344                   1.003487        134.3335
0.348                   1.003913        133.3781
0.352                   1.003663        132.4259
0.356                   1.002779        131.4926
0.36                    1.001414        130.5914
0.364                  0.9998016         129.731
0.368                  0.9982207        128.9143
0.372                  0.9969442         128.137
0.376                  0.9961932         127.389
0.38                   0.9960983        126.6558
0.384                  0.9966751        125.9209
0.388                  0.9978226        125.1689
0.392                  0.9993402        124.3882
0.396                   1.000964        123.5732
0.4                     1.002413        122.7248
0.404                   1.003438        121.8503
0.408                   1.003862        120.9621
0.412                   1.003614        120.0755
0.416                   1.002735        119.2062
0.42                    1.001378        118.3675
0.424                  0.9997765        117.5683
0.428                  0.9982093        116.8112
0.432                    0.99695        116.0923
0.436                  0.9962196        115.4012
0.44                   0.9961471        114.7233
0.444                  0.9967458         114.042
0.448                  0.9979109        113.3422
0.452                  0.9994381        112.6122
0.456                    1.00106        111.8467
0.46                    1.002494        111.0468
0.464                    1.00349        110.2201
0.468                   1.003875        109.3795
0.472                    1.00358        108.5406
0.476                   1.002656         107.719
0.48                    1.001261        106.9283
0.484                  0.9996363         106.177
0.488                  0.9980657        105.4676
0.492                   0.996825        104.7954
0.496                  0.9961333        104.1496
0.5                     0.996114        103.5153
0.504                  0.9967714        102.8755
0.508                    0.99799         102.215
0.512                  0.9995553        101.5225
0.516                   1.001192         100.793
0.52                    1.002612        100.0283
0.524                   1.003565        99.23687
0.528                   1.003886        98.43202
0.532                   1.003514        97.62983
0.536                   1.002512        96.84638
0.54                    1.001053        96.09495
0.544                    0.99939        95.38381
0.548                  0.9978155        94.71458
0.552                  0.9966074        94.08189
0.556                  0.9959814         93.4741
0.56                   0.9960509        92.87539
0.564                  0.9968055        92.26854
0.568                  0.9981131        91.63814
0.572                  0.9997431        90.97342
0.576                   1.001408           90.27
0.58                    1.002814        89.53074
0.584                   1.003713        88.76502
0.588                   1.003945        87.98715
0.592                   1.003467        87.21381
0.596                    1.00236        86.46134
0.6                     1.000813         85.7429
0.604                  0.9990984        85.06611
0.608                   0.997517        84.43172
0.612                  0.9963504        83.83315
0.616                  0.9958085        83.25764
0.62                   0.9959905         82.6884
0.624                  0.9968667        82.10774
0.628                   0.998283        81.50024
0.632                  0.9999889        80.85568
0.636                   1.001682        80.17069
0.64                    1.003062        79.44934
0.644                   1.003885        78.70234
0.648                   1.004001        77.94501
0.652                   1.003387        77.19489
0.656                   1.002145        76.46854
0.66                    1.000491        75.77883
0.664                  0.9987145        75.13262
0.668                  0.9971292        74.52939
0.672                  0.9960194        73.96112
0.676                  0.9955859        73.41361
0.68                   0.9959098          72.869
0.684                  0.9969367        72.30903
0.688                  0.9984863        71.71839
0.692                   1.000283        71.08754
0.696                   1.002009        70.41439
0.7                     1.003357        69.70452
0.704                   1.004087        68.97014
0.708                   1.004066        68.22789
0.712                   1.003292         67.4961
0.716                   1.001898        66.79164
0.72                    1.000124        66.12691
0.724                  0.9982843        65.50777
0.728                  0.9967047        64.93216
0.732                  0.9956701        64.39035
0.736                  0.9953699         63.8665
0.74                   0.9958623        63.34152
0.744                  0.9970634        62.79659
0.748                  0.9987611        62.21665
0.752                   1.000654        61.59313
0.756                   1.002404        60.92544
0.76                    1.003699        60.22097
0.764                   1.004307        59.49366
0.768                   1.004114        58.76163
0.772                   1.003147        58.04409
0.776                   1.001571        57.35805
0.78                   0.9996582        56.71541
0.784                  0.9977466        56.12069
0.788                  0.9961769        55.57004
0.792                  0.9952326        55.05172
0.796                  0.9950877        54.54802
0.8                    0.9957729        54.03852
0.804                  0.9971695        53.50387
0.808                  0.9990297        52.92938
0.812                   1.001022        52.30771
0.816                   1.002789        51.64005
0.82                    1.004016        50.93584
0.824                   1.004478          50.211
0.828                   1.004088        49.48524
0.832                   1.002905        48.77866
0.836                   1.001132        48.10838
0.84                   0.9990772        47.48547
0.844                  0.9971045        46.91292
0.848                  0.9955679        46.38473
0.852                  0.9947476        45.88683
0.856                  0.9947979        45.39943
0.86                   0.9957159        44.90071
0.864                  0.9973425        44.37085
0.868                  0.9993892        43.79575
0.872                   1.001491        43.16955
0.876                   1.003273        42.49557
0.88                    1.004414         41.7856
0.884                   1.004705        41.05782
0.888                   1.004087         40.3336
0.892                    1.00266          39.634
0.896                   1.000668        38.97611
0.9                    0.9984591        38.37004
0.904                  0.9964262        37.81685
0.908                  0.9949361        37.30809
0.912                  0.9942627        36.82705
0.916                  0.9945352        36.35169
0.92                    0.995712        35.85869
0.924                  0.9975872        35.32788
0.928                   0.999827        34.74597
0.932                   1.002031        34.10891
0.936                   1.003804        33.42249
0.94                    1.004825        32.70118
0.944                   1.004903        31.96561
0.948                   1.004014        31.23901
0.952                   1.002302        30.54337
0.956                   1.000061        29.89566
0.96                   0.9976837        29.30467
0.964                  0.9955933        28.76924
0.968                  0.9941695        28.27802
0.972                  0.9936768         27.8113
0.976                  0.9942134        27.34447
0.98                   0.9956915        26.85266
0.984                  0.9978519        26.31543
0.988                    1.00031        25.72056
0.992                   1.002626        25.06615
0.996                   1.004384        24.36085
1                       1.005264        23.62218
1.004                   1.005099        22.87349
1.008                   1.003904        22.14003
1.012                   1.001878        21.44475
1.016                  0.9993681        20.80433
1.02                   0.9968173        20.22601
1.024                  0.9946829        19.70593
1.028                  0.9933558        19.22941
1.032                  0.9930865        18.77329
1.036                  0.9939362        18.31014
1.04                   0.9957622        17.81346
1.044                  0.9982435        17.26266
1.048                   1.000938        16.64691
1.052                   1.003363        15.96694
1.056                    1.00508        15.23471
1.06                    1.005774        14.47124
1.064                   1.005306        13.70297
1.068                    1.00374        12.95744
1.072                   1.001335        12.25862
1.076                   0.998505        11.62277
1.08                   0.9957474        11.05524
1.084                  0.9935585          10.549
1.088                   0.992341        10.08542
1.092                   0.992328        9.637345
1.096                  0.9935357        9.174118
1.1                    0.9957576        8.667403
1.104                  0.9986003        8.096591
1.108                   1.001556        7.452553
1.112                   1.004092        6.739094
1.116                   1.005748        5.972068
1.12                    1.006215        5.176519
1.124                   1.005387         4.38249
1.128                   1.003386          3.6201
1.132                   1.000546        2.914432
1.136                  0.9973541        2.281219
1.14                   0.9943754        1.723489
1.144                  0.9921497        1.230334
1.148                  0.9910928        0.778371
1.152                  0.9914146       0.3356657
1.156                  0.9930763      -0.1322836
1.16                   0.9957934      -0.6558991
1.164                  0.9990863       -1.255737
1.168                   1.002368       -1.938805
1.172                   1.005047       -2.697561
1.176                   1.006636       -3.511495
1.18                    1.006832       -4.350717
1.184                   1.005571       -5.180881
1.188                   1.003045       -5.968737
1.192                   0.999675       -6.687696
1.196                  0.9960406       -7.322683
1.2                    0.9927872       -7.873475
1.204                  0.9905093       -8.355622
1.208                  0.9896384       -8.798362
1.212                  0.9903575       -9.239509
1.216                  0.9925599       -9.718278
1.22                   0.9958656       -10.26764
1.224                   0.999689       -10.90807
1.228                   1.003345       -11.64396
1.232                   1.006171       -12.46317
1.236                   1.007643       -13.33948
1.24                    1.007467         -14.237
1.244                   1.005629       -15.11595
1.248                   1.002409       -15.93901
1.252                  0.9983351       -16.67757
1.256                  0.9941076       -17.31716
1.26                   0.9904774       -17.86096
1.264                  0.9881118        -18.3305
1.268                  0.9874668       -18.76264
1.272                  0.9886931         -19.203
1.276                  0.9915993       -19.69711
1.28                    0.995682       -20.28151
1.284                   1.000217       -20.97675
1.288                    1.00439       -21.78404
1.292                   1.007441       -22.68549
1.296                   1.008794       -23.64751
1.3                     1.008159        -24.6264
1.304                   1.005582       -25.57509
1.308                   1.001453       -26.45054
1.312                  0.9964455       -27.22099
1.316                  0.9914192       -27.87226
1.32                   0.9872727       -28.41176
1.324                  0.9847801       -28.86903
1.328                  0.9844387       -29.29144
1.332                  0.9863613       -29.73567
1.336                  0.9902439       -30.25641
1.34                   0.9954143       -30.89553
1.344                   1.000954       -31.67417
1.348                   1.005861       -32.58949
1.352                   1.009231       -33.61586
1.356                   1.010404       -34.70965
1.36                    1.009079       -35.81602
1.364                   1.005376       -36.87712
1.368                  0.9998323       -37.84083
1.372                  0.9933289       -38.66957
1.376                  0.9869647        -39.3482
1.38                   0.9818716       -39.88931
1.384                   0.979005       -40.33383
1.388                  0.9789495       -40.74529
1.392                  0.9817845       -41.19809
1.396                    0.98705       -41.76233
1.4                    0.9938224       -42.48963
1.404                   1.000881       -43.40351
1.408                   1.006925       -44.49627
1.412                   1.010797       -45.73152
1.416                   1.011675       -47.05066
1.42                    1.009209       -48.38157
1.424                   1.003599       -49.64846
1.428                  0.9955916       -50.78264
1.432                  0.9863972       -51.73416
1.436                  0.9775246       -52.48302
1.44                   0.9705359       -53.04792
1.444                  0.9667547       -53.48854
1.448                  0.9669817        -53.8982
1.452                  0.9712942       -54.38642
1.456                  0.9789922       -55.05581
1.46                   0.9887103       -55.98075
1.464                  0.9986613       -57.19418
1.468                   1.006946       -58.68439
1.472                   1.011865       -60.39992
1.476                   1.012177        -62.2588
1.48                    1.007301       -64.15928
1.484                  0.9974331       -65.99135
1.488                  0.9835849       -67.64985
1.492                  0.9675206       -69.05065
1.496                  0.9515706       -70.15062
1.5                    0.9382988       -70.96853
1.504                  0.9300291       -71.59957
1.508                  0.9283087       -72.21218
1.512                  0.9334545       -73.02073
1.516                  0.9443484       -74.24037
1.52                   0.9585592       -76.04299
1.524                  0.9727264       -78.53232
1.528                  0.9830535       -81.74281
1.532                  0.9857685       -85.65473
1.536                  0.9774765       -90.21419
1.54                   0.9553966       -95.35063
1.544                  0.9175011       -100.9891
1.548                   0.862583       -107.0577
1.552                   0.790274       -113.4921
