! TOUCHSTONE file generated by CST MICROWAVE STUDIO
! Date and time: Tue Jun 14 13:48:58 2022
! Project name: AppElm_antenne_patch_FR4.cst
! Parameters = {L=45; W=58.5; e=0.035; h=1.6; lambda=0.190476; ls=120; w0=2.54; w1=0.847; ws=120; y0=18; y1=28.56}
! Header version: 2018
! Port assignment regex: !\s*Touchstone port\s*([0-9]+)\s*=\s*(CST MWS port|CST DS port)\s*([0-9]+|Zmin|Zmax)\s*\(\"(.*)\"\)(\s*mode\s*([0-9]+))?.*
! Touchstone port assignment:
! Touchstone port 1 = CST MWS port 1 ("")
# GHz S MA R 50
0                      0.9897471              -0
0.004                  0.9904085       -10.08595
0.008                  0.9922951       -20.07725
0.012                  0.9951302       -29.88411
0.016                  0.9985026        -39.4256
0.02                    1.001932       -48.63238
0.024                   1.004942       -57.44789
0.028                    1.00713        -65.8285
0.032                    1.00822       -73.74287
0.036                   1.008102        -81.1713
0.04                    1.006843       -88.10517
0.044                   1.004668       -94.54673
0.048                   1.001932       -100.5091
0.052                  0.9990611       -106.0161
0.056                  0.9964889       -111.1018
0.06                   0.9945896       -115.8086
0.064                  0.9936209        -120.185
0.068                  0.9936863       -124.2815
0.072                  0.9947227       -128.1464
0.076                   0.996517       -131.8224
0.08                   0.9987461       -135.3429
0.084                   1.001034       -138.7308
0.088                   1.003014       -141.9983
0.092                   1.004386       -145.1487
0.096                   1.004961       -148.1781
0.1                     1.004683       -151.0792
0.104                   1.003637       -153.8442
0.108                   1.002029       -156.4677
0.112                   1.000147       -158.9491
0.116                  0.9983151       -161.2946
0.12                     0.99684       -163.5168
0.124                  0.9959581       -165.6343
0.128                  0.9957982       -167.6693
0.132                  0.9963631        -169.645
0.136                  0.9975324       -171.5819
0.14                   0.9990873       -173.4962
0.144                   1.000751       -175.3969
0.148                   1.002238       -177.2862
0.152                   1.003301       -179.1592
0.156                   1.003774        178.9935
0.16                    1.003592        177.1844
0.164                   1.002804         175.426
0.168                   1.001559        173.7287
0.172                   1.000083        172.0985
0.176                  0.9986335        170.5355
0.18                   0.9974604        169.0339
0.184                   0.996761        167.5828
0.188                  0.9966467        166.1673
0.192                  0.9971253        164.7715
0.196                  0.9981013        163.3807
0.2                    0.9993946        161.9839
0.204                   1.000774        160.5756
0.208                      1.002        159.1559
0.212                   1.002861        157.7305
0.216                   1.003215        156.3093
0.22                    1.003008        154.9044
0.224                   1.002284        153.5282
0.228                   1.001174        152.1907
0.232                  0.9998758        150.8981
0.236                  0.9986161        149.6516
0.24                   0.9976142        148.4468
0.244                  0.9970413        147.2746
0.248                  0.9969927        146.1226
0.252                  0.9974705        144.9774
0.256                  0.9983849        143.8266
0.26                   0.9995703        142.6613
0.264                   1.000817        141.4772
0.268                   1.001906        140.2753
0.272                    1.00265        139.0616
0.276                   1.002922        137.8458
0.28                    1.002678        136.6397
0.284                   1.001966        135.4548
0.288                   1.000911        134.3006
0.292                  0.9996988        133.1831
0.296                   0.998542        132.1031
0.3                    0.9976426        131.0566
0.304                  0.9971564        130.0351
0.308                  0.9971665         129.027
0.312                  0.9976685        128.0199
0.316                   0.998571        127.0027
0.32                   0.9997137        125.9674
0.324                   1.000895        124.9105
0.328                   1.001909        123.8336
0.332                    1.00258        122.7428
0.336                   1.002792        121.6479
0.34                     1.00251        120.5602
0.344                   1.001785         119.491
0.348                   1.000745        118.4493
0.352                   0.999571        117.4407
0.356                  0.9984692        116.4656
0.36                   0.9976326        115.5199
0.364                  0.9972076        114.5952
0.368                  0.9972684        113.6803
0.372                  0.9978033        112.7632
0.376                  0.9987176        111.8332
0.38                   0.9998498         110.883
0.384                   1.001002        109.9097
0.388                   1.001972        108.9153
0.392                   1.002591        107.9062
0.396                   1.002753        106.8922
0.4                      1.00243        105.8847
0.404                   1.001677        104.8947
0.408                   1.000627         103.931
0.412                  0.9994614        102.9987
0.416                  0.9983857         102.098
0.42                   0.9975879        101.2245
0.424                  0.9972088        100.3695
0.428                  0.9973155        99.52184
0.432                  0.9978892        98.66963
0.436                  0.9988293        97.80255
0.44                   0.9999707        96.91359
0.444                   1.001113        96.00029
0.448                   1.002057        95.06501
0.452                   1.002638        94.11463
0.456                   1.002753        93.15919
0.46                    1.002383        92.21016
0.464                   1.001589        91.27855
0.468                   1.000511        90.37297
0.472                  0.9993339        89.49819
0.476                   0.998265        88.65412
0.48                   0.9974916        87.83583
0.484                  0.9971504        87.03443
0.488                  0.9973022        86.23839
0.492                  0.9979212        85.43583
0.496                   0.998899        84.61649
0.5                     1.000064        83.77365
0.504                   1.001213         82.9052
0.508                   1.002143        82.01404
0.512                   1.002691        81.10744
0.516                   1.002762         80.1958
0.52                    1.002339        79.29088
0.524                   1.001495        78.40378
0.528                   1.000375        77.54305
0.532                  0.9991736        76.71313
0.536                  0.9981001        75.91355
0.54                   0.9973434        75.13895
0.544                  0.9970381        74.37985
0.548                  0.9972391        73.62444
0.552                  0.9979126        72.86056
0.556                  0.9989411        72.07794
0.56                    1.000145        71.27008
0.564                   1.001312        70.43523
0.568                   1.002239        69.57678
0.572                   1.002761        68.70258
0.576                   1.002787         67.8235
0.58                    1.002308        66.95171
0.584                   1.001405        66.09848
0.588                   1.000234        65.27232
0.592                  0.9989964        64.47743
0.596                  0.9979101        63.71293
0.6                    0.9971664        62.97285
0.604                  0.9968979        62.24713
0.608                  0.9971541        61.52343
0.612                  0.9978922        60.78925
0.616                   0.998984        60.03424
0.62                    1.000239        59.25201
0.624                   1.001437        58.44125
0.628                   1.002367         57.6059
0.632                   1.002867        56.75443
0.636                   1.002845        55.89836
0.64                    1.002303         55.0503
0.644                   1.001331        54.22184
0.648                   1.000096        53.42151
0.652                   0.998812         52.6533
0.656                  0.9977044        51.91579
0.66                   0.9969688         51.2024
0.664                  0.9967374        50.50233
0.668                  0.9970538         49.8026
0.672                  0.9978653        49.09026
0.676                  0.9990313        48.35476
0.68                    1.000348        47.58986
0.684                   1.001585        46.79466
0.688                   1.002525        45.97372
0.692                   1.003002        45.13626
0.696                   1.002928        44.29454
0.7                     1.002312        43.46177
0.704                   1.001258        42.64992
0.708                  0.9999456        41.86759
0.712                   0.998602        41.11855
0.716                  0.9974627        40.40085
0.72                   0.9967298        39.70715
0.724                  0.9965353        39.02582
0.728                   0.996917        38.34309
0.732                  0.9978109        37.64544
0.736                  0.9990625        36.92207
0.74                    1.000453        36.16683
0.744                   1.001739        35.37925
0.748                   1.002694        34.56462
0.752                   1.003147          33.733
0.756                   1.003016        32.89748
0.76                    1.002318        32.07205
0.764                   1.001168        31.26912
0.768                  0.9997628        30.49748
0.772                  0.9983454        29.76063
0.776                  0.9971644        29.05607
0.78                   0.9964291        28.37559
0.784                  0.9962725        27.70661
0.788                  0.9967264         27.0344
0.792                  0.9977148        26.34474
0.796                  0.9990667        25.62649
0.8                     1.000546        24.87355
0.804                   1.001894        24.08592
0.808                   1.002872        23.26967
0.812                   1.003305        22.43582
0.816                   1.003113        21.59849
0.82                    1.002322        20.77251
0.824                   1.001063        19.97094
0.828                  0.9995494        19.20277
0.832                  0.9980439        18.47132
0.836                  0.9968098        17.77344
0.84                   0.9960666        17.09997
0.844                  0.9959496        16.43719
0.848                  0.9964846        15.76928
0.852                  0.9975822        15.08114
0.856                  0.9990529        14.36114
0.86                     1.00064        13.60321
0.864                   1.002066        12.80782
0.868                    1.00308        11.98192
0.872                   1.003498        11.13762
0.876                   1.003242        10.29024
0.88                    1.002347        9.455647
0.884                   1.000962         8.64767
0.888                  0.9993214        7.875654
0.892                  0.9977084        7.142745
0.896                  0.9964061        6.445148
0.9                    0.9956464        5.772605
0.904                  0.9955688         5.11009
0.908                  0.9961936        4.440448
0.912                  0.9974167        3.747508
0.916                  0.9990277        3.019011
0.92                    1.000746        2.248793
0.924                   1.002272        1.437826
0.928                   1.003335       0.5939929
0.932                   1.003745      -0.2692981
0.936                   1.003421       -1.135369
0.94                     1.00241       -1.987041
0.944                   1.000878       -2.809513
0.948                  0.9990838       -3.592929
0.952                  0.9973369       -4.334223
0.956                  0.9959435       -5.037881
0.96                   0.9951527       -5.715373
0.964                  0.9951105       -6.383275
0.968                  0.9958326       -7.060338
0.972                  0.9971994       -7.764091
0.976                  0.9989763       -8.507654
0.98                    1.000855       -9.297407
0.984                   1.002507       -10.13192
0.988                   1.003641       -11.00225
0.992                   1.004051       -11.89352
0.996                   1.003656       -12.78742
1                       1.002512       -13.66516
1.004                   1.000805       -14.51067
1.008                  0.9988223       -15.31333
1.012                  0.9969045       -16.07004
1.016                  0.9953875       -16.78595
1.02                   0.9945427       -17.47394
1.024                  0.9945273       -18.15236
1.028                  0.9953539       -18.84199
1.032                  0.9968863       -19.56209
1.036                  0.9988625       -20.32691
1.04                     1.00094       -21.14331
1.044                   1.002757       -22.00945
1.048                    1.00399       -22.91525
1.052                   1.004418       -23.84412
1.056                   1.003951       -24.77574
1.06                    1.002654       -25.68926
1.064                   1.000737       -26.56702
1.068                  0.9985186       -27.39724
1.072                  0.9963793       -28.17651
1.076                  0.9946927        -28.9107
1.08                   0.9937608       -29.61419
1.084                  0.9937578       -30.30759
1.088                  0.9946968        -31.0141
1.092                  0.9964243       -31.75529
1.096                  0.9986461        -32.5471
1.1                     1.000979       -33.39713
1.104                   1.003015       -34.30324
1.108                   1.004394       -35.25412
1.112                   1.004866       -36.23113
1.116                   1.004331       -37.21154
1.12                    1.002859       -38.17189
1.124                   1.000685       -39.09222
1.128                   0.998168       -39.95909
1.132                  0.9957365       -40.76849
1.136                  0.9938142       -41.52681
1.14                   0.9927454        -42.2502
1.144                  0.9927315       -42.96199
1.148                   0.993791       -43.68857
1.152                  0.9957529       -44.45459
1.156                  0.9982856       -45.27843
1.16                    1.000953       -46.16887
1.164                   1.003291       -47.12378
1.168                   1.004886       -48.13045
1.172                   1.005447       -49.16789
1.176                   1.004853       -50.21012
1.18                    1.003178       -51.23041
1.184                   1.000682        -52.2055
1.188                  0.9977742       -53.11959
1.192                  0.9949445       -53.96741
1.196                  0.9926847       -54.75567
1.2                    0.9913996       -55.50251
1.204                  0.9913326       -56.23466
1.208                   0.992517        -56.9828
1.212                  0.9947657       -57.77585
1.216                  0.9977011        -58.6357
1.22                    1.000821       -59.57324
1.224                   1.003583       -60.58667
1.228                     1.0055       -61.66184
1.232                   1.006219       -62.77476
1.236                   1.005584       -63.89545
1.24                    1.003664        -64.9925
1.244                   1.000749        -66.0381
1.248                  0.9973062       -67.01274
1.252                  0.9939104       -67.90892
1.256                  0.9911472       -68.73319
1.26                    0.989511       -69.50595
1.264                  0.9893122       -70.25837
1.268                  0.9906153       -71.02696
1.272                  0.9932203       -71.84689
1.276                  0.9966944       -72.74543
1.28                    1.000445       -73.73697
1.284                   1.003823       -74.82074
1.288                    1.00623       -75.98116
1.292                    1.00722       -77.19052
1.296                   1.006576        -78.4133
1.3                     1.004349        -79.6116
1.304                   1.000855        -80.7509
1.308                  0.9966398       -81.80573
1.312                  0.9923931       -82.76455
1.316                  0.9888391       -83.63286
1.32                   0.9866096       -84.43348
1.324                  0.9861269       -85.20352
1.328                  0.9875172        -85.9881
1.332                  0.9905779       -86.83199
1.336                  0.9948061       -87.77108
1.34                   0.9994838       -88.82587
1.344                     1.0038       -89.99815
1.348                   1.006988       -91.27101
1.352                    1.00845       -92.61187
1.356                   1.007858       -93.97752
1.36                    1.005214       -95.32035
1.364                   1.000858       -96.59535
1.368                  0.9954356       -97.76712
1.372                  0.9898043       -98.81659
1.376                  0.9849034       -99.74588
1.38                   0.9815939       -100.5801
1.384                  0.9804972       -101.3649
1.388                  0.9818668       -102.1589
1.392                  0.9855244       -103.0231
1.396                  0.9908783       -104.0087
1.4                    0.9970206       -105.1478
1.404                   1.002881       -106.4483
1.408                   1.007406       -107.8927
1.412                   1.009726       -109.4422
1.416                   1.009299        -111.042
1.42                    1.006004       -112.6292
1.424                   1.000175       -114.1408
1.428                  0.9925867       -115.5235
1.432                  0.9843555       -116.7424
1.436                  0.9767894         -117.79
1.44                   0.9711746        -118.692
1.444                  0.9685382       -119.5067
1.448                   0.969432        -120.317
1.452                  0.9737934       -121.2161
1.456                  0.9809249       -122.2878
1.46                   0.9896001       -123.5915
1.464                  0.9982676       -125.1515
1.468                   1.005304       -126.9553
1.472                   1.009264       -128.9572
1.476                   1.009097       -131.0856
1.48                     1.00431       -133.2523
1.484                  0.9950717       -135.3618
1.488                  0.9822434       -137.3226
1.492                  0.9673303       -139.0607
1.496                  0.9523314       -140.5366
1.5                    0.9394711        -141.762
1.504                  0.9308179       -142.8128
1.508                  0.9278422       -143.8284
1.512                  0.9310213       -144.9929
1.516                  0.9396231       -146.4994
1.52                   0.9517433       -148.5133
1.524                  0.9645762        -151.146
1.528                  0.9748077       -154.4492
1.532                  0.9790169       -158.4236
1.536                  0.9740074        -163.035
1.54                    0.957045       -168.2297
1.544                   0.926011       -173.9481
1.548                  0.8794869        179.8671
1.552                  0.8167927        173.2637
