! TOUCHSTONE file generated by CST MICROWAVE STUDIO
! Date and time: Tue Jun 14 13:48:49 2022
! Project name: AppElm_antenne_patch_FR4.cst
! Parameters = {L=45; W=58.5; e=0.035; h=1.6; lambda=0.190476; ls=120; w0=2.54; w1=0.847; ws=120; y0=18; y1=17.85}
! Header version: 2018
! Port assignment regex: !\s*Touchstone port\s*([0-9]+)\s*=\s*(CST MWS port|CST DS port)\s*([0-9]+|Zmin|Zmax)\s*\(\"(.*)\"\)(\s*mode\s*([0-9]+))?.*
! Touchstone port assignment:
! Touchstone port 1 = CST MWS port 1 ("")
# GHz S MA R 50
0                      0.9849693              -0
0.004                  0.9857987       -9.845229
0.008                  0.9881808       -19.59934
0.012                  0.9918114       -29.17602
0.016                  0.9962333       -38.49768
0.02                      1.0009       -47.49798
0.024                   1.005249       -56.12279
0.028                   1.008771       -64.33001
0.032                   1.011077        -72.0885
0.036                   1.011933       -79.37703
0.04                    1.011291        -86.1834
0.044                   1.009289       -92.50409
0.048                   1.006229       -98.34442
0.052                   1.002542        -103.719
0.056                  0.9987262       -108.6524
0.06                   0.9952892       -113.1787
0.064                  0.9926731        -117.341
0.068                  0.9911968       -121.1887
0.072                  0.9910117       -124.7744
0.076                  0.9920841       -128.1494
0.08                   0.9942036       -131.3597
0.084                  0.9970212       -134.4422
0.088                   1.000103       -137.4227
0.092                   1.002999       -140.3154
0.096                   1.005302       -143.1234
0.1                      1.00671       -145.8414
0.104                   1.007055       -148.4581
0.108                   1.006332       -150.9597
0.112                   1.004687       -153.3334
0.116                   1.002397       -155.5702
0.12                   0.9998273       -157.6675
0.124                  0.9973765       -159.6303
0.128                  0.9954168        -161.472
0.132                  0.9942368       -163.2133
0.136                  0.9939984       -164.8793
0.14                    0.994712       -166.4966
0.144                  0.9962393       -168.0898
0.148                  0.9983176       -169.6778
0.152                   1.000605       -171.2721
0.156                   1.002737       -172.8751
0.16                    1.004383       -174.4815
0.164                   1.005295       -176.0791
0.168                   1.005348       -177.6515
0.172                    1.00455       -179.1813
0.176                   1.003046        179.3476
0.18                    1.001088        177.9466
0.184                  0.9989974        176.6207
0.188                  0.9971145        175.3675
0.192                  0.9957425        174.1767
0.196                  0.9950977        173.0322
0.2                    0.9952745        171.9142
0.204                  0.9962314        170.8021
0.208                  0.9977982        169.6786
0.212                  0.9997068        168.5317
0.216                   1.001638        167.3566
0.22                    1.003274        166.1562
0.224                   1.004349        164.9402
0.228                   1.004695        163.7234
0.232                   1.004261        162.5228
0.236                   1.003128        161.3552
0.24                    1.001487        160.2341
0.244                  0.9996158        159.1679
0.248                  0.9978267        158.1577
0.252                   0.996419        157.1976
0.256                  0.9956262        156.2749
0.26                   0.9955773        155.3728
0.264                  0.9962746        154.4727
0.268                  0.9975935        153.5577
0.272                  0.9993057        152.6153
0.276                   1.001118        151.6395
0.28                    1.002725        150.6316
0.284                   1.003856        149.5997
0.288                   1.004326        148.5573
0.292                   1.004059        147.5208
0.296                   1.003102        146.5068
0.3                     1.001621        145.5297
0.304                  0.9998676        144.5989
0.308                  0.9981401        143.7172
0.312                  0.9967334        142.8802
0.316                  0.9958879        142.0773
0.32                   0.9957467        141.2925
0.324                  0.9963318        140.5083
0.328                  0.9975392         139.708
0.332                  0.9991589        138.8789
0.336                    1.00091        138.0144
0.34                    1.002493        137.1152
0.344                   1.003638        136.1885
0.348                    1.00415        135.2472
0.352                   1.003943        134.3075
0.356                   1.003055         133.386
0.36                    1.001638        132.4972
0.364                  0.9999344        131.6509
0.368                  0.9982381        130.8507
0.372                  0.9968427        130.0927
0.376                  0.9959898        129.3667
0.38                   0.9958281        128.6575
0.384                  0.9963854        127.9475
0.388                  0.9975635        127.2202
0.392                  0.9991568         126.463
0.396                   1.000888         125.669
0.4                     1.002457        124.8388
0.404                   1.003594        123.9795
0.408                   1.004103        123.1041
0.412                   1.003897        122.2288
0.416                   1.003011        121.3701
0.42                    1.001598        120.5428
0.424                  0.9999024        119.7567
0.428                  0.9982177        119.0152
0.432                  0.9968384        118.3148
0.436                  0.9960068        117.6448
0.44                     0.99587          116.99
0.444                  0.9964528        116.3329
0.448                  0.9976533        115.6568
0.452                  0.9992608        114.9491
0.456                   1.000994        114.2034
0.46                     1.00255        113.4204
0.464                   1.003659        112.6078
0.468                   1.004127        111.7788
0.472                   1.003871        110.9499
0.476                   1.002936         110.138
0.48                     1.00148        109.3577
0.484                  0.9997565        108.6188
0.488                  0.9980655        107.9243
0.492                   0.996704        107.2699
0.496                  0.9959126        106.6447
0.5                    0.9958325        106.0329
0.504                   0.996479        105.4165
0.508                  0.9977386        104.7789
0.512                  0.9993897        104.1077
0.516                   1.001141        103.3969
0.52                    1.002686         102.648
0.524                   1.003752        101.8695
0.528                   1.004152        101.0751
0.532                   1.003815         100.282
0.536                   1.002796        99.50729
0.54                     1.00127        98.76558
0.544                   0.999503        98.06617
0.548                  0.9978044        97.41143
0.552                  0.9964742        96.79622
0.556                    0.99575        96.20866
0.56                   0.9957625        95.63203
0.564                  0.9965117        95.04802
0.568                  0.9978666        94.43992
0.572                   0.999588        93.79569
0.576                   1.001372        93.11013
0.58                    1.002904        92.38569
0.584                   1.003914        91.63189
0.588                   1.004224         90.8636
0.592                   1.003775        90.09851
0.596                   1.002642         89.3542
0.6                     1.001022        88.64505
0.604                  0.9991964        87.97973
0.608                  0.9974869        87.35971
0.612                  0.9961971        86.77861
0.616                  0.9955589        86.22327
0.62                   0.9956888        85.67604
0.624                  0.9965664        85.11799
0.628                  0.9980375        84.53238
0.632                  0.9998414        83.90776
0.636                   1.001659        83.23996
0.64                    1.003167        82.53268
0.644                     1.0041        81.79682
0.648                   1.004288        81.04843
0.652                   1.003696        80.30603
0.656                   1.002423        79.58748
0.66                    1.000687        78.90692
0.664                  0.9987937        78.27226
0.668                  0.9970769         77.6836
0.672                  0.9958436        77.13306
0.676                   0.995317        76.60602
0.68                   0.9955951        76.08359
0.684                  0.9966319        75.54622
0.688                  0.9982447        74.97729
0.692                   1.000148        74.36604
0.696                   1.002003        73.70958
0.7                     1.003482        73.01323
0.704                   1.004321        72.28943
0.708                   1.004367        71.55565
0.712                   1.003609        70.83131
0.716                   1.002174        70.13455
0.72                    1.000311        69.47911
0.724                  0.9983472        68.87185
0.728                  0.9966322        68.31133
0.732                  0.9954744        67.78783
0.736                   0.995085        67.28497
0.74                   0.9955388        66.78262
0.744                  0.9967586        66.26058
0.748                   0.998529         65.7024
0.752                   1.000536        65.09832
0.756                   1.002421        64.44705
0.76                    1.003849        63.75573
0.764                   1.004563         63.0387
0.768                   1.004432        62.31491
0.772                   1.003472        61.60479
0.776                   1.001845        60.92667
0.78                   0.9998336        60.29377
0.784                  0.9977916        59.71161
0.788                  0.9960828        59.17689
0.792                  0.9950155        58.67779
0.796                  0.9947859        58.19598
0.8                    0.9954405        57.70983
0.804                  0.9968655        57.19862
0.808                  0.9988085        56.64619
0.812                   1.000923        56.04406
0.816                   1.002831        55.39273
0.82                    1.004191        54.70157
0.824                   1.004757        53.98694
0.828                   1.004422        53.26948
0.832                   1.003236        52.57058
0.836                   1.001402        51.90874
0.84                   0.9992382        51.29637
0.844                  0.9971272        50.73741
0.848                  0.9954478        50.22635
0.852                  0.9945056        49.74895
0.856                  0.9944765        49.28464
0.86                   0.9953727        48.81034
0.864                  0.9970387        48.30472
0.868                  0.9991789        47.75222
0.872                   1.001412         47.1459
0.876                   1.003339        46.48845
0.88                    1.004614        45.79166
0.884                   1.005005        45.07426
0.888                   1.004435         44.3587
0.892                   1.002994        43.66736
0.896                   1.000928        43.01881
0.9                    0.9985999        42.42443
0.904                  0.9964211        41.88626
0.908                  0.9947847        41.39622
0.912                  0.9939912        40.93732
0.916                  0.9941911        40.48661
0.92                   0.9953565        40.01937
0.924                  0.9972832        39.51388
0.928                  0.9996285         38.9554
0.932                   1.001973        38.33879
0.936                   1.003897        37.66932
0.94                    1.005052        36.96159
0.944                   1.005225        36.23687
0.948                   1.004374        35.51959
0.952                   1.002637        34.83312
0.956                   1.000311        34.19596
0.96                   0.9978029        33.61821
0.964                  0.9955595        33.09959
0.968                  0.9939874        32.62905
0.972                  0.9933778        32.18644
0.976                  0.9938505        31.74612
0.98                   0.9953294        31.28171
0.984                   0.997555        30.77113
0.988                   1.000131         30.2007
0.992                   1.002598        29.56752
0.996                   1.004511        28.87981
1                       1.005525        28.15532
1.004                   1.005449        27.41819
1.008                   1.004282        26.69496
1.012                   1.002218        26.01009
1.016                  0.9996099        25.38178
1.02                   0.9969175        24.81858
1.024                   0.994623        24.31748
1.028                  0.9931459        23.86394
1.032                  0.9927642        23.43425
1.036                  0.9935595        22.99977
1.04                   0.9953995        22.53236
1.044                  0.9979605        22.00977
1.048                   1.000786        21.41971
1.052                    1.00337        20.76195
1.056                   1.005247        20.04817
1.06                    1.006073        19.29974
1.064                   1.005686        18.54406
1.068                   1.004135        17.81001
1.072                   1.001677        17.12318
1.076                  0.9987343        16.50141
1.08                    0.995823        15.95131
1.084                  0.9934666        15.46664
1.088                  0.9920981        15.02877
1.092                  0.9919782        14.60983
1.096                  0.9931425        14.17778
1.1                    0.9953927        13.70254
1.104                  0.9983303        13.16177
1.108                    1.00143         12.5449
1.112                   1.004134         11.8549
1.116                   1.005953        11.10746
1.12                    1.006547        10.32814
1.124                    1.00579        9.548038
1.128                   1.003791        8.798776
1.132                   1.000882        8.107124
1.136                  0.9975616        7.490385
1.14                   0.9944172        6.952877
1.144                  0.9920178        6.484353
1.148                  0.9908105        6.061291
1.152                   0.991033        5.650825
1.156                  0.9926649        5.216889
1.16                   0.9954269        4.727235
1.164                  0.9988314        4.159507
1.168                   1.002271        3.505334
1.172                   1.005127        2.771526
1.176                   1.006879        1.978582
1.18                    1.007197         1.15706
1.184                   1.005996       0.3425305
1.188                   1.003457      -0.4301556
1.192                  0.9999999       -1.132657
1.196                  0.9962212       -1.748271
1.2                    0.9927906        -2.27556
1.204                  0.9903342       -2.729543
1.208                  0.9893164       -3.139766
1.212                  0.9899468       -3.545186
1.216                   0.992136       -3.986758
1.22                   0.9955059       -4.499428
1.224                  0.9994592       -5.105465
1.228                   1.003287       -5.810539
1.232                   1.006298       -6.603111
1.236                   1.007934       -7.456776
1.24                    1.007873       -8.334807
1.244                   1.006081       -9.196058
1.248                   1.002829       -10.00149
1.252                  0.9986508       -10.72068
1.256                  0.9942632       -11.33751
1.26                   0.9904455       -11.85401
1.264                   0.987899       -12.29135
1.268                  0.9871134       -12.68691
1.272                  0.9882659       -13.08767
1.276                   0.991179       -13.54115
1.28                   0.9953483       -14.08591
1.284                   1.000034       -14.74434
1.288                   1.004394       -15.51878
1.292                   1.007635       -16.39173
1.296                    1.00915       -17.32924
1.3                     1.008618       -18.28657
1.304                   1.006071       -19.21511
1.308                   1.001889       -20.07001
1.312                  0.9967556       -20.81763
1.316                  0.9915523       -21.44213
1.32                   0.9872086       -21.94992
1.324                  0.9845352       -22.37032
1.328                  0.9840635       -22.75152
1.332                  0.9859318       -23.15185
1.336                  0.9898464       -23.62818
1.34                   0.9951289       -24.22454
1.344                    1.00084       -24.96378
1.348                   1.005949       -25.84405
1.352                   1.009513       -26.83987
1.356                   1.010839       -27.90695
1.36                    1.009602       -28.98922
1.364                   1.005904       -30.02713
1.368                   1.000281       -30.96662
1.372                   0.993627       -31.76819
1.376                   0.987067       -32.41507
1.38                   0.9817684       -32.91898
1.384                  0.9787258       -33.32088
1.388                  0.9785583       -33.68549
1.392                   0.981368       -34.08923
1.396                  0.9867006       -34.60467
1.4                    0.9936199       -35.28564
1.404                   1.000878       -36.15725
1.408                   1.007138       -37.21246
1.412                   1.011205       -38.41468
1.416                   1.012223       -39.70433
1.42                     1.00982       -41.00775
1.424                   1.004182       -42.24724
1.428                  0.9960606       -43.35206
1.432                   0.986685       -44.27023
1.436                   0.977597       -44.98019
1.44                   0.9704008       -45.49991
1.444                  0.9664628       -45.88956
1.448                  0.9666186       -46.24424
1.452                  0.9709638       -46.67607
1.456                  0.9787951       -47.29057
1.46                   0.9887234       -48.16438
1.464                  0.9989241       -49.33166
1.468                   1.007455        -50.7808
1.472                   1.012573       -52.45948
1.476                   1.013007       -54.28415
1.48                    1.008154       -56.15105
1.484                  0.9982077       -57.94782
1.488                  0.9841926       -59.56689
1.492                  0.9679053        -60.9218
1.496                   0.951725       -61.96761
1.5                     0.938273       -62.72263
1.504                  0.9299305       -63.28334
1.508                  0.9282854        -63.8214
1.512                  0.9336665       -64.55557
1.516                  0.9449335       -65.70501
1.52                   0.9596053       -67.44396
1.524                  0.9742569        -69.8764
1.528                  0.9850267       -73.03525
1.532                  0.9880856       -76.89824
1.536                  0.9799959       -81.40851
1.54                   0.9579488       -86.49221
1.544                  0.9199028       -92.07066
1.548                  0.8646509        -98.0674
1.552                  0.7918354       -104.4113
