! TOUCHSTONE file generated by CST MICROWAVE STUDIO
! Date and time: Tue Jun 14 13:48:51 2022
! Project name: AppElm_antenne_patch_FR4.cst
! Parameters = {L=45; W=58.5; e=0.035; h=1.6; lambda=0.190476; ls=120; w0=2.54; w1=0.847; ws=120; y0=18; y1=20.23}
! Header version: 2018
! Port assignment regex: !\s*Touchstone port\s*([0-9]+)\s*=\s*(CST MWS port|CST DS port)\s*([0-9]+|Zmin|Zmax)\s*\(\"(.*)\"\)(\s*mode\s*([0-9]+))?.*
! Touchstone port assignment:
! Touchstone port 1 = CST MWS port 1 ("")
# GHz S MA R 50
0                      0.9856642              -0
0.004                  0.9864684       -9.893342
0.008                  0.9887762       -19.69512
0.012                  0.9922878       -29.31859
0.016                  0.9965538       -38.68571
0.02                    1.001038       -47.72978
0.024                    1.00519       -56.39635
0.028                   1.008519        -64.6431
0.032                    1.01065       -72.43892
0.036                   1.011368       -79.76279
0.04                    1.010643       -86.60306
0.044                   1.008622       -92.95703
0.048                   1.005616       -98.83107
0.052                   1.002052       -104.2412
0.056                   0.998421       -109.2131
0.06                   0.9952083       -113.7822
0.064                  0.9928297       -117.9922
0.068                  0.9915725       -121.8926
0.072                  0.9915575       -125.5354
0.076                  0.9927256       -128.9705
0.08                   0.9948513       -132.2419
0.084                  0.9975831       -135.3847
0.088                   1.000499       -138.4226
0.092                   1.003171       -141.3682
0.096                   1.005227       -144.2238
0.1                     1.006397       -146.9839
0.104                   1.006553       -149.6378
0.108                   1.005715       -152.1732
0.112                    1.00405       -154.5789
0.116                   1.001839        -156.848
0.12                   0.9994365       -158.9802
0.124                  0.9972163       -160.9823
0.128                  0.9955144        -162.869
0.132                  0.9945785       -164.6611
0.136                    0.99453       -166.3828
0.14                   0.9953482       -168.0594
0.144                   0.996877       -169.7129
0.148                  0.9988533       -171.3599
0.152                   1.000952       -173.0094
0.156                   1.002839       -174.6625
0.16                    1.004224       -176.3129
0.164                   1.004902       -177.9485
0.168                   1.004784       -179.5541
0.172                   1.003909        178.8861
0.176                   1.002433        177.3856
0.18                    1.000605        175.9537
0.184                  0.9987257         174.593
0.188                  0.9971003        173.2995
0.192                  0.9959885        172.0624
0.196                  0.9955627        170.8658
0.2                    0.9958798        169.6914
0.204                  0.9968735        168.5211
0.208                  0.9983678        167.3399
0.212                   1.000107        166.1384
0.216                   1.001801        164.9138
0.22                    1.003171        163.6701
0.224                   1.003998        162.4172
0.228                   1.004154        161.1687
0.232                   1.003622        159.9401
0.236                   1.002497        158.7458
0.24                    1.000972        157.5967
0.244                  0.9993047        156.4989
0.248                  0.9977728        155.4517
0.252                  0.9966317        154.4483
0.256                   0.996069        153.4765
0.26                   0.9961736        152.5206
0.264                  0.9969208        151.5644
0.268                  0.9981776        150.5937
0.272                  0.9997263        149.5984
0.276                   1.001303        148.5749
0.28                    1.002641        147.5256
0.284                   1.003519        146.4587
0.288                   1.003791        145.3869
0.292                   1.003418        144.3248
0.296                   1.002465        143.2867
0.3                     1.001097        142.2843
0.304                  0.9995464        141.3245
0.308                  0.9980783        140.4084
0.312                   0.996942        139.5308
0.316                  0.9963306         138.681
0.32                   0.9963466        137.8449
0.324                  0.9969838        137.0068
0.328                  0.9981295         136.153
0.332                  0.9995841        135.2733
0.336                   1.001097        134.3634
0.34                    1.002408        133.4251
0.344                   1.003296         132.466
0.348                    1.00361        131.4979
0.352                   1.003298        130.5352
0.356                   1.002417        129.5921
0.36                    1.001116        128.6804
0.364                  0.9996208        127.8075
0.368                  0.9981881        126.9751
0.372                   0.997066        126.1785
0.376                  0.9964481        125.4078
0.38                   0.9964418        124.6491
0.384                  0.9970468        123.8874
0.388                   0.998157        123.1087
0.392                  0.9995789        122.3032
0.396                   1.001065        121.4663
0.4                     1.002359        120.5996
0.404                   1.003238        119.7106
0.408                    1.00355         118.811
0.412                   1.003244        117.9152
0.416                   1.002372        117.0374
0.42                    1.001084        116.1894
0.424                  0.9996034        115.3786
0.428                  0.9981878        114.6068
0.432                   0.997084        113.8694
0.436                  0.9964857        113.1563
0.44                   0.9964985        112.4537
0.444                  0.9971206        111.7466
0.448                  0.9982429        111.0211
0.452                  0.9996689        110.2675
0.456                   1.001149        109.4813
0.46                    1.002426        108.6644
0.464                   1.003276        107.8246
0.468                   1.003552         106.974
0.472                   1.003205        106.1271
0.476                   1.002293        105.2981
0.48                    1.000974         104.499
0.484                  0.9994761        103.7369
0.488                  0.9980609        103.0133
0.492                   0.996977        102.3231
0.496                  0.9964156        101.6559
0.5                     0.996477        100.9974
0.504                  0.9971511        100.3325
0.508                  0.9983196         99.6472
0.512                  0.9997766        98.93199
0.516                   1.001266        98.18297
0.52                    1.002526        97.40261
0.524                   1.003334        96.59922
0.528                    1.00355        95.78552
0.532                   1.003131        94.97639
0.536                    1.00215        94.18635
0.54                    1.000775        93.42716
0.544                  0.9992453        92.70565
0.548                  0.9978299        92.02253
0.552                   0.996779        91.37207
0.556                  0.9962802        90.74301
0.56                   0.9964238        90.12053
0.564                  0.9971867        89.48892
0.568                  0.9984348        88.83446
0.572                  0.9999481        88.14789
0.576                    1.00146        87.42599
0.58                    1.002704        86.67213
0.584                   1.003459        85.89559
0.588                   1.003592        85.10985
0.592                   1.003076        84.33039
0.596                   1.001998        83.57194
0.6                     1.000545        82.84608
0.604                  0.9989708        82.15907
0.608                  0.9975531        81.51072
0.612                  0.9965441        80.89426
0.616                  0.9961256        80.29735
0.62                   0.9963747        79.70436
0.624                  0.9972497        79.09913
0.628                  0.9985968        78.46801
0.632                   1.000178        77.80224
0.636                   1.001712        77.09957
0.64                    1.002928         76.3645
0.644                    1.00361         75.6075
0.648                   1.003633        74.84307
0.652                    1.00299         74.0873
0.656                   1.001789        73.35523
0.66                    1.000239         72.6581
0.664                  0.9986108        72.00141
0.668                  0.9971935        71.38379
0.672                  0.9962406        70.79709
0.676                  0.9959252        70.22773
0.68                   0.9963073        69.65903
0.684                  0.9973219        69.07441
0.688                  0.9987903        68.46031
0.692                   1.000453        67.80868
0.696                   1.002014        67.11843
0.7                     1.003196        66.39551
0.704                   1.003788        65.65176
0.708                   1.003681        64.90286
0.712                   1.002889         64.1657
0.716                   1.001547        63.45545
0.72                   0.9998883        62.78295
0.724                  0.9982049        62.15271
0.728                  0.9967968        61.56192
0.732                  0.9959179        61.00084
0.736                  0.9957296        60.45434
0.74                   0.9962701        59.90468
0.744                  0.9974463        59.33478
0.748                   0.999051        58.73132
0.752                   1.000799        58.08722
0.756                   1.002379        57.40283
0.76                    1.003508        56.68573
0.764                   1.003982        55.94942
0.768                   1.003713        55.21091
0.772                    1.00274        54.48789
0.776                    1.00123        53.79567
0.78                   0.9994437         53.1445
0.784                  0.9976976        52.53766
0.788                  0.9963029        51.97063
0.792                  0.9955122        51.43178
0.796                  0.9954715        50.90427
0.8                    0.9961932        50.36916
0.804                  0.9975514         49.8089
0.808                  0.9993054        49.21058
0.812                   1.001143        48.56827
0.816                   1.002734        47.88401
0.82                    1.003794        47.16733
0.824                   1.004129        46.43355
0.828                   1.003673        45.70115
0.832                   1.002497        44.98864
0.836                   1.000803        44.31138
0.84                   0.9988865        43.67882
0.844                  0.9970868        43.09272
0.848                  0.9957276        42.54657
0.852                  0.9950568        42.02654
0.856                  0.9952018        41.51388
0.86                   0.9961426        40.98836
0.864                  0.9977155        40.43203
0.868                  0.9996421        39.83258
0.872                   1.001579        39.18552
0.876                   1.003179        38.49485
0.88                    1.004155        37.77234
0.884                   1.004326        37.03543
0.888                   1.003654        36.30413
0.892                   1.002249        35.59782
0.896                   1.000351         34.9318
0.9                    0.9982935        34.31454
0.904                  0.9964415          33.746
0.908                  0.9951305        33.21733
0.912                  0.9946018        32.71221
0.916                  0.9949586         32.2098
0.92                   0.9961438        31.68851
0.924                  0.9979498        31.13011
0.928                   1.000056        30.52307
0.932                   1.002086        29.86464
0.936                   1.003674        29.16117
0.94                    1.004533        28.42695
0.944                     1.0045        27.68169
0.948                   1.003571        26.94718
0.952                   1.001897        26.24362
0.956                   0.999766        25.58613
0.96                   0.9975519        24.98197
0.964                  0.9956497         24.4289
0.968                  0.9944051        23.91536
0.972                  0.9940499         23.4222
0.976                  0.9946578        22.92619
0.98                   0.9961277        22.40431
0.984                  0.9982017        21.83812
0.988                   1.000511        21.21712
0.992                   1.002643         20.5406
0.996                   1.004213        19.81764
1                       1.004935        19.06539
1.004                    1.00467        18.30613
1.008                    1.00345        17.56356
1.012                   1.001478        16.85876
1.016                  0.9990947        16.20653
1.02                   0.9967193        15.61261
1.024                  0.9947785        15.07224
1.028                  0.9936286        14.57061
1.032                  0.9934878        14.08539
1.036                  0.9943936        13.59067
1.04                   0.9961933        13.06193
1.044                  0.9985706        12.48062
1.048                   1.001102        11.83758
1.052                   1.003335        11.13457
1.056                   1.004864        10.38382
1.06                    1.005407        9.605802
1.064                   1.004852         8.82575
1.068                   1.003278        8.069491
1.072                   1.000947        7.359078
1.076                  0.9982597         6.70891
1.08                   0.9956893        6.122875
1.084                  0.9936985        5.593178
1.088                  0.9926545         5.10129
1.092                  0.9927585        4.621065
1.096                  0.9940053        4.123563
1.1                    0.9961813        3.582542
1.104                  0.9989018        2.979429
1.108                   1.001681        2.306684
1.112                   1.004018        1.568996
1.116                   1.005488       0.7822788
1.12                    1.005812     -0.02914477
1.124                   1.004913      -0.8366062
1.128                   1.002924       -1.611839
1.132                   1.000176       -2.331662
1.136                  0.9971433       -2.982232
1.14                   0.9943615       -3.561897
1.144                  0.9923353        -4.08213
1.148                  0.9914442       -4.566001
1.152                  0.9918676       -5.044211
1.156                  0.9935478       -5.549357
1.16                   0.9961971       -6.109676
1.164                  0.9993485       -6.743713
1.168                    1.00244       -7.457012
1.172                   1.004916       -8.241347
1.176                   1.006323       -9.076361
1.18                    1.006389       -9.933095
1.184                   1.005076       -10.77874
1.188                   1.002584       -11.58196
1.192                   0.999327       -12.31817
1.196                  0.9958675       -12.97409
1.2                    0.9928193       -13.55073
1.204                  0.9907397       -14.06403
1.208                  0.9900238       -14.54265
1.212                  0.9908258       -15.02293
1.216                  0.9930237       -15.54199
1.22                   0.9962386       -16.13057
1.224                  0.9999019        -16.8072
1.228                   1.003358       -17.57497
1.232                    1.00598       -18.42131
1.236                    1.00728        -19.3204
1.24                    1.006993       -20.23749
1.244                   1.005127       -21.13449
1.248                   1.001964       -21.97608
1.252                  0.9980266       -22.73568
1.256                  0.9939893       -23.40048
1.26                   0.9905693       -23.97473
1.264                  0.9883956       -24.48011
1.268                  0.9878884       -24.95258
1.272                  0.9891723       -25.43602
1.276                  0.9920453       -25.97369
1.28                   0.9960105       -26.59986
1.284                   1.000366       -27.33329
1.288                   1.004331       -28.17416
1.292                   1.007181        -29.1044
1.296                   1.008377       -30.09117
1.3                     1.007655        -31.0921
1.304                   1.005079       -32.06199
1.308                   1.001036       -32.95984
1.312                  0.9961873       -33.75586
1.316                  0.9913637       -34.43742
1.32                   0.9874265       -35.01274
1.324                  0.9851105       -35.51112
1.328                  0.9848788       -35.97873
1.332                  0.9868235       -36.47012
1.336                  0.9906358       -37.03761
1.34                   0.9956574       -37.72081
1.344                   1.000998       -38.53932
1.348                   1.005693       -39.48965
1.352                   1.008875       -40.54644
1.356                   1.009916       -41.66711
1.36                    1.008542       -42.79846
1.364                    1.00488       -43.88466
1.368                  0.9994588       -44.87564
1.372                  0.9931401       -45.73571
1.376                  0.9869886       -46.45103
1.38                   0.9820953       -47.03459
1.384                  0.9793759       -47.52662
1.388                  0.9793847       -47.98886
1.392                  0.9821873       -48.49324
1.396                  0.9873296        -49.1073
1.4                    0.9939115       -49.88058
1.404                   1.000749       -50.83547
1.408                   1.006582       -51.96424
1.412                   1.010292       -53.23134
1.416                   1.011086        -54.5798
1.42                    1.008629       -55.93949
1.424                    1.00312        -57.2368
1.428                  0.9952882       -58.40519
1.432                  0.9863112       -59.39636
1.436                  0.9776547       -60.19124
1.44                   0.9708347       -60.80825
1.444                  0.9671354       -61.30546
1.448                  0.9673338       -61.77344
1.452                  0.9715077       -62.31853
1.456                  0.9789813       -63.04055
1.46                    0.988431       -64.01224
1.464                   0.998121        -65.2663
1.468                   1.006202       -66.79213
1.472                    1.01101       -68.54025
1.476                   1.011329       -70.43119
1.48                    1.006577       -72.36597
1.484                  0.9969327       -74.23731
1.488                  0.9833664       -75.94245
1.492                  0.9675856         -77.399
1.496                  0.9518533       -78.56416
1.5                     0.938667       -79.45513
1.504                  0.9303025       -80.16313
1.508                  0.9282936       -80.85093
1.512                  0.9329879       -81.72716
1.516                  0.9433384       -83.00309
1.52                   0.9570076       -84.84981
1.524                  0.9707318       -87.37291
1.528                  0.9807963       -90.61045
1.532                  0.9834873       -94.54689
1.536                  0.9754431       -99.13242
1.54                   0.9538923       -104.3003
1.544                   0.916796       -109.9795
1.548                  0.8629189       -116.1027
1.552                  0.7918512        -122.612
