! TOUCHSTONE file generated by CST MICROWAVE STUDIO
! Date and time: Tue Jun  7 19:07:20 2022
! Project name: AppElm_antenne_patch_FR4.cst
! Parameters = {L=45; W=64.35; e=0.035; h=1.6; lambda=0.190476; ls=120; w0=1.6; w1=0.533333; ws=120; y0=20; y1=23.8095}
! Header version: 2018
! Port assignment regex: !\s*Touchstone port\s*([0-9]+)\s*=\s*(CST MWS port|CST DS port)\s*([0-9]+|Zmin|Zmax)\s*\(\"(.*)\"\)(\s*mode\s*([0-9]+))?.*
! Touchstone port assignment:
! Touchstone port 1 = CST MWS port 1 ("")
# GHz S MA R 50
0                      0.9825632              -0
0.004                  0.9835813       -10.75462
0.008                   0.986495       -21.39921
0.012                  0.9909038       -31.83045
0.016                  0.9962122         -41.957
0.02                     1.00172        -51.7027
0.024                   1.006723       -61.00733
0.028                   1.010609       -69.82578
0.032                   1.012934       -78.12639
0.036                   1.013473        -85.8892
0.04                    1.012241       -93.10483
0.044                   1.009485       -99.77422
0.048                   1.005645        -105.909
0.052                   1.001295       -111.5321
0.056                  0.9970577       -116.6785
0.06                   0.9935214       -121.3944
0.064                   0.991151       -125.7356
0.068                  0.9902227       -129.7634
0.072                  0.9907874       -133.5395
0.076                  0.9926705       -137.1207
0.08                   0.9955109        -140.554
0.084                  0.9988244       -143.8734
0.088                   1.002085       -147.0984
0.092                   1.004806       -150.2354
0.096                   1.006611       -153.2797
0.1                      1.00728       -156.2194
0.104                   1.006774       -159.0393
0.108                   1.005234       -161.7246
0.112                   1.002952       -164.2647
0.116                   1.000321        -166.656
0.12                   0.9977729       -168.9037
0.124                  0.9957102       -171.0219
0.128                  0.9944423       -173.0324
0.132                  0.9941392        -174.962
0.136                  0.9948074       -176.8387
0.14                   0.9962957       -178.6879
0.144                  0.9983267        179.4712
0.148                   1.000547        177.6276
0.152                   1.002588        175.7795
0.156                   1.004127        173.9332
0.16                    1.004935        172.1014
0.164                   1.004909        170.3004
0.168                   1.004083        168.5472
0.172                    1.00262        166.8564
0.176                   1.000781        165.2376
0.18                   0.9988822        163.6938
0.184                  0.9972381        162.2205
0.188                  0.9961151        160.8065
0.192                  0.9956843        159.4354
0.196                  0.9959963        158.0885
0.2                    0.9969756        156.7474
0.204                   0.998437        155.3977
0.208                    1.00012        154.0304
0.212                   1.001736        152.6437
0.216                   1.003016        151.2421
0.22                    1.003755        149.8359
0.224                   1.003842        148.4389
0.228                   1.003281        147.0658
0.232                   1.002179        145.7302
0.236                   1.000735        144.4417
0.24                   0.9991984        143.2047
0.244                  0.9978321        142.0176
0.248                  0.9968644        140.8726
0.252                  0.9964521        139.7576
0.256                  0.9966536        138.6575
0.26                   0.9974216        137.5577
0.264                   0.998613        136.4458
0.268                   1.000015        135.3142
0.272                   1.001384        134.1608
0.276                   1.002488        132.9893
0.28                    1.003143        131.8083
0.284                   1.003245        130.6297
0.288                   1.002788        129.4666
0.292                   1.001856        128.3313
0.296                   1.000617        127.2327
0.3                    0.9992865        126.1753
0.304                  0.9980947        125.1582
0.308                  0.9972443        124.1752
0.312                  0.9968777        123.2158
0.316                  0.9970517        122.2672
0.32                   0.9977284        121.3164
0.324                  0.9987837        120.3526
0.328                    1.00003        119.3688
0.332                   1.001249        118.3633
0.336                   1.002231        117.3392
0.34                     1.00281        116.3044
0.344                   1.002892        115.2698
0.348                   1.002467        114.2474
0.352                   1.001616        113.2483
0.356                   1.000488        112.2809
0.36                   0.9992823        111.3494
0.364                  0.9982092        110.4528
0.368                  0.9974546        109.5855
0.372                  0.9971475        108.7378
0.376                  0.9973383         107.898
0.38                   0.9979891        107.0542
0.384                  0.9989825        106.1965
0.388                   1.000142        105.3185
0.392                   1.001263         104.419
0.396                   1.002152        103.5012
0.4                     1.002656        102.5727
0.404                   1.002689        101.6439
0.408                   1.002249        100.7262
0.412                   1.001416        99.82997
0.416                   1.000335        98.96298
0.42                   0.9991985        98.12885
0.424                  0.9982041        97.32648
0.428                  0.9975263         96.5501
0.432                  0.9972832        95.79037
0.436                  0.9975154        95.03595
0.44                   0.9981799         94.2755
0.444                  0.9991574        93.49986
0.448                   1.000274        92.70346
0.452                   1.001334        91.88534
0.456                   1.002151        91.04923
0.46                    1.002583        90.20285
0.464                   1.002555        89.35644
0.468                   1.002074        88.52106
0.472                   1.001225        87.70673
0.476                   1.000157        86.92052
0.48                   0.9990598         86.1655
0.484                  0.9981258        85.43999
0.488                    0.99752         84.7379
0.492                  0.9973493        84.04975
0.496                  0.9976431        83.36427
0.5                    0.9983482        82.67057
0.504                  0.9993384        81.96001
0.508                   1.000438        81.22771
0.512                   1.001451        80.47343
0.516                   1.002198        79.70151
0.52                    1.002549        78.92006
0.524                    1.00244         78.1395
0.528                    1.00189        77.37081
0.532                   1.000996         76.6236
0.536                  0.9999145        75.90438
0.54                   0.9988368        75.21549
0.544                  0.9979539        74.55448
0.548                  0.9974231        73.91462
0.552                  0.9973394        73.28594
0.556                   0.997718        72.65713
0.56                   0.9984918        72.01743
0.564                   0.999523        71.35874
0.568                   1.000628        70.67697
0.572                    1.00161        69.97273
0.576                   1.002295        69.25118
0.58                    1.002561        68.52107
0.584                   1.002359        67.79323
0.588                   1.001724        67.07868
0.592                   1.000767         66.3867
0.596                  0.9996556        65.72321
0.6                    0.9985877        65.08965
0.604                  0.9977537        64.48265
0.608                  0.9973035         63.8946
0.612                  0.9973187        63.31488
0.616                  0.9977979        62.73191
0.62                   0.9986566        62.13509
0.624                  0.9997413         61.5169
0.628                   1.000859        60.87409
0.632                   1.001809        60.20834
0.636                   1.002423         59.5258
0.64                    1.002588        58.83611
0.644                   1.002274        58.15057
0.648                   1.001533        57.48037
0.652                   1.000496        56.83441
0.656                  0.9993445        56.21786
0.66                   0.9982852        55.63113
0.664                  0.9975081        55.06969
0.668                  0.9971544         54.5248
0.672                  0.9972904        53.98506
0.676                  0.9978939        53.43848
0.68                   0.9988587        52.87466
0.684                   1.000013         52.2867
0.688                   1.001151        51.67242
0.692                   1.002068        51.03473
0.696                   1.002598        50.38104
0.7                     1.002646        49.72201
0.704                   1.002197         49.0696
0.708                    1.00133         48.4351
0.712                   1.000195        47.82707
0.716                  0.9989925        47.24977
0.72                   0.9979382        46.70238
0.724                  0.9972227        46.17896
0.728                  0.9969768         45.6695
0.732                  0.9972481        45.16165
0.736                  0.9979903        44.64301
0.74                   0.9990724        44.10339
0.744                   1.000301        43.53667
0.748                   1.001455        42.94191
0.752                   1.002328        42.32348
0.756                   1.002759        41.69022
0.76                    1.002668        41.05393
0.764                   1.002066         40.4273
0.768                   1.001056        39.82169
0.772                  0.9998157        39.24514
0.776                  0.9985647        38.70083
0.78                   0.9975283        38.18645
0.784                  0.9968954        37.69441
0.788                   0.996784        37.21324
0.792                  0.9972182        36.72954
0.796                  0.9981236         36.2305
0.8                    0.9993394         35.7063
0.804                   1.000648        35.15182
0.808                   1.001813        34.56762
0.812                   1.002624        33.95977
0.816                   1.002931        33.33879
0.82                    1.002672        32.71778
0.824                   1.001888        32.11014
0.828                   1.000713         31.5273
0.832                  0.9993535        30.97658
0.836                   0.998051        30.45983
0.84                   0.9970414        29.97296
0.844                  0.9965099        29.50649
0.848                  0.9965578        29.04724
0.852                  0.9971815        28.58069
0.856                  0.9982727         28.0937
0.86                   0.9996376         27.5769
0.864                   1.001031        27.02644
0.868                   1.002202        26.44465
0.872                   1.002936        25.83959
0.876                   1.003097        25.22361
0.88                    1.002648        24.61122
0.884                   1.001662        24.01658
0.888                    1.00031        23.45101
0.892                  0.9988296        22.92091
0.896                  0.9974869        22.42651
0.9                    0.9965265         21.9616
0.904                   0.996127        21.51454
0.908                  0.9963676         21.0703
0.912                  0.9972108         20.6132
0.916                  0.9985095        20.12987
0.92                    1.000032         19.6117
0.924                   1.001504        19.05642
0.928                   1.002658        18.46848
0.932                   1.003282        17.85824
0.936                   1.003256        17.24013
0.94                    1.002574        16.63018
0.944                    1.00135        16.04325
0.948                  0.9997954         15.4904
0.952                  0.9981856         14.9768
0.956                   0.996811        14.50063
0.96                   0.9959245        14.05318
0.964                  0.9956938        13.62028
0.968                  0.9961696        13.18482
0.972                  0.9972738        12.72992
0.976                  0.9988131        12.24211
0.98                    1.000512        11.71383
0.984                   1.002065        11.14475
0.988                   1.003189        10.54187
0.992                   1.003674        9.918167
0.996                   1.003424        9.290439
1                       1.002471        8.676367
1.004                   1.000974        8.091482
1.008                  0.9991948        7.546379
1.012                  0.9974483        7.044665
1.016                  0.9960517        6.582064
1.02                   0.9952638        6.146923
1.024                  0.9952371        5.722174
1.028                  0.9959864        5.288434
1.032                  0.9973849        4.827633
1.036                  0.9991855        4.326413
1.04                    1.001065        3.778606
1.044                   1.002682        3.186319
1.048                    1.00374        2.559518
1.052                   1.004038        1.914268
1.056                   1.003507        1.269975
1.06                    1.002228       0.6460849
1.064                   1.000416      0.05870611
1.068                  0.9983876      -0.4823277
1.072                  0.9965051      -0.9754617
1.076                  0.9951132        -1.42804
1.08                   0.9944741       -1.855277
1.084                  0.9947168       -2.277642
1.088                  0.9958113       -2.717083
1.092                  0.9975697       -3.192879
1.096                  0.9996811       -3.718006
1.1                     1.001766       -4.296747
1.104                   1.003444       -4.923983
1.108                   1.004404       -5.586074
1.112                   1.004458       -6.263328
1.116                   1.003576       -6.933343
1.12                    1.001897       -7.574588
1.124                  0.9997025       -8.170426
1.128                  0.9973769        -8.71204
1.132                  0.9953371       -9.200507
1.136                  0.9939591       -9.646938
1.14                   0.9935062       -10.07088
1.144                  0.9940774       -10.49687
1.148                  0.9955853        -10.9498
1.152                  0.9977689       -11.45026
1.156                    1.00024       -12.01056
1.16                    1.002553       -12.63257
1.164                   1.004283       -13.30743
1.168                   1.005106       -14.01716
1.172                   1.004852       -14.73772
1.176                    1.00354       -15.44303
1.18                     1.00138       -16.10938
1.184                  0.9987364       -16.71957
1.188                  0.9960757       -17.26626
1.192                  0.9938792       -17.75388
1.196                  0.9925579       -18.19835
1.2                    0.9923725       -18.62464
1.204                  0.9933803       -19.06224
1.208                  0.9954197       -19.53961
1.212                   0.998136       -20.07864
1.216                   1.001044       -20.69059
1.22                    1.003618       -21.37408
1.224                   1.005379       -22.11543
1.228                   1.005988       -22.89109
1.232                   1.005301       -23.67155
1.236                   1.003402       -24.42618
1.24                    1.000592       -25.12835
1.244                  0.9973468        -25.7602
1.248                  0.9942363       -26.31634
1.252                  0.9918268        -26.8056
1.256                  0.9905755       -27.25028
1.26                   0.9907393       -27.68255
1.264                  0.9923213       -28.13849
1.268                  0.9950614       -28.65122
1.272                  0.9984818        -29.2444
1.276                   1.001971        -29.9279
1.28                    1.004893       -30.69611
1.284                   1.006701        -31.5291
1.288                   1.007033       -32.39606
1.292                   1.005777       -33.26023
1.296                   1.003099       -34.08489
1.3                    0.9994239       -34.83934
1.304                  0.9953706       -35.50463
1.308                  0.9916538       -36.07775
1.312                  0.9889562        -36.5735
1.316                     0.9878       -37.02288
1.32                   0.9884399       -37.46808
1.324                  0.9908033       -37.95444
1.328                  0.9944957       -38.52159
1.332                  0.9988667       -39.19571
1.336                   1.003126       -39.98473
1.34                    1.006486        -40.8772
1.344                   1.008295        -41.8445
1.348                   1.008156       -42.84554
1.352                   1.005999       -43.83318
1.356                   1.002105       -44.76148
1.36                   0.9970756       -45.59331
1.364                  0.9917469       -46.30738
1.368                  0.9870553       -46.90372
1.372                  0.9838717       -47.40586
1.376                   0.982831       -47.85841
1.38                   0.9841958       -48.31961
1.384                  0.9877876       -48.85009
1.388                  0.9930049       -49.50065
1.392                  0.9989263       -50.30235
1.396                   1.004473       -51.26104
1.4                     1.008598       -52.35695
1.404                   1.010464       -53.54841
1.408                   1.009588        -54.7784
1.412                   1.005935       -55.98275
1.416                  0.9999431       -57.09938
1.42                   0.9924888        -58.0783
1.424                  0.9847683       -58.89157
1.428                  0.9781135       -59.54161
1.432                  0.9737567       -60.06526
1.436                  0.9725802       -60.53087
1.44                   0.9749121       -61.02698
1.444                   0.980425       -61.64468
1.448                  0.9881676        -62.4587
1.452                  0.9967254       -63.51287
1.456                   1.004467       -64.81301
1.46                    1.009817       -66.32789
1.464                   1.011513       -67.99511
1.468                    1.00881       -69.73009
1.472                   1.001623        -71.4364
1.476                  0.9905939       -73.01746
1.48                   0.9770696        -74.3907
1.484                  0.9629731       -75.50453
1.488                  0.9505473       -76.35658
1.492                   0.941971       -77.00845
1.496                   0.938893       -77.58798
1.5                    0.9419918       -78.27245
1.504                  0.9507024         -79.254
1.508                  0.9632107       -80.69958
1.512                  0.9767051       -82.72171
1.516                   0.987785       -85.36839
1.52                   0.9928935       -88.62979
1.524                  0.9886852       -92.45248
1.528                  0.9722977       -96.75366
1.532                  0.9415313       -101.4302
1.536                  0.8949581       -106.3605
1.54                   0.8319832       -111.3978
1.544                  0.7528827       -116.3493
1.548                  0.6588469       -120.9289
1.552                  0.5521045       -124.6443
