! TOUCHSTONE file generated by CST MICROWAVE STUDIO
! Date and time: Sat May 14 10:02:57 2022
! Project name: AppElm_antenne_dipole_Alumina.cst
! Parameters = {L=33; e=0.035; f=2.45e+09; h=1.6; i=0.76; l1=2; lambda=122.449; ls=30; wl=1.7; ws=80}
! Header version: 2018
! Port assignment regex: !\s*Touchstone port\s*([0-9]+)\s*=\s*(CST MWS port|CST DS port)\s*([0-9]+|Zmin|Zmax)\s*\(\"(.*)\"\)(\s*mode\s*([0-9]+))?.*
! Touchstone port assignment:
! Touchstone port 1 = CST MWS port 1 ("")
# GHz S MA R 50
0                              1              -0
0.004                  0.9999984     -0.06921786
0.008                   0.999994      -0.1384279
0.012                  0.9999867      -0.2076224
0.016                  0.9999765      -0.2767935
0.02                   0.9999634      -0.3459336
0.024                  0.9999474      -0.4150352
0.028                  0.9999287      -0.4840906
0.032                  0.9999072      -0.5530926
0.036                   0.999883      -0.6220339
0.04                   0.9998563      -0.6909076
0.044                  0.9998268      -0.7597068
0.048                   0.999795      -0.8284248
0.052                  0.9997607      -0.8970553
0.056                  0.9997242      -0.9655919
0.06                   0.9996854       -1.034029
0.064                  0.9996444       -1.102361
0.068                  0.9996014       -1.170582
0.072                  0.9995565       -1.238688
0.076                  0.9995098       -1.306673
0.08                   0.9994615       -1.374534
0.084                  0.9994116       -1.442266
0.088                  0.9993604       -1.509866
0.092                  0.9993079       -1.577331
0.096                  0.9992541       -1.644657
0.1                    0.9991994       -1.711843
0.104                  0.9991438       -1.778886
0.108                  0.9990875       -1.845784
0.112                  0.9990306       -1.912538
0.116                  0.9989732       -1.979144
0.12                   0.9989157       -2.045605
0.124                   0.998858       -2.111918
0.128                  0.9988003       -2.178086
0.132                  0.9987427       -2.244108
0.136                  0.9986856       -2.309987
0.14                   0.9986289       -2.375725
0.144                  0.9985728       -2.441323
0.148                  0.9985175       -2.506784
0.152                  0.9984629       -2.572112
0.156                  0.9984097       -2.637309
0.16                   0.9983574       -2.702381
0.164                  0.9983065       -2.767331
0.168                  0.9982571       -2.832165
0.172                  0.9982094       -2.896887
0.176                  0.9981633       -2.961503
0.18                   0.9981191       -3.026019
0.184                  0.9980767       -3.090441
0.188                  0.9980366       -3.154777
0.192                  0.9979985       -3.219032
0.196                  0.9979627       -3.283215
0.2                    0.9979293       -3.347332
0.204                  0.9978984       -3.411392
0.208                    0.99787       -3.475402
0.212                  0.9978441       -3.539372
0.216                  0.9978211       -3.603309
0.22                   0.9978007       -3.667223
0.224                  0.9977831       -3.731122
0.228                  0.9977684       -3.795015
0.232                  0.9977567       -3.858912
0.236                  0.9977477       -3.922823
0.24                   0.9977418       -3.986756
0.244                  0.9977387       -4.050721
0.248                  0.9977387       -4.114728
0.252                  0.9977416       -4.178786
0.256                  0.9977476       -4.242905
0.26                   0.9977565       -4.307095
0.264                  0.9977684       -4.371364
0.268                  0.9977831       -4.435723
0.272                  0.9978006       -4.500181
0.276                  0.9978211       -4.564747
0.28                   0.9978443        -4.62943
0.284                  0.9978702        -4.69424
0.288                  0.9978987       -4.759185
0.292                  0.9979299       -4.824273
0.296                  0.9979635       -4.889515
0.3                    0.9979995       -4.954916
0.304                  0.9980379       -5.020485
0.308                  0.9980785        -5.08623
0.312                  0.9981212       -5.152159
0.316                  0.9981658       -5.218278
0.32                   0.9982123       -5.284595
0.324                  0.9982606       -5.351114
0.328                  0.9983106       -5.417843
0.332                   0.998362       -5.484787
0.336                  0.9984148       -5.551951
0.34                   0.9984688       -5.619341
0.344                  0.9985239       -5.686961
0.348                  0.9985799       -5.754814
0.352                  0.9986368       -5.822905
0.356                  0.9986942       -5.891235
0.36                   0.9987522        -5.95981
0.364                  0.9988105        -6.02863
0.368                  0.9988689       -6.097697
0.372                  0.9989275       -6.167013
0.376                  0.9989857        -6.23658
0.38                   0.9990436       -6.306397
0.384                  0.9991013       -6.376464
0.388                  0.9991582       -6.446782
0.392                  0.9992144       -6.517349
0.396                  0.9992696       -6.588164
0.4                    0.9993239       -6.659225
0.404                  0.9993769       -6.730531
0.408                  0.9994285       -6.802079
0.412                  0.9994786       -6.873864
0.416                   0.999527       -6.945886
0.42                   0.9995737       -7.018139
0.424                  0.9996184        -7.09062
0.428                  0.9996611       -7.163323
0.432                  0.9997018       -7.236245
0.436                    0.99974       -7.309379
0.44                   0.9997759        -7.38272
0.444                  0.9998093       -7.456263
0.448                  0.9998401       -7.530001
0.452                  0.9998682       -7.603928
0.456                  0.9998935       -7.678037
0.46                   0.9999161       -7.752321
0.464                  0.9999355       -7.826774
0.468                  0.9999521       -7.901386
0.472                  0.9999657       -7.976154
0.476                  0.9999761       -8.051065
0.48                   0.9999832       -8.126116
0.484                  0.9999874       -8.201294
0.488                  0.9999883       -8.276595
0.492                   0.999986        -8.35201
0.496                  0.9999805        -8.42753
0.5                    0.9999716       -8.503147
0.504                  0.9999597       -8.578854
0.508                  0.9999443       -8.654642
0.512                  0.9999259       -8.730503
0.516                  0.9999042       -8.806429
0.52                   0.9998796       -8.882412
0.524                  0.9998516       -8.958446
0.528                  0.9998208        -9.03452
0.532                  0.9997871       -9.110629
0.536                  0.9997504       -9.186764
0.54                   0.9997108       -9.262919
0.544                  0.9996686       -9.339088
0.548                  0.9996237       -9.415262
0.552                  0.9995762       -9.491437
0.556                  0.9995263       -9.567606
0.56                   0.9994742       -9.643763
0.564                  0.9994196       -9.719904
0.568                  0.9993631       -9.796022
0.572                  0.9993046       -9.872114
0.576                  0.9992442       -9.948176
0.58                   0.9991822        -10.0242
0.584                  0.9991186       -10.10019
0.588                  0.9990537       -10.17613
0.592                  0.9989874       -10.25204
0.596                    0.99892       -10.32789
0.6                    0.9988518        -10.4037
0.604                  0.9987828       -10.47946
0.608                  0.9987131       -10.55517
0.612                   0.998643       -10.63083
0.616                  0.9985726       -10.70644
0.62                    0.998502         -10.782
0.624                  0.9984315       -10.85751
0.628                  0.9983612       -10.93297
0.632                  0.9982913        -11.0084
0.636                  0.9982219       -11.08378
0.64                   0.9981532       -11.15912
0.644                  0.9980854       -11.23443
0.648                  0.9980187        -11.3097
0.652                  0.9979531       -11.38496
0.656                  0.9978888       -11.46019
0.66                   0.9978261        -11.5354
0.664                   0.997765       -11.61061
0.668                  0.9977058       -11.68582
0.672                  0.9976483       -11.76103
0.676                   0.997593       -11.83626
0.68                   0.9975399        -11.9115
0.684                  0.9974891       -11.98678
0.688                  0.9974406       -12.06209
0.692                  0.9973948       -12.13745
0.696                  0.9973515       -12.21286
0.7                    0.9973111       -12.28834
0.704                  0.9972735        -12.3639
0.708                  0.9972388       -12.43954
0.712                   0.997207       -12.51528
0.716                  0.9971783       -12.59113
0.72                   0.9971528       -12.66709
0.724                  0.9971304       -12.74318
0.728                  0.9971113       -12.81942
0.732                  0.9970953       -12.89581
0.736                  0.9970826       -12.97236
0.74                   0.9970733       -13.04909
0.744                  0.9970672         -13.126
0.748                  0.9970643       -13.20312
0.752                  0.9970648       -13.28045
0.756                  0.9970685         -13.358
0.76                   0.9970753       -13.43579
0.764                  0.9970854       -13.51383
0.768                  0.9970986       -13.59213
0.772                  0.9971149        -13.6707
0.776                  0.9971341       -13.74955
0.78                   0.9971564       -13.82869
0.784                  0.9971814       -13.90814
0.788                  0.9972092       -13.98791
0.792                  0.9972397         -14.068
0.796                  0.9972727       -14.14844
0.8                    0.9973081       -14.22921
0.804                  0.9973457       -14.31035
0.808                  0.9973857       -14.39185
0.812                  0.9974276       -14.47373
0.816                  0.9974714         -14.556
0.82                   0.9975168       -14.63866
0.824                  0.9975639       -14.72172
0.828                  0.9976124       -14.80519
0.832                  0.9976621       -14.88907
0.836                   0.997713       -14.97338
0.84                   0.9977646       -15.05811
0.844                  0.9978171       -15.14329
0.848                  0.9978699        -15.2289
0.852                  0.9979232       -15.31495
0.856                  0.9979767       -15.40146
0.86                     0.99803       -15.48841
0.864                  0.9980832       -15.57583
0.868                  0.9981358        -15.6637
0.872                  0.9981879       -15.75203
0.876                  0.9982391       -15.84083
0.88                   0.9982893       -15.93008
0.884                  0.9983382        -16.0198
0.888                  0.9983857       -16.10999
0.892                  0.9984317       -16.20063
0.896                  0.9984759       -16.29175
0.9                     0.998518       -16.38331
0.904                   0.998558       -16.47534
0.908                  0.9985957       -16.56782
0.912                  0.9986306       -16.66076
0.916                  0.9986632       -16.75415
0.92                   0.9986926       -16.84798
0.924                  0.9987191       -16.94225
0.928                  0.9987424       -17.03695
0.932                  0.9987623       -17.13209
0.936                  0.9987789       -17.22765
0.94                   0.9987916       -17.32363
0.944                  0.9988007       -17.42002
0.948                  0.9988059       -17.51682
0.952                  0.9988071       -17.61401
0.956                  0.9988043        -17.7116
0.96                   0.9987972       -17.80956
0.964                  0.9987859       -17.90791
0.968                  0.9987702       -18.00662
0.972                    0.99875       -18.10569
0.976                  0.9987254        -18.2051
0.98                   0.9986963       -18.30486
0.984                  0.9986625       -18.40496
0.988                  0.9986242       -18.50538
0.992                  0.9985812       -18.60611
0.996                  0.9985337       -18.70714
1                      0.9984813       -18.80848
1.004                  0.9984245        -18.9101
1.008                   0.998363       -19.01198
1.012                  0.9982969       -19.11417
1.016                  0.9982264       -19.21662
1.02                   0.9981512       -19.31932
1.024                  0.9980716       -19.42223
1.028                  0.9979878       -19.52542
1.032                  0.9978996       -19.62881
1.036                  0.9978073       -19.73246
1.04                   0.9977108       -19.83628
1.044                  0.9976104       -19.94034
1.048                  0.9975061        -20.0446
1.052                   0.997398       -20.14902
1.056                  0.9972864       -20.25366
1.06                   0.9971714       -20.35849
1.064                  0.9970529       -20.46351
1.068                  0.9969314       -20.56867
1.072                  0.9968068       -20.67402
1.076                  0.9966795       -20.77955
1.08                   0.9965494       -20.88523
1.084                  0.9964169        -20.9911
1.088                  0.9962822       -21.09708
1.092                  0.9961454       -21.20325
1.096                  0.9960066       -21.30961
1.1                    0.9958662       -21.41607
1.104                  0.9957243       -21.52273
1.108                   0.995581       -21.62959
1.112                  0.9954368       -21.73655
1.116                  0.9952917       -21.84373
1.12                   0.9951458       -21.95104
1.124                  0.9949996       -22.05858
1.128                  0.9948531       -22.16625
1.132                  0.9947067       -22.27413
1.136                  0.9945603       -22.38221
1.14                   0.9944144       -22.49048
1.144                  0.9942691       -22.59897
1.148                  0.9941245       -22.70768
1.152                  0.9939809       -22.81661
1.156                  0.9938385       -22.92579
1.16                   0.9936974       -23.03521
1.164                  0.9935579        -23.1449
1.168                  0.9934201       -23.25485
1.172                  0.9932842       -23.36509
1.176                  0.9931503       -23.47563
1.18                   0.9930185       -23.58649
1.184                  0.9928892       -23.69767
1.188                  0.9927624       -23.80919
1.192                  0.9926381       -23.92107
1.196                  0.9925165       -24.03332
1.2                    0.9923977       -24.14596
1.204                   0.992282       -24.25901
1.208                  0.9921691       -24.37249
1.212                  0.9920594       -24.48641
1.216                  0.9919528       -24.60079
1.22                   0.9918495       -24.71565
1.224                  0.9917492       -24.83101
1.228                  0.9916525       -24.94688
1.232                  0.9915589        -25.0633
1.236                  0.9914686       -25.18027
1.24                   0.9913816       -25.29782
1.244                  0.9912978       -25.41597
1.248                  0.9912172       -25.53474
1.252                  0.9911398       -25.65415
1.256                  0.9910654       -25.77421
1.26                   0.9909942       -25.89496
1.264                  0.9909258        -26.0164
1.268                  0.9908602       -26.13856
1.272                  0.9907973       -26.26147
1.276                  0.9907371       -26.38513
1.28                   0.9906793       -26.50958
1.284                  0.9906237       -26.63482
1.288                  0.9905703       -26.76088
1.292                  0.9905187       -26.88779
1.296                  0.9904688       -27.01555
1.3                    0.9904207       -27.14418
1.304                  0.9903738       -27.27371
1.308                  0.9903278       -27.40415
1.312                  0.9902828       -27.53552
1.316                  0.9902384       -27.66783
1.32                   0.9901942       -27.80111
1.324                  0.9901502       -27.93536
1.328                   0.990106       -28.07061
1.332                  0.9900613       -28.20686
1.336                  0.9900158       -28.34414
1.34                   0.9899692       -28.48245
1.344                  0.9899212       -28.62181
1.348                  0.9898715       -28.76223
1.352                  0.9898198       -28.90372
1.356                   0.989766        -29.0463
1.36                   0.9897091       -29.18997
1.364                  0.9896496       -29.33473
1.368                  0.9895867       -29.48061
1.372                  0.9895201       -29.62761
1.376                  0.9894494       -29.77574
1.38                   0.9893745       -29.92499
1.384                   0.989295       -30.07539
1.388                  0.9892104       -30.22694
1.392                  0.9891205       -30.37963
1.396                   0.989025       -30.53347
1.4                    0.9889234       -30.68847
1.404                  0.9888155       -30.84463
1.408                   0.988701       -31.00195
1.412                  0.9885796       -31.16043
1.416                  0.9884509       -31.32008
1.42                   0.9883146       -31.48088
1.424                  0.9881704       -31.64285
1.428                   0.988018       -31.80598
1.432                  0.9878574       -31.97027
1.436                  0.9876878       -32.13572
1.44                   0.9875093       -32.30231
1.444                  0.9873216       -32.47006
1.448                  0.9871243       -32.63896
1.452                  0.9869176         -32.809
1.456                  0.9867008       -32.98018
1.46                   0.9864737        -33.1525
1.464                  0.9862363       -33.32594
1.468                  0.9859885        -33.5005
1.472                  0.9857296        -33.6762
1.476                  0.9854601         -33.853
1.48                   0.9851794        -34.0309
1.484                  0.9848877       -34.20991
1.488                  0.9845845       -34.39002
1.492                  0.9842701       -34.57122
1.496                  0.9839439        -34.7535
1.5                    0.9836063       -34.93685
1.504                   0.983257       -35.12128
1.508                  0.9828959       -35.30678
1.512                  0.9825231       -35.49334
1.516                  0.9821385       -35.68097
1.52                   0.9817422       -35.86964
1.524                  0.9813339       -36.05936
1.528                  0.9809141       -36.25012
1.532                  0.9804822       -36.44193
1.536                  0.9800389       -36.63478
1.54                   0.9795838       -36.82866
1.544                  0.9791171       -37.02358
1.548                  0.9786388       -37.21954
1.552                  0.9781492       -37.41652
