! TOUCHSTONE file generated by CST MICROWAVE STUDIO
! Date and time: Sat May 14 10:02:54 2022
! Project name: AppElm_antenne_dipole_Alumina.cst
! Parameters = {L=33; e=0.035; f=2.45e+09; h=1.6; i=0.64; l1=2; lambda=122.449; ls=30; wl=1.7; ws=80}
! Header version: 2018
! Port assignment regex: !\s*Touchstone port\s*([0-9]+)\s*=\s*(CST MWS port|CST DS port)\s*([0-9]+|Zmin|Zmax)\s*\(\"(.*)\"\)(\s*mode\s*([0-9]+))?.*
! Touchstone port assignment:
! Touchstone port 1 = CST MWS port 1 ("")
# GHz S MA R 50
0                      0.9999912              -0
0.004                  0.9999894     -0.06748904
0.008                  0.9999842      -0.1349688
0.012                  0.9999757      -0.2024299
0.016                  0.9999636      -0.2698632
0.02                   0.9999484      -0.3372595
0.024                  0.9999297      -0.4046098
0.028                  0.9999077      -0.4719051
0.032                  0.9998826      -0.5391367
0.036                  0.9998542      -0.6062959
0.04                   0.9998228      -0.6733744
0.044                  0.9997884      -0.7403639
0.048                   0.999751      -0.8072565
0.052                  0.9997109      -0.8740446
0.056                   0.999668      -0.9407209
0.06                   0.9996225       -1.007278
0.064                  0.9995746        -1.07371
0.068                  0.9995244       -1.140009
0.072                  0.9994719       -1.206171
0.076                  0.9994172       -1.272188
0.08                   0.9993606       -1.338057
0.084                  0.9993023       -1.403772
0.088                  0.9992422       -1.469329
0.092                  0.9991808       -1.534724
0.096                  0.9991179       -1.599953
0.1                    0.9990539       -1.665014
0.104                  0.9989888       -1.729904
0.108                   0.998923       -1.794621
0.112                  0.9988565       -1.859163
0.116                  0.9987893        -1.92353
0.12                   0.9987221       -1.987721
0.124                  0.9986546       -2.051736
0.128                  0.9985873       -2.115575
0.132                  0.9985201       -2.179239
0.136                  0.9984533       -2.242731
0.14                   0.9983872       -2.306052
0.144                  0.9983217       -2.369205
0.148                   0.998257       -2.432193
0.152                  0.9981936       -2.495019
0.156                  0.9981313       -2.557688
0.16                   0.9980705       -2.620204
0.164                  0.9980113       -2.682572
0.168                  0.9979537       -2.744798
0.172                  0.9978982       -2.806888
0.176                  0.9978446       -2.868848
0.18                   0.9977931       -2.930686
0.184                   0.997744       -2.992407
0.188                  0.9976974       -3.054022
0.192                  0.9976532       -3.115536
0.196                  0.9976119       -3.176958
0.2                    0.9975732       -3.238299
0.204                  0.9975375       -3.299567
0.208                  0.9975047        -3.36077
0.212                  0.9974751       -3.421919
0.216                  0.9974487       -3.483024
0.22                   0.9974253       -3.544094
0.224                  0.9974054       -3.605142
0.228                  0.9973889       -3.666175
0.232                  0.9973755       -3.727207
0.236                  0.9973658       -3.788247
0.24                   0.9973595       -3.849307
0.244                  0.9973566       -3.910398
0.248                  0.9973573        -3.97153
0.252                  0.9973615       -4.032715
0.256                   0.997369       -4.093964
0.26                   0.9973802       -4.155287
0.264                  0.9973947       -4.216698
0.268                  0.9974128       -4.278205
0.272                   0.997434       -4.339821
0.276                  0.9974586       -4.401555
0.28                   0.9974865       -4.463418
0.284                  0.9975175       -4.525422
0.288                  0.9975516       -4.587576
0.292                  0.9975888       -4.649889
0.296                  0.9976289       -4.712372
0.3                    0.9976718       -4.775033
0.304                  0.9977172       -4.837884
0.308                  0.9977654        -4.90093
0.312                   0.997816       -4.964182
0.316                  0.9978689       -5.027647
0.32                   0.9979239       -5.091333
0.324                   0.997981       -5.155248
0.328                  0.9980401       -5.219397
0.332                  0.9981007       -5.283788
0.336                  0.9981631       -5.348425
0.34                   0.9982268       -5.413315
0.344                  0.9982917       -5.478464
0.348                  0.9983577       -5.543874
0.352                  0.9984247        -5.60955
0.356                  0.9984922       -5.675497
0.36                   0.9985603       -5.741715
0.364                  0.9986288        -5.80821
0.368                  0.9986976       -5.874979
0.372                  0.9987662       -5.942029
0.376                  0.9988346       -6.009357
0.38                   0.9989027       -6.076963
0.384                  0.9989701        -6.14485
0.388                  0.9990368       -6.213016
0.392                  0.9991027       -6.281457
0.396                  0.9991673       -6.350175
0.4                    0.9992308       -6.419166
0.404                  0.9992926       -6.488427
0.408                  0.9993529       -6.557954
0.412                  0.9994115       -6.627745
0.416                  0.9994679       -6.697795
0.42                   0.9995223       -6.768099
0.424                  0.9995744       -6.838652
0.428                  0.9996242       -6.909448
0.432                  0.9996714       -6.980481
0.436                  0.9997158       -7.051746
0.44                   0.9997574       -7.123234
0.444                   0.999796       -7.194939
0.448                  0.9998317       -7.266853
0.452                  0.9998641        -7.33897
0.456                  0.9998933       -7.411278
0.46                   0.9999192       -7.483773
0.464                  0.9999415       -7.556442
0.468                  0.9999603       -7.629282
0.472                  0.9999758       -7.702277
0.476                  0.9999873       -7.775421
0.48                   0.9999952       -7.848707
0.484                  0.9999995       -7.922123
0.488                          1       -7.995658
0.492                  0.9999966       -8.069304
0.496                  0.9999896       -8.143049
0.5                    0.9999788       -8.216888
0.504                  0.9999643       -8.290809
0.508                  0.9999458       -8.364799
0.512                  0.9999238       -8.438851
0.516                  0.9998981       -8.512957
0.52                   0.9998686       -8.587106
0.524                  0.9998357       -8.661288
0.528                  0.9997992       -8.735494
0.532                  0.9997594       -8.809716
0.536                  0.9997161       -8.883946
0.54                   0.9996696       -8.958173
0.544                  0.9996199       -9.032392
0.548                  0.9995673       -9.106591
0.552                  0.9995117       -9.180767
0.556                  0.9994533        -9.25491
0.56                   0.9993922       -9.329013
0.564                  0.9993286       -9.403071
0.568                  0.9992626       -9.477078
0.572                  0.9991945       -9.551028
0.576                  0.9991242       -9.624913
0.58                   0.9990519       -9.698736
0.584                  0.9989781       -9.772485
0.588                  0.9989027        -9.84616
0.592                  0.9988259       -9.919758
0.596                  0.9987478       -9.993274
0.6                    0.9986688       -10.06671
0.604                   0.998589       -10.14006
0.608                  0.9985085       -10.21333
0.612                  0.9984276       -10.28651
0.616                  0.9983464        -10.3596
0.62                   0.9982652       -10.43262
0.624                  0.9981842       -10.50555
0.628                  0.9981036       -10.57839
0.632                  0.9980233       -10.65117
0.636                   0.997944       -10.72386
0.64                   0.9978656       -10.79649
0.644                  0.9977883       -10.86904
0.648                  0.9977123       -10.94154
0.652                  0.9976378       -11.01398
0.656                   0.997565       -11.08637
0.66                   0.9974941       -11.15872
0.664                  0.9974251       -11.23103
0.668                  0.9973585       -11.30331
0.672                  0.9972942       -11.37557
0.676                  0.9972323       -11.44782
0.68                   0.9971732       -11.52007
0.684                  0.9971168       -11.59232
0.688                  0.9970634       -11.66459
0.692                  0.9970131       -11.73689
0.696                  0.9969659       -11.80923
0.7                    0.9969221       -11.88162
0.704                  0.9968818       -11.95407
0.708                  0.9968449       -12.02659
0.712                  0.9968116        -12.0992
0.716                   0.996782       -12.17191
0.72                   0.9967561       -12.24473
0.724                  0.9967339       -12.31767
0.728                  0.9967157       -12.39076
0.732                  0.9967013       -12.46399
0.736                  0.9966908       -12.53739
0.74                   0.9966842       -12.61097
0.744                  0.9966815       -12.68473
0.748                  0.9966826       -12.75871
0.752                  0.9966877        -12.8329
0.756                  0.9966967       -12.90733
0.76                   0.9967093       -12.98201
0.764                  0.9967258       -13.05695
0.768                   0.996746       -13.13216
0.772                  0.9967698       -13.20765
0.776                  0.9967972       -13.28346
0.78                   0.9968279       -13.35957
0.784                   0.996862       -13.43601
0.788                  0.9968994       -13.51279
0.792                  0.9969398       -13.58992
0.796                  0.9969833       -13.66741
0.8                    0.9970295       -13.74528
0.804                  0.9970785       -13.82353
0.808                  0.9971299       -13.90218
0.812                  0.9971837       -13.98123
0.816                  0.9972397        -14.0607
0.82                   0.9972978        -14.1406
0.824                  0.9973577       -14.22093
0.828                   0.997419        -14.3017
0.832                  0.9974819       -14.38292
0.836                  0.9975461        -14.4646
0.84                   0.9976112       -14.54675
0.844                  0.9976771       -14.62936
0.848                  0.9977436       -14.71245
0.852                  0.9978104       -14.79602
0.856                  0.9978774       -14.88007
0.86                   0.9979443       -14.96462
0.864                  0.9980109       -15.04965
0.868                  0.9980768       -15.13518
0.872                   0.998142        -15.2212
0.876                  0.9982062       -15.30772
0.88                   0.9982691       -15.39473
0.884                  0.9983305       -15.48225
0.888                  0.9983904       -15.57026
0.892                  0.9984481       -15.65876
0.896                  0.9985039       -15.74775
0.9                    0.9985572       -15.83724
0.904                   0.998608       -15.92721
0.908                  0.9986559       -16.01767
0.912                  0.9987009        -16.1086
0.916                  0.9987428       -16.20001
0.92                   0.9987812       -16.29188
0.924                  0.9988161       -16.38422
0.928                   0.998847       -16.47701
0.932                  0.9988742       -16.57025
0.936                  0.9988974       -16.66394
0.94                   0.9989162       -16.75805
0.944                  0.9989307       -16.85259
0.948                  0.9989407       -16.94754
0.952                  0.9989461       -17.04291
0.956                  0.9989467       -17.13867
0.96                   0.9989425       -17.23482
0.964                  0.9989331       -17.33134
0.968                  0.9989189       -17.42824
0.972                  0.9988994       -17.52549
0.976                   0.998875       -17.62309
0.98                    0.998845       -17.72103
0.984                    0.99881       -17.81929
0.988                  0.9987697       -17.91786
0.992                  0.9987239       -18.01674
0.996                   0.998673       -18.11591
1                      0.9986167       -18.21537
1.004                  0.9985551       -18.31509
1.008                  0.9984884       -18.41507
1.012                  0.9984164       -18.51532
1.016                  0.9983392       -18.61578
1.02                   0.9982569       -18.71648
1.024                  0.9981697       -18.81738
1.028                  0.9980776       -18.91852
1.032                  0.9979807       -19.01983
1.036                   0.997879       -19.12138
1.04                   0.9977729       -19.22306
1.044                  0.9976623       -19.32492
1.048                  0.9975474       -19.42696
1.052                  0.9974284       -19.52917
1.056                  0.9973055       -19.63151
1.06                   0.9971789       -19.73399
1.064                  0.9970485       -19.83661
1.068                  0.9969149       -19.93936
1.072                  0.9967781       -20.04228
1.076                  0.9966381       -20.14528
1.08                   0.9964956       -20.24839
1.084                  0.9963504       -20.35166
1.088                  0.9962029       -20.45501
1.092                  0.9960533        -20.5585
1.096                  0.9959018       -20.66208
1.1                    0.9957489       -20.76579
1.104                  0.9955944        -20.8696
1.108                  0.9954389       -20.97353
1.112                  0.9952824        -21.0776
1.116                  0.9951254        -21.1818
1.12                   0.9949679       -21.28611
1.124                  0.9948105       -21.39056
1.128                  0.9946529       -21.49514
1.132                  0.9944959       -21.59986
1.136                  0.9943395       -21.70474
1.14                   0.9941839       -21.80979
1.144                  0.9940295         -21.915
1.148                  0.9938764       -22.02039
1.152                  0.9937249       -22.12597
1.156                  0.9935751       -22.23176
1.16                   0.9934274       -22.33776
1.164                  0.9932819       -22.44399
1.168                  0.9931388       -22.55046
1.172                  0.9929984       -22.65718
1.176                  0.9928608       -22.76418
1.18                   0.9927262       -22.87147
1.184                  0.9925946       -22.97907
1.188                  0.9924665       -23.08698
1.192                  0.9923418       -23.19524
1.196                  0.9922208       -23.30385
1.2                    0.9921035       -23.41285
1.204                  0.9919899       -23.52224
1.208                  0.9918804       -23.63204
1.212                  0.9917748       -23.74229
1.216                  0.9916733         -23.853
1.22                    0.991576       -23.96419
1.224                  0.9914829       -24.07588
1.228                  0.9913939        -24.1881
1.232                  0.9913093       -24.30086
1.236                  0.9912288        -24.4142
1.24                   0.9911525       -24.52812
1.244                  0.9910803       -24.64267
1.248                  0.9910124       -24.75785
1.252                  0.9909484       -24.87369
1.256                  0.9908884       -24.99022
1.26                   0.9908324       -25.10746
1.264                  0.9907799       -25.22542
1.268                  0.9907314       -25.34414
1.272                  0.9906861       -25.46364
1.276                  0.9906443       -25.58393
1.28                   0.9906056       -25.70504
1.284                  0.9905698         -25.827
1.288                  0.9905368       -25.94983
1.292                  0.9905064       -26.07353
1.296                  0.9904783       -26.19815
1.3                    0.9904522       -26.32368
1.304                  0.9904279       -26.45017
1.308                  0.9904053       -26.57762
1.312                  0.9903839       -26.70606
1.316                  0.9903635        -26.8355
1.32                   0.9903437       -26.96595
1.324                  0.9903243       -27.09745
1.328                  0.9903049       -27.22999
1.332                  0.9902853       -27.36361
1.336                  0.9902649       -27.49831
1.34                   0.9902436        -27.6341
1.344                  0.9902209         -27.771
1.348                  0.9901966       -27.90903
1.352                  0.9901701       -28.04819
1.356                  0.9901413        -28.1885
1.36                   0.9901094       -28.32997
1.364                  0.9900745       -28.47259
1.368                  0.9900359       -28.61639
1.372                  0.9899935       -28.76136
1.376                  0.9899467       -28.90753
1.38                   0.9898949       -29.05488
1.384                  0.9898382       -29.20344
1.388                  0.9897761       -29.35319
1.392                  0.9897078       -29.50415
1.396                  0.9896335       -29.65631
1.4                    0.9895525       -29.80969
1.404                  0.9894645       -29.96427
1.408                   0.989369       -30.12006
1.412                  0.9892658       -30.27706
1.416                  0.9891547       -30.43527
1.42                    0.989035       -30.59468
1.424                  0.9889068       -30.75529
1.428                  0.9887693        -30.9171
1.432                  0.9886226        -31.0801
1.436                  0.9884661        -31.2443
1.44                   0.9882998       -31.40968
1.444                  0.9881231       -31.57623
1.448                   0.987936       -31.74396
1.452                   0.987738       -31.91285
1.456                  0.9875292        -32.0829
1.46                   0.9873091        -32.2541
1.464                  0.9870777       -32.42645
1.468                  0.9868344       -32.59993
1.472                  0.9865795       -32.77452
1.476                  0.9863127       -32.95024
1.48                   0.9860337       -33.12707
1.484                  0.9857425       -33.30499
1.488                  0.9854389       -33.48401
1.492                   0.985123       -33.66411
1.496                  0.9847944       -33.84528
1.5                    0.9844533       -34.02751
1.504                  0.9840996       -34.21081
1.508                  0.9837333       -34.39515
1.512                  0.9833542       -34.58053
1.516                  0.9829624       -34.76694
1.52                   0.9825582       -34.95438
1.524                  0.9821411       -35.14284
1.528                  0.9817117       -35.33231
1.532                  0.9812696       -35.52278
1.536                  0.9808153       -35.71426
1.54                   0.9803485       -35.90675
1.544                  0.9798698       -36.10021
1.548                  0.9793789       -36.29468
1.552                  0.9788762       -36.49013
