! TOUCHSTONE file generated by CST MICROWAVE STUDIO
! Date and time: Thu Jun  9 09:30:41 2022
! Project name: AppElm_antenne_patch_Alumina.cst
! Parameters = {L=30.5; W=41.8; e=0.035; h=1.6; lambda=0.190476; ls=90; w0=1.12; w1=0.41025; ws=90; y0=14; y1=10}
! Header version: 2018
! Port assignment regex: !\s*Touchstone port\s*([0-9]+)\s*=\s*(CST MWS port|CST DS port)\s*([0-9]+|Zmin|Zmax)\s*\(\"(.*)\"\)(\s*mode\s*([0-9]+))?.*
! Touchstone port assignment:
! Touchstone port 1 = CST MWS port 1 ("")
# GHz S MA R 50
0                      0.9792284              -0
0.004                  0.9803596       -10.36359
0.008                  0.9836046       -20.61775
0.012                  0.9885412        -30.6599
0.016                  0.9945379       -40.39973
0.02                    1.000845       -49.76221
0.024                   1.006699       -58.68838
0.028                   1.011419       -67.13407
0.032                   1.014486         -75.068
0.036                   1.015601       -82.46974
0.04                    1.014714       -89.32828
0.044                    1.01202       -95.64165
0.048                   1.007936       -101.4173
0.052                   1.003043       -106.6732
0.056                  0.9980145        -111.439
0.06                   0.9935245       -115.7565
0.064                  0.9901572       -119.6787
0.068                  0.9883227       -123.2671
0.072                  0.9882015       -126.5866
0.076                  0.9897224       -129.7006
0.08                   0.9925814       -132.6643
0.084                  0.9962953       -135.5204
0.088                   1.000283       -138.2968
0.092                   1.003953       -141.0057
0.096                    1.00679       -143.6458
0.1                      1.00842       -146.2056
0.104                   1.008663       -148.6665
0.108                   1.007542       -151.0083
0.112                   1.005281       -153.2125
0.116                   1.002262       -155.2664
0.12                   0.9989733       -157.1664
0.124                  0.9959303       -158.9193
0.128                  0.9935987       -160.5426
0.132                  0.9923236       -162.0629
0.136                  0.9922735       -163.5122
0.14                   0.9934189       -164.9237
0.144                  0.9955405       -166.3266
0.148                  0.9982705        -167.742
0.152                   1.001156        -169.181
0.156                   1.003735       -170.6431
0.16                    1.005608       -172.1181
0.164                   1.006497       -173.5882
0.168                   1.006286       -175.0311
0.172                   1.005036       -176.4244
0.176                   1.002968       -177.7485
0.18                    1.000434       -178.9904
0.184                  0.9978539        179.8542
0.188                  0.9956519        178.7796
0.192                  0.9941851        177.7711
0.196                  0.9936847        176.8067
0.2                    0.9942178        175.8609
0.204                  0.9956783         174.909
0.208                  0.9978066        173.9311
0.212                   1.000238        172.9152
0.216                   1.002563        171.8589
0.22                    1.004399        170.7693
0.224                   1.005451        169.6612
0.228                   1.005556        168.5544
0.232                   1.004708        167.4709
0.236                   1.003061        166.4305
0.24                    1.000895        165.4484
0.244                    0.99858         164.532
0.248                  0.9965066        163.6798
0.252                  0.9950249        162.8812
0.256                  0.9943823        162.1183
0.26                   0.9946817        161.3689
0.264                  0.9958635        160.6103
0.268                  0.9977174        159.8232
0.272                  0.9999208        158.9953
0.276                   1.002096        158.1228
0.28                    1.003874        157.2111
0.284                   1.004958        156.2733
0.288                    1.00517         155.328
0.292                   1.004481        154.3961
0.296                   1.003013        153.4974
0.3                     1.001018        152.6473
0.304                  0.9988401        151.8544
0.308                  0.9968537        151.1185
0.312                  0.9954012        150.4307
0.316                  0.9947323        149.7747
0.32                   0.9949605        149.1295
0.324                  0.9960423        148.4735
0.328                  0.9977856        147.7879
0.332                  0.9998849        147.0602
0.336                   1.001976        146.2866
0.34                    1.003698        145.4718
0.344                   1.004758        144.6284
0.348                   1.004977        143.7744
0.352                   1.004319        142.9304
0.356                   1.002899         142.116
0.36                    1.000964        141.3466
0.364                   0.998848        140.6307
0.368                  0.9969191        139.9684
0.372                  0.9955145        139.3512
0.376                    0.99488        138.7629
0.38                   0.9951271        138.1831
0.384                  0.9962106        137.5904
0.388                   0.997939        136.9664
0.392                   1.000008        136.2992
0.396                   1.002055         135.585
0.4                     1.003724         134.829
0.404                   1.004727        134.0439
0.408                    1.00489        133.2479
0.412                   1.004186        132.4616
0.416                   1.002737        131.7044
0.42                    1.000792        130.9916
0.424                  0.9986923        130.3311
0.428                  0.9968042        129.7226
0.432                  0.9954613        129.1569
0.436                   0.994902        128.6176
0.44                   0.9952257         128.084
0.444                  0.9963759        127.5348
0.448                  0.9981486        126.9519
0.452                   1.000231         126.324
0.456                   1.002256        125.6482
0.46                    1.003868        124.9305
0.464                   1.004787        124.1843
0.468                   1.004851        123.4285
0.472                   1.004048         122.684
0.476                   1.002516          121.97
0.48                    1.000521        121.3013
0.484                  0.9984114        120.6851
0.488                  0.9965606        120.1202
0.492                   0.995297        119.5961
0.496                  0.9948475        119.0956
0.5                    0.9952939        118.5974
0.504                  0.9965585        118.0799
0.508                   0.998417        117.5258
0.512                    1.00054        116.9244
0.516                   1.002552        116.2742
0.52                    1.004098        115.5822
0.524                   1.004907        114.8634
0.528                   1.004834        114.1373
0.532                    1.00389        113.4253
0.536                   1.002236        112.7465
0.54                    1.000161        112.1151
0.544                  0.9980299        111.5373
0.548                  0.9962202        111.0101
0.552                  0.9950565        110.5218
0.556                  0.9947497        110.0538
0.56                   0.9953575        109.5839
0.564                  0.9967737        109.0906
0.568                  0.9987472        108.5568
0.572                   1.000927        107.9732
0.576                   1.002927        107.3397
0.58                    1.004393        106.6653
0.584                   1.005064        105.9661
0.588                    1.00482         105.263
0.592                     1.0037        104.5777
0.596                   1.001896        103.9294
0.6                     0.999723        103.3313
0.604                  0.9975655        102.7881
0.608                   0.995808        102.2951
0.612                  0.9947676        101.8387
0.616                  0.9946348        101.3987
0.62                   0.9954375        100.9519
0.624                  0.9970348        100.4766
0.628                  0.9991424        99.95666
0.632                   1.001385        99.38418
0.636                   1.003364        98.76093
0.64                    1.004727        98.09785
0.644                    1.00523        97.41296
0.648                   1.004781        96.72833
0.652                   1.003453        96.06624
0.656                   1.001475        95.44559
0.66                   0.9991944        94.87841
0.664                  0.9970146        94.36773
0.668                  0.9953275         93.9066
0.672                  0.9944394        93.47918
0.676                  0.9945153        93.06347
0.68                   0.9955464         92.6353
0.684                   0.997351        92.17299
0.688                  0.9996075        91.66131
0.692                   1.001913        91.09419
0.696                   1.003857         90.4757
0.7                     1.005091        89.81905
0.704                   1.005394        89.14429
0.708                   1.004705        88.47481
0.712                    1.00314        87.83343
0.716                   1.000969        87.23857
0.72                   0.9985734        86.70093
0.724                  0.9963806        86.22128
0.728                  0.9947861        85.79019
0.732                  0.9940817        85.38929
0.736                  0.9944009        84.99458
0.74                   0.9956917        84.58095
0.744                  0.9977255        84.12682
0.748                    1.00014        83.61829
0.752                   1.002502        83.05145
0.756                   1.004391        82.43295
0.76                    1.005466        81.77863
0.764                   1.005533        81.11069
0.768                   1.004571        80.45394
0.772                   1.002743        79.83163
0.776                   1.000366        79.26146
0.78                   0.9978585        78.75239
0.784                  0.9956704        78.30275
0.788                  0.9941989        77.90004
0.792                  0.9937162        77.52318
0.796                  0.9943172        77.14604
0.8                    0.9958996        76.74259
0.804                  0.9981826        76.29171
0.808                   1.000758        75.78107
0.812                   1.003164        75.20938
0.816                    1.00497        74.58627
0.82                    1.005849        73.93041
0.824                   1.005639        73.26638
0.828                   1.004365        72.62041
0.832                   1.002245        72.01602
0.836                  0.9996469        71.46996
0.84                    0.997031        70.98909
0.844                   0.994868         70.5687
0.848                  0.9935537        70.19303
0.852                  0.9933341        69.83785
0.856                  0.9942578        69.47492
0.86                   0.9961652        69.07734
0.864                  0.9987167        68.62471
0.868                   1.001455        68.10678
0.872                    1.00389        67.52521
0.876                   1.005583        66.89297
0.88                    1.006226        66.23197
0.884                   1.005696         65.5692
0.888                   1.004074        64.93232
0.892                   1.001636        64.34498
0.896                  0.9988081        63.82264
0.9                    0.9960934         63.3696
0.904                  0.9939832        62.97774
0.908                  0.9928666        62.62748
0.912                  0.9929565        62.29126
0.916                  0.9942467        61.93861
0.92                   0.9965119        61.54199
0.924                  0.9993476        61.08206
0.928                   1.002245        60.55111
0.932                   1.004684        59.95426
0.936                   1.006223        59.30826
0.94                    1.006579        58.63844
0.944                   1.005677        57.97446
0.948                   1.003659        57.34536
0.952                   1.000873        56.77469
0.956                  0.9978041        56.27626
0.96                   0.9950026        55.85129
0.964                  0.9929783        55.48762
0.968                  0.9921083        55.16145
0.972                   0.992564        54.84154
0.976                  0.9942747        54.49511
0.98                   0.9969394        54.09422
0.984                   1.000082        53.62098
0.988                   1.003138        53.07076
0.992                   1.005558        52.45266
0.996                   1.006902        51.78765
1                       1.006918        51.10489
1.004                   1.005587        50.43683
1.008                   1.003125        49.81391
1.012                  0.9999553        49.25934
1.016                  0.9966345        48.78487
1.02                   0.9937591        48.38806
1.024                  0.9918567        48.05209
1.028                  0.9912871        47.74833
1.032                  0.9921694        47.44153
1.036                  0.9943574        47.09658
1.04                   0.9974641        46.68535
1.044                   1.000933        46.19192
1.048                   1.004141        45.61531
1.052                   1.006509        44.96921
1.056                   1.007603        44.27939
1.06                    1.007211        43.57921
1.064                    1.00538        42.90415
1.068                   1.002411        42.28605
1.072                   0.998816        41.74755
1.076                  0.9952282        41.29778
1.08                   0.9922966        40.92995
1.084                  0.9905649        40.62174
1.088                  0.9903671        40.33899
1.092                  0.9917594        40.04193
1.096                  0.9945053        39.69301
1.1                    0.9981179        39.26418
1.104                    1.00195        38.74207
1.108                   1.005313        38.13003
1.112                   1.007597        37.44715
1.116                   1.008378        36.72468
1.12                    1.007495        36.00076
1.124                   1.005071        35.31432
1.128                    1.00151        34.69863
1.132                  0.9974225        34.17563
1.136                   0.993534        33.75126
1.14                   0.9905516        33.41341
1.144                  0.9890349        33.13337
1.148                  0.9892851        32.87035
1.152                  0.9912812        32.57944
1.156                  0.9946795        32.22042
1.16                   0.9988759        31.76556
1.164                   1.003118        31.20467
1.168                   1.006641        30.54626
1.172                   1.008803        29.81579
1.176                   1.009196        29.05091
1.18                    1.007714        28.29533
1.184                    1.00458        27.59196
1.188                   1.000312        26.97593
1.192                  0.9956463        26.46804
1.196                  0.9914142        26.07049
1.2                    0.9883933        25.76472
1.204                  0.9871605        25.51392
1.208                  0.9879751        25.26945
1.212                  0.9907203        24.98007
1.216                  0.9949207        24.60247
1.22                   0.9998291        24.10952
1.224                   1.004565        23.49491
1.228                   1.008273        22.77362
1.232                    1.01027        21.97877
1.236                   1.010165        21.15576
1.24                    1.007924        20.35526
1.244                   1.003886        19.62528
1.248                  0.9987168        19.00332
1.252                  0.9933077        18.50928
1.256                   0.988626        18.14053
1.26                   0.9855417        17.87048
1.264                  0.9846576        17.65207
1.268                  0.9861827        17.42626
1.272                  0.9898807        17.13378
1.276                  0.9951089        16.72715
1.28                    1.000937         16.1798
1.284                   1.006321        15.49026
1.288                   1.010282        14.68148
1.292                   1.012083        13.79621
1.296                   1.011345        12.88988
1.3                     1.008119        12.02224
1.304                   1.002893        11.24833
1.308                  0.9965207        10.60943
1.312                  0.9901003        10.12486
1.316                  0.9847882        9.786256
1.32                   0.9815871        9.556343
1.324                  0.9811455        9.374085
1.328                  0.9836139        9.165996
1.332                  0.9885999        8.861229
1.336                  0.9952359        8.406157
1.34                     1.00234        7.774456
1.344                   1.008636        6.970779
1.348                   1.012968        6.028496
1.352                   1.014504        5.003277
1.356                   1.012868        3.964381
1.36                    1.008213        2.984792
1.364                   1.001217        2.130648
1.368                  0.9930041        1.450318
1.372                  0.9849768       0.9640893
1.376                  0.9785878       0.6566711
1.38                   0.9750665       0.4756513
1.384                  0.9751632       0.3386193
1.388                  0.9789707       0.1489587
1.392                   0.985882       -0.183593
1.396                  0.9946971      -0.7240127
1.4                     1.003847       -1.500149
1.404                   1.011679       -2.499851
1.408                   1.016735        -3.67546
1.412                   1.017989       -4.952627
1.416                   1.015014       -6.241019
1.42                    1.008064       -7.445901
1.424                  0.9980813       -8.480763
1.428                   0.986596       -9.281372
1.432                  0.9755243       -9.820473
1.436                  0.9668627       -10.12012
1.44                   0.9623096       -10.25611
1.444                    0.96289       -10.34891
1.448                  0.9686896       -10.54007
1.452                  0.9787894       -10.96049
1.456                  0.9914285       -11.70212
1.46                    1.004334       -12.80211
1.464                   1.015123       -14.24131
1.468                   1.021686       -15.95262
1.472                     1.0225       -17.83348
1.476                   1.016854       -19.75868
1.48                     1.00499       -21.59273
1.484                  0.9881558        -23.2039
1.488                  0.9685489        -24.4827
1.492                  0.9491112       -25.36712
1.496                  0.9331365       -25.87217
1.5                    0.9236693       -26.11318
1.504                  0.9227908       -26.30508
1.508                  0.9309996       -26.72497
1.512                  0.9469468       -27.64732
1.516                  0.9676379       -29.28284
1.52                    0.988983       -31.74888
1.524                   1.006455       -35.07536
1.528                   1.015656       -39.23115
1.532                   1.012717       -44.15357
1.536                  0.9945407       -49.77225
1.54                   0.9589342       -56.02616
1.544                  0.9046656       -62.87698
1.548                  0.8314799        -70.3241
1.552                  0.7400924       -78.43083
