! TOUCHSTONE file generated by CST MICROWAVE STUDIO
! Date and time: Thu Jun  9 09:30:44 2022
! Project name: AppElm_antenne_patch_Alumina.cst
! Parameters = {L=30.5; W=41.8; e=0.035; h=1.6; lambda=0.190476; ls=90; w0=1.12; w1=0.4662; ws=90; y0=14; y1=10}
! Header version: 2018
! Port assignment regex: !\s*Touchstone port\s*([0-9]+)\s*=\s*(CST MWS port|CST DS port)\s*([0-9]+|Zmin|Zmax)\s*\(\"(.*)\"\)(\s*mode\s*([0-9]+))?.*
! Touchstone port assignment:
! Touchstone port 1 = CST MWS port 1 ("")
# GHz S MA R 50
0                      0.9793352              -0
0.004                  0.9804617       -10.36375
0.008                  0.9836937       -20.61844
0.012                  0.9886108       -30.66185
0.016                  0.9945847       -40.40391
0.02                     1.00087       -49.76981
0.024                   1.006705       -58.70065
0.028                   1.011411       -67.15231
0.032                   1.014473       -75.09351
0.036                    1.01559       -82.50378
0.04                    1.014711       -89.37208
0.044                    1.01203       -95.69631
0.048                    1.00796       -101.4838
0.052                    1.00308       -106.7525
0.056                  0.9980608       -111.5318
0.06                    0.993574       -115.8632
0.064                  0.9902022       -119.7995
0.068                   0.988357       -123.4018
0.072                  0.9882199       -126.7352
0.076                  0.9897229       -129.8627
0.08                   0.9925644       -132.8393
0.084                   0.996265       -135.7081
0.088                   1.000245       -138.4968
0.092                   1.003915       -141.2179
0.096                   1.006758       -143.8703
0.1                     1.008402       -146.4425
0.104                    1.00866       -148.9162
0.108                   1.007557       -151.2711
0.112                    1.00531       -153.4886
0.116                   1.002302       -155.5562
0.12                   0.9990163         -157.47
0.124                  0.9959691       -159.2365
0.128                  0.9936269       -160.8733
0.132                  0.9923358       -162.4066
0.136                  0.9922681       -163.8685
0.14                    0.993397       -165.2921
0.144                   0.995506       -166.7065
0.148                  0.9982302       -168.1333
0.152                   1.001118       -169.5835
0.156                   1.003706       -171.0569
0.16                    1.005594       -172.5434
0.164                   1.006501       -174.0253
0.168                   1.006309       -175.4805
0.172                   1.005074       -176.8863
0.176                   1.003017       -178.2232
0.18                    1.000485       -179.4781
0.184                  0.9978999        179.3536
0.188                  0.9956853        178.2665
0.192                  0.9942007        177.2458
0.196                  0.9936807        176.2697
0.2                    0.9941956        175.3128
0.204                  0.9956424        174.3502
0.208                  0.9977645        173.3618
0.212                   1.000197        172.3357
0.216                   1.002533        171.2691
0.22                    1.004385        170.1688
0.224                   1.005457        169.0496
0.228                   1.005582        167.9314
0.232                   1.004751         166.836
0.236                   1.003114        165.7835
0.24                    1.000951        164.7891
0.244                  0.9986295        163.8606
0.248                  0.9965421        162.9964
0.252                   0.995041        162.1864
0.256                  0.9943772        161.4127
0.26                    0.994657         160.653
0.264                  0.9958243        159.8844
0.268                  0.9976714        159.0878
0.272                   0.999877        158.2504
0.276                   1.002062        157.3684
0.28                    1.003857        156.4468
0.284                   1.004962        155.4987
0.288                   1.005194        154.5426
0.292                   1.004522        153.5995
0.296                   1.003063        152.6894
0.3                     1.001069        151.8278
0.304                  0.9988827        151.0234
0.308                  0.9968804        150.2764
0.312                  0.9954067         149.578
0.316                  0.9947154         148.912
0.32                   0.9949237        148.2574
0.324                  0.9959915        147.5924
0.328                  0.9977294        146.8981
0.332                  0.9998331        146.1618
0.336                   1.001937        145.3795
0.34                    1.003679        144.5555
0.344                   1.004762        143.7025
0.348                   1.005002        142.8384
0.352                   1.004362        141.9839
0.356                   1.002952        141.1587
0.36                    1.001017        140.3784
0.364                  0.9988915        139.6518
0.368                  0.9969453        138.9791
0.372                  0.9955185         138.352
0.376                   0.994861        137.7546
0.38                   0.9950878        137.1662
0.384                  0.9961582        136.5653
0.388                  0.9978827        135.9335
0.392                  0.9999574        135.2584
0.396                    1.00202        134.5361
0.4                      1.00371        133.7716
0.404                   1.004737        132.9775
0.408                   1.004923        132.1721
0.412                   1.004236        131.3759
0.416                   1.002794        130.6086
0.42                    1.000848        129.8855
0.424                  0.9987361         129.215
0.428                  0.9968285        128.5969
0.432                  0.9954619        128.0222
0.436                  0.9948786        127.4746
0.44                    0.995183        126.9333
0.444                  0.9963217        126.3768
0.448                   0.998093        125.7869
0.452                   1.000184        125.1518
0.456                   1.002227        124.4686
0.46                    1.003864         123.743
0.464                   1.004808        122.9884
0.468                   1.004894        122.2237
0.472                   1.004107        121.4698
0.476                    1.00258        120.7462
0.48                     1.00058        120.0679
0.484                  0.9984555        119.4425
0.488                  0.9965821        118.8687
0.492                  0.9952924        118.3365
0.496                  0.9948177        117.8285
0.5                    0.9952448        117.3234
0.504                  0.9964991        116.7996
0.508                  0.9983581        116.2391
0.512                   1.000492        115.6314
0.516                   1.002524        114.9743
0.52                    1.004096        114.2751
0.524                    1.00493        113.5484
0.528                   1.004879        112.8139
0.532                   1.003947        112.0931
0.536                   1.002297        111.4054
0.54                    1.000213        110.7651
0.544                  0.9980636        110.1787
0.548                   0.996229        109.6436
0.552                   0.995038        109.1481
0.556                  0.9947066        108.6736
0.56                   0.9952973        108.1977
0.564                  0.9967068        107.6987
0.568                  0.9986853        107.1594
0.572                   1.000881          106.57
0.576                   1.002904        105.9303
0.58                    1.004397         105.249
0.584                   1.005095        104.5424
0.588                   1.004871        103.8313
0.592                   1.003761        103.1377
0.596                   1.001956         102.481
0.6                    0.9997709        101.8746
0.604                  0.9975912        101.3237
0.608                  0.9958061        100.8236
0.612                  0.9947376        100.3608
0.616                  0.9945812        99.91511
0.62                   0.9953694        99.46318
0.624                  0.9969639        98.98303
0.628                  0.9990811        98.45817
0.632                   1.001344        97.88042
0.636                    1.00335        97.25136
0.64                    1.004742        96.58179
0.644                   1.005272        95.88981
0.648                   1.004841        95.19756
0.652                    1.00352        94.52759
0.656                   1.001538        93.89903
0.66                   0.9992401        93.32427
0.664                  0.9970353        92.80654
0.668                  0.9953189        92.33911
0.672                  0.9944032        91.90615
0.676                  0.9944581        91.48554
0.68                   0.9954789        91.05293
0.684                  0.9972859        90.58634
0.688                  0.9995573        90.07018
0.692                   1.001887        89.49811
0.696                   1.003861        88.87405
0.7                     1.005125        88.21111
0.704                   1.005452        87.52943
0.708                   1.004777        86.85259
0.712                   1.003214        86.20369
0.716                   1.001031        85.60142
0.72                   0.9986137        85.05678
0.724                  0.9963913        84.57085
0.728                  0.9947652        84.13428
0.732                  0.9940334        83.72866
0.736                  0.9943341        83.32987
0.74                   0.9956192        82.91247
0.744                  0.9976611         82.4546
0.748                   1.000095        81.94198
0.752                   1.002486        81.37046
0.756                   1.004407        80.74656
0.76                    1.005512        80.08609
0.764                     1.0056        79.41139
0.768                   1.004648        78.74753
0.772                   1.002815        78.11806
0.776                    1.00042        77.54102
0.78                   0.9978851        77.02564
0.784                  0.9956639        76.57045
0.788                  0.9941603        76.16309
0.792                  0.9936522        75.78232
0.796                  0.9942395        75.40183
0.8                    0.9958224        74.99521
0.804                  0.9981201        74.54095
0.808                   1.000721        74.02646
0.812                    1.00316         73.4502
0.816                   1.004999        72.82169
0.82                    1.005906        72.15973
0.824                   1.005712        71.48904
0.828                   1.004441        70.83619
0.832                   1.002309        70.22504
0.836                  0.9996862        69.67268
0.84                   0.9970372        69.18622
0.844                  0.9948389        68.76116
0.848                  0.9934934        68.38172
0.852                  0.9932528        68.02346
0.856                  0.9941702        67.65784
0.86                   0.9960869        67.25757
0.864                  0.9986619        66.80183
0.868                   1.001434        66.28014
0.872                   1.003906        65.69391
0.876                   1.005633        65.05618
0.88                    1.006302        64.38897
0.884                   1.005783        63.71955
0.888                   1.004156        63.07596
0.892                   1.001698        62.48223
0.896                  0.9988389        61.95414
0.9                    0.9960866        61.49627
0.904                    0.99394        61.10053
0.908                  0.9927952        60.74727
0.912                  0.9928703        60.40867
0.916                   0.994163        60.05383
0.92                   0.9964468         59.6548
0.924                  0.9993146        59.19182
0.928                   1.002252        58.65695
0.932                    1.00473        58.05522
0.936                   1.006301        57.40346
0.94                    1.006677        56.72726
0.944                   1.005778        56.05663
0.948                   1.003746        55.42105
0.952                   1.000929        54.84444
0.956                  0.9978214        54.34097
0.96                   0.9949784          53.912
0.964                   0.992918        53.54538
0.968                   0.992025        53.21707
0.972                   0.992475        52.89545
0.976                  0.9941992        52.54725
0.98                   0.9968941        52.14406
0.984                   1.000078        51.66766
0.988                   1.003179        51.11318
0.992                   1.005639        50.48978
0.996                   1.007012        49.81864
1                       1.007039        49.12928
1.004                   1.005699        48.45458
1.008                    1.00321        47.82546
1.012                  0.9999994        47.26554
1.016                  0.9966311        46.78683
1.02                   0.9937103        46.38702
1.024                  0.9917741         46.0491
1.028                  0.9911884         45.7441
1.032                  0.9920761        45.43625
1.036                  0.9942901        45.08986
1.04                   0.9974388        44.67634
1.044                   1.000958        44.17948
1.048                   1.004215        43.59819
1.052                   1.006621        42.94633
1.056                   1.007736        42.25003
1.06                    1.007343        41.54312
1.064                   1.005489        40.86163
1.068                   1.002479        40.23788
1.072                  0.9988305        39.69491
1.076                  0.9951887        39.24207
1.08                   0.9922121        38.87248
1.084                  0.9904536        38.56353
1.088                  0.9902525        38.28051
1.092                  0.9916668          37.983
1.096                   0.994456        37.63284
1.1                    0.9981257        37.20151
1.104                   1.002018        36.67545
1.108                   1.005432         36.0581
1.112                    1.00775        35.36886
1.116                   1.008541        34.63951
1.12                     1.00764         33.9088
1.124                   1.005176        33.21627
1.128                   1.001556        32.59575
1.132                   0.997404         32.0695
1.136                  0.9934563        31.64349
1.14                   0.9904325        31.30548
1.144                  0.9889008         31.0261
1.148                  0.9891664        30.76384
1.152                  0.9912065        30.47309
1.156                  0.9946695        30.11284
1.16                   0.9989398        29.65506
1.164                   1.003251        29.08949
1.168                   1.006826        28.42497
1.172                   1.009014         27.6875
1.176                   1.009399        26.91539
1.18                    1.007879        26.15317
1.184                   1.004681        25.44447
1.188                   1.000337        24.82483
1.192                  0.9955956        24.31543
1.196                  0.9913034        23.91822
1.2                    0.9882511        23.61419
1.204                  0.9870233        23.36577
1.208                  0.9878803         23.1231
1.212                  0.9906987        22.83427
1.216                  0.9949897        22.45519
1.22                   0.9999899        21.95856
1.224                   1.004802        21.33824
1.228                   1.008555        20.60981
1.232                   1.010559        19.80718
1.236                    1.01042        18.97685
1.24                    1.008109        18.17029
1.244                   1.003977        17.43631
1.248                   0.998707        16.81288
1.252                  0.9932092        16.31997
1.256                  0.9884694        15.95453
1.26                   0.9853712        15.68905
1.264                  0.9845227        15.47524
1.268                  0.9861284        15.25276
1.272                  0.9899384         14.9613
1.276                  0.9952898         14.5528
1.28                     1.00123        14.00075
1.284                   1.006692        13.30429
1.288                   1.010684        12.48737
1.292                   1.012461        11.59395
1.296                   1.011648        10.68073
1.3                     1.008308        9.808557
1.304                   1.002947        9.033312
1.308                  0.9964445        8.396644
1.312                  0.9899246        7.917635
1.316                  0.9845656        7.586997
1.32                   0.9813838         7.36598
1.324                  0.9810283        7.191732
1.328                  0.9836365        6.989068
1.332                  0.9887913        6.685999
1.336                  0.9955939        6.228573
1.34                    1.002832        5.590998
1.344                   1.009201         4.77915
1.348                   1.013535        3.828022
1.352                   1.014995        2.795044
1.356                   1.013218        1.751149
1.36                    1.008379        0.770698
1.364                   1.001189      -0.0792873
1.368                  0.9928089       -0.750273
1.372                  0.9846769       -1.222715
1.376                  0.9782731       -1.513634
1.38                   0.9748394       -1.677952
1.384                  0.9751175       -1.800852
1.388                  0.9791716       -1.981255
1.392                  0.9863509       -2.310609
1.396                  0.9954062       -2.853683
1.4                     1.004724       -3.636859
1.404                    1.01262        -4.64569
1.408                   1.017621       -5.829859
1.412                   1.018708       -7.112367
1.416                   1.015478       -8.400507
1.42                    1.008228       -9.597693
1.424                   0.997953       -10.61634
1.428                  0.9862438       -11.39231
1.432                  0.9750723       -11.89997
1.436                  0.9664746       -12.16467
1.44                   0.9621596       -12.26679
1.444                  0.9631261       -12.33159
1.448                  0.9693993       -12.50416
1.452                   0.979978       -12.91652
1.456                  0.9930146        -13.6591
1.46                    1.006165       -14.76554
1.464                      1.017        -16.2121
1.468                   1.023397       -17.92693
1.472                   1.023851       -19.80296
1.476                   1.017703        -21.7109
1.48                    1.005275       -23.51182
1.484                  0.9879178       -25.07156
1.488                  0.9679489       -26.28006
1.492                  0.9484301       -27.07783
1.496                  0.9327479       -27.48667
1.5                    0.9239812        -27.6327
1.504                  0.9241582       -27.74301
1.508                  0.9336367        -28.1035
1.512                    0.95087       -28.99034
1.516                  0.9726579       -30.60846
1.52                   0.9947393       -33.06492
1.524                   1.012469       -36.37818
1.528                   1.021383       -40.50647
1.532                   1.017591       -45.37739
1.536                  0.9980019       -50.91089
1.54                   0.9604501       -57.03445
1.544                  0.9037396       -63.69397
1.548                  0.8276469       -70.86468
1.552                  0.7328944       -78.56983
