! TOUCHSTONE file generated by CST MICROWAVE STUDIO
! Date and time: Thu Jun  9 09:30:38 2022
! Project name: AppElm_antenne_patch_Alumina.cst
! Parameters = {L=30.5; W=41.8; e=0.035; h=1.6; lambda=0.190476; ls=90; w0=1.12; w1=0.3543; ws=90; y0=14; y1=10}
! Header version: 2018
! Port assignment regex: !\s*Touchstone port\s*([0-9]+)\s*=\s*(CST MWS port|CST DS port)\s*([0-9]+|Zmin|Zmax)\s*\(\"(.*)\"\)(\s*mode\s*([0-9]+))?.*
! Touchstone port assignment:
! Touchstone port 1 = CST MWS port 1 ("")
# GHz S MA R 50
0                      0.9791761              -0
0.004                  0.9803106        -10.3646
0.008                   0.983565       -20.61922
0.012                  0.9885144       -30.66078
0.016                  0.9945239       -40.39858
0.02                    1.000841       -49.75732
0.024                   1.006697       -58.67785
0.028                   1.011411       -67.11594
0.032                   1.014465       -75.04029
0.036                    1.01556       -82.43054
0.04                    1.014649       -89.27583
0.044                   1.011934       -95.57433
0.048                   1.007833       -101.3337
0.052                   1.002934       -106.5724
0.056                  0.9979124       -111.3204
0.06                   0.9934427       -115.6199
0.064                   0.990107       -119.5244
0.068                  0.9883116       -123.0956
0.072                  0.9882314        -126.399
0.076                  0.9897883       -129.4976
0.08                   0.9926721       -132.4467
0.084                  0.9963956       -135.2886
0.088                   1.000376       -138.0507
0.092                   1.004022       -140.7452
0.096                   1.006822       -143.3702
0.1                     1.008409        -145.914
0.104                   1.008609       -148.3581
0.108                   1.007454       -150.6821
0.112                    1.00517       -152.8679
0.116                   1.002148       -154.9033
0.12                   0.9988742       -156.7848
0.124                  0.9958633       -158.5198
0.128                  0.9935763       -160.1262
0.132                    0.99235       -161.6308
0.136                  0.9923455       -163.0658
0.14                   0.9935248       -164.4639
0.144                  0.9956629       -165.8541
0.148                  0.9983884       -167.2572
0.152                    1.00125       -168.6835
0.156                   1.003788       -170.1322
0.16                     1.00561       -171.5929
0.164                   1.006447       -173.0475
0.168                   1.006191       -174.4739
0.172                    1.00491       -175.8498
0.176                   1.002832       -177.1562
0.18                    1.000308       -178.3803
0.184                  0.9977589       -179.5186
0.188                  0.9956026        179.4231
0.192                  0.9941887        178.4295
0.196                   0.993739        177.4787
0.2                    0.9943119        176.5453
0.204                  0.9957942        175.6049
0.208                  0.9979227        174.6382
0.212                   1.000332        173.6338
0.216                   1.002618        172.5898
0.22                    1.004404        171.5133
0.224                   1.005403        170.4196
0.228                   1.005463        169.3284
0.232                   1.004585        168.2612
0.236                   1.002927        167.2377
0.24                    1.000775        166.2724
0.244                  0.9984931        165.3722
0.248                  0.9964689        164.5352
0.252                  0.9950434        163.7504
0.256                  0.9944546             163
0.26                   0.9947959        162.2618
0.264                  0.9959999        161.5135
0.268                  0.9978529        160.7364
0.272                   1.000032        159.9187
0.276                   1.002164        159.0573
0.28                    1.003887        158.1578
0.284                   1.004915        157.2334
0.288                   1.005078        156.3027
0.292                   1.004356        155.3864
0.296                   1.002876        154.5037
0.3                     1.000894        153.6697
0.304                  0.9987501        152.8921
0.308                  0.9968142        152.1705
0.312                  0.9954191        151.4956
0.316                  0.9948045         150.851
0.32                   0.9950742         150.216
0.324                   0.996177        149.5692
0.328                  0.9979172        148.8926
0.332                  0.9999895        148.1743
0.336                   1.002034        147.4108
0.34                      1.0037        146.6074
0.344                   1.004701        145.7767
0.348                   1.004871        144.9366
0.352                   1.004181        144.1075
0.356                   1.002753        143.3084
0.36                    1.000835        142.5541
0.364                  0.9987577        141.8527
0.368                  0.9968835        141.2037
0.372                    0.99554        140.5982
0.376                  0.9949624        140.0202
0.38                   0.9952512        139.4493
0.384                  0.9963546        138.8647
0.388                   0.998077        138.2487
0.392                   1.000115        137.5897
0.396                   1.002113        136.8848
0.4                     1.003723        136.1393
0.404                   1.004666         135.366
0.408                    1.00478        134.5833
0.412                   1.004047         133.811
0.416                   1.002592        133.0683
0.42                    1.000669        132.3696
0.424                  0.9986121        131.7226
0.428                  0.9967821        131.1261
0.432                  0.9955019         130.571
0.436                  0.9949984        130.0407
0.44                   0.9953611        129.5147
0.444                  0.9965262        128.9724
0.448                  0.9982868        128.3964
0.452                   1.000332        127.7759
0.456                   1.002301        127.1086
0.46                     1.00385        126.4007
0.464                   1.004707        125.6658
0.468                   1.004722        124.9227
0.472                   1.003893        124.1916
0.476                    1.00236        123.4914
0.48                    1.000392        122.8361
0.484                  0.9983322        122.2324
0.488                  0.9965446        121.6784
0.492                  0.9953473        121.1636
0.496                  0.9949549        120.6709
0.5                     0.995439        120.1792
0.504                  0.9967153        119.6675
0.508                  0.9985574        119.1192
0.512                   1.000639        118.5244
0.516                   1.002592        117.8819
0.52                    1.004073        117.1992
0.524                   1.004822         116.491
0.528                   1.004704        115.7769
0.532                   1.003739        115.0776
0.536                   1.002093        114.4117
0.54                    1.000052        113.7926
0.544                  0.9979766         113.226
0.548                  0.9962342        112.7084
0.552                  0.9951372         112.228
0.556                  0.9948841        111.7663
0.56                   0.9955232        111.3016
0.564                  0.9969424        110.8129
0.568                  0.9988892        110.2839
0.572                   1.001018        109.7061
0.576                   1.002951        109.0798
0.58                    1.004345        108.4142
0.584                   1.004954        107.7253
0.588                   1.004667        107.0338
0.592                    1.00353        106.3608
0.596                   1.001739        105.7248
0.6                    0.9996077        105.1382
0.604                  0.9975118        104.6052
0.608                  0.9958253        104.1207
0.612                  0.9948525         103.671
0.616                  0.9947716        103.2361
0.62                   0.9956004        102.7934
0.624                  0.9971936        102.3219
0.628                  0.9992675        101.8062
0.632                   1.001453         101.239
0.636                   1.003362        100.6225
0.64                    1.004654          99.968
0.644                   1.005099        99.29317
0.648                   1.004614        98.61974
0.652                    1.00328        97.96936
0.656                   1.001327        97.36018
0.66                   0.9990977        96.80352
0.664                   0.996988         96.3018
0.668                  0.9953767        95.84778
0.672                  0.9945565        95.42562
0.676                  0.9946798        95.01365
0.68                   0.9957291        94.58835
0.684                  0.9975192        94.12881
0.688                  0.9997312        93.62061
0.692                    1.00197        93.05832
0.696                   1.003838        92.44637
0.7                     1.004999        91.79805
0.704                   1.005245        91.13317
0.708                   1.004527        90.47458
0.712                   1.002964        89.84443
0.716                   1.000827        89.26031
0.72                   0.9984927        88.73217
0.724                  0.9963759        88.26034
0.728                  0.9948588        87.83507
0.732                  0.9942192        87.43815
0.736                  0.9945782        87.04602
0.74                   0.9958764        86.63428
0.744                  0.9978839        86.18227
0.748                   1.000242        85.67685
0.752                    1.00253        85.11473
0.756                   1.004338        84.50281
0.76                    1.005342        83.85692
0.764                   1.005358         83.1989
0.768                   1.004377        82.55287
0.772                   1.002565        81.94135
0.776                   1.000235        81.38122
0.78                   0.9978001        80.88068
0.784                   0.995696        80.43758
0.788                  0.9943049        80.03935
0.792                  0.9938846         79.6651
0.796                  0.9945179        79.28933
0.8                     0.996097        78.88686
0.804                  0.9983418        78.43746
0.808                   1.000851        77.92963
0.812                   1.003175        77.36256
0.816                   1.004898        76.74606
0.82                    1.005708         76.0987
0.824                   1.005455        75.44448
0.828                   1.004174        74.80891
0.832                   1.002083        74.21468
0.836                  0.9995443        73.67768
0.84                   0.9970092        73.20408
0.844                  0.9949332         72.7888
0.848                  0.9936955        72.41609
0.852                  0.9935277        72.06216
0.856                  0.9944683        71.69951
0.86                   0.9963539        71.30219
0.864                  0.9988481        70.85075
0.868                   1.001505        70.33571
0.872                   1.003846        69.75913
0.876                   1.005452        69.13406
0.88                     1.00603        68.48203
0.884                   1.005466        67.82942
0.888                   1.003849        67.20303
0.892                   1.001455        66.62555
0.896                  0.9987022        66.11162
0.9                    0.9960795         65.6649
0.904                  0.9940621        65.27695
0.908                  0.9930216        64.92844
0.912                  0.9931568        64.59237
0.916                  0.9944531        64.23917
0.92                   0.9966836        63.84239
0.924                  0.9994507        63.38359
0.928                   1.002258        62.85578
0.932                   1.004603        62.26434
0.936                   1.006061        61.62592
0.94                    1.006364        60.96535
0.944                   1.005446        60.31148
0.948                   1.003456        59.69241
0.952                   1.000733        59.13068
0.956                   0.997755        58.63928
0.96                   0.9950549         58.2189
0.964                  0.9931237        57.85731
0.968                   0.992321         57.5311
0.972                  0.9928049        57.20982
0.976                   0.994499        56.86182
0.98                   0.9971047        56.46025
0.984                   1.000156         55.9882
0.988                   1.003106        55.44158
0.992                   1.005422         54.8296
0.996                   1.006685        54.17294
1                       1.006656        53.50004
1.004                   1.005324        52.84241
1.008                   1.002907        52.22937
1.012                  0.9998187        51.68313
1.016                  0.9966027        51.21464
1.02                   0.9938357        50.82107
1.024                  0.9920253        50.48573
1.028                  0.9915133        50.18059
1.032                  0.9924076        49.87145
1.036                  0.9945595        49.52443
1.04                   0.9975883        49.11257
1.044                   1.000952        48.62084
1.048                   1.004048        48.04863
1.052                   1.006316        47.40954
1.056                   1.007342         46.7288
1.06                    1.006926        46.03884
1.064                   1.005121        45.37405
1.068                   1.002225        44.76504
1.072                  0.9987349        44.23346
1.076                   0.995268        43.78776
1.08                   0.9924499        43.42094
1.084                   0.990803        43.11109
1.088                  0.9906439        42.82499
1.092                  0.9920208        42.52416
1.096                  0.9946992        42.17247
1.1                    0.9982042        41.74302
1.104                   1.001908        41.22321
1.108                   1.005145        40.61656
1.112                   1.007328        39.94179
1.116                   1.008052        39.22931
1.12                    1.007164        38.51608
1.124                   1.004792        37.83975
1.128                   1.001328        37.23236
1.132                  0.9973676        36.71479
1.136                  0.9936112        36.29247
1.14                   0.9907412        35.95342
1.144                  0.9892947        35.66961
1.148                  0.9895578        35.40154
1.152                  0.9915056         35.1059
1.156                  0.9948023        34.74396
1.16                   0.9988619        34.28912
1.164                   1.002957        33.73173
1.168                    1.00635        33.08018
1.172                   1.008421        32.35919
1.176                    1.00878        31.60527
1.18                    1.007327        30.86069
1.184                   1.004281        30.16694
1.188                   1.000147        29.55777
1.192                   0.995635        29.05315
1.196                  0.9915487        28.65487
1.2                    0.9886375        28.34494
1.204                  0.9874557        28.08767
1.208                  0.9882513         27.8361
1.212                  0.9909099        27.54087
1.216                  0.9949718        27.16029
1.22                   0.9997156        26.66816
1.224                   1.004292        26.05836
1.228                   1.007874        25.34537
1.232                   1.009805        24.56113
1.236                   1.009706        23.74951
1.24                    1.007543        22.95945
1.244                   1.003645        22.23728
1.248                  0.9986531        21.61915
1.252                  0.9934267        21.12426
1.256                  0.9888984         20.7501
1.26                   0.9859063          20.471
1.264                  0.9850324        20.24177
1.268                  0.9864803        20.00562
1.272                   0.990025        19.70547
1.276                  0.9950508        19.29547
1.28                    1.000664        18.74975
1.284                   1.005857         18.0666
1.288                   1.009688        17.26785
1.292                   1.011439        16.39452
1.296                   1.010744        15.50001
1.3                     1.007646        14.64198
1.304                   1.002609        13.87365
1.308                  0.9964556        13.23498
1.312                  0.9902403        12.74484
1.316                  0.9850778        12.39546
1.32                   0.9819377        12.15133
1.324                  0.9814513        11.95401
1.328                  0.9837732        11.73289
1.332                  0.9885368        11.41961
1.336                  0.9949159        10.96196
1.34                    1.001778        10.33379
1.344                   1.007892        9.538681
1.348                   1.012141        8.608033
1.352                   1.013709        7.594992
1.356                   1.012221        6.566115
1.36                    1.007809        5.591816
1.364                   1.001113        4.736142
1.368                  0.9932032        4.046228
1.372                  0.9854239          3.5424
1.376                  0.9791732        3.210966
1.38                   0.9756436         3.00264
1.384                  0.9755747        2.839118
1.388                   0.979081        2.627875
1.392                  0.9856053         2.28164
1.396                  0.9940148        1.736598
1.4                     1.002812       0.9641083
1.404                   1.010405     -0.02604218
1.408                   1.015376       -1.189533
1.412                   1.016715        -2.45577
1.416                   1.013979       -3.738148
1.42                    1.007385       -4.945274
1.424                   0.997808       -5.993181
1.428                  0.9866979       -6.818836
1.432                  0.9758856       -7.394228
1.436                  0.9672946       -7.738226
1.44                   0.9625817       -7.921161
1.444                  0.9627761       -8.056874
1.448                  0.9680189       -8.280971
1.452                  0.9774874       -8.720971
1.456                  0.9895354       -9.468851
1.46                       1.002       -10.56487
1.464                   1.012583         -11.995
1.468                   1.019222       -13.69819
1.472                   1.020399       -15.57816
1.476                   1.015361       -17.51575
1.48                     1.00427       -19.38116
1.484                  0.9882473       -21.04744
1.488                  0.9693338       -22.40801
1.492                  0.9502991       -23.40017
1.496                  0.9342788       -24.03278
1.5                    0.9242201       -24.40877
1.504                  0.9222091       -24.72673
1.508                  0.9288726       -25.24905
1.512                  0.9430897         -26.243
1.516                  0.9621352       -27.92189
1.52                   0.9821714       -30.41312
1.524                  0.9988693       -33.76002
1.528                   1.007964       -37.94504
1.532                   1.005664       -42.91809
1.536                  0.9889047       -48.62101
1.54                   0.9554943       -55.00619
1.544                  0.9041883        -62.0523
1.548                  0.8347218       -69.78301
1.552                  0.7478313         -78.299
