! TOUCHSTONE file generated by CST MICROWAVE STUDIO
! Date and time: Thu Jun  9 09:30:34 2022
! Project name: AppElm_antenne_patch_Alumina.cst
! Parameters = {L=30.5; W=41.8; e=0.035; h=1.6; lambda=0.190476; ls=90; w0=1.12; w1=0.2797; ws=90; y0=14; y1=10}
! Header version: 2018
! Port assignment regex: !\s*Touchstone port\s*([0-9]+)\s*=\s*(CST MWS port|CST DS port)\s*([0-9]+|Zmin|Zmax)\s*\(\"(.*)\"\)(\s*mode\s*([0-9]+))?.*
! Touchstone port assignment:
! Touchstone port 1 = CST MWS port 1 ("")
# GHz S MA R 50
0                      0.9794828              -0
0.004                  0.9806173       -10.36852
0.008                  0.9838708       -20.62598
0.012                  0.9888143       -30.66836
0.016                  0.9948081       -40.40414
0.02                    1.001095       -49.75745
0.024                   1.006905       -58.66874
0.028                   1.011555       -67.09354
0.032                   1.014532       -75.00057
0.036                   1.015545       -82.36955
0.04                    1.014557        -89.1899
0.044                   1.011778       -95.46029
0.048                   1.007641       -101.1891
0.052                   1.002741       -106.3956
0.056                  0.9977548       -111.1108
0.06                   0.9933569        -115.378
0.064                  0.9901197       -119.2518
0.068                  0.9884357       -122.7945
0.072                  0.9884612       -126.0719
0.076                  0.9901006       -129.1468
0.08                   0.9930283       -132.0739
0.084                  0.9967484       -134.8944
0.088                   1.000676       -137.6348
0.092                   1.004228       -140.3059
0.096                   1.006904       -142.9054
0.1                     1.008358       -145.4208
0.104                   1.008433       -147.8338
0.108                   1.007183       -150.1244
0.112                   1.004851       -152.2752
0.116                   1.001834        -154.275
0.12                   0.9986197       -156.1219
0.124                  0.9957144       -157.8243
0.128                  0.9935623       -159.4011
0.132                  0.9924778       -160.8796
0.136                  0.9925976       -162.2918
0.14                   0.9938626       -163.6701
0.144                   0.996032       -165.0419
0.148                  0.9987297       -166.4267
0.152                   1.001508       -167.8335
0.156                   1.003921       -169.2605
0.16                    1.005598       -170.6963
0.164                   1.006293       -172.1228
0.168                   1.005922       -173.5182
0.172                   1.004573       -174.8609
0.176                   1.002484       -176.1333
0.18                    1.000012       -177.3239
0.184                  0.9975666       -178.4306
0.188                  0.9955505       -179.4604
0.192                  0.9942888        179.5708
0.196                  0.9939771        178.6411
0.2                    0.9946496        177.7258
0.204                  0.9961753        176.8016
0.208                  0.9982832        175.8507
0.212                   1.000612        174.8633
0.216                   1.002771        173.8386
0.22                    1.004405        172.7849
0.224                   1.005253        171.7173
0.228                   1.005189        170.6554
0.232                   1.004235        169.6199
0.236                   1.002563        168.6291
0.24                     1.00046         167.696
0.244                  0.9982841         166.826
0.248                  0.9964043        166.0161
0.252                  0.9951367        165.2547
0.256                  0.9946913        164.5237
0.26                   0.9951361        163.8017
0.264                  0.9963851        163.0677
0.268                  0.9982165        162.3045
0.272                   1.000311         161.502
0.276                   1.002311        160.6582
0.28                    1.003876        159.7797
0.284                   1.004748        158.8802
0.288                   1.004784        157.9775
0.292                   1.003985        157.0916
0.296                   1.002494        156.2404
0.3                     1.000566        155.4372
0.304                  0.9985354        154.6884
0.308                  0.9967508        153.9923
0.312                  0.9955194        153.3388
0.316                  0.9950518        152.7117
0.32                   0.9954255        152.0909
0.324                  0.9965705        151.4565
0.328                  0.9982835        150.7918
0.332                   1.000264         150.087
0.336                   1.002169        149.3397
0.34                    1.003671         148.556
0.344                   1.004513        147.7488
0.348                   1.004556        146.9357
0.352                   1.003794        146.1358
0.356                   1.002361        145.3669
0.36                    1.000506         144.642
0.364                  0.9985516        143.9676
0.368                  0.9968371        143.3421
0.372                  0.9956626         142.756
0.376                  0.9952327        142.1932
0.38                   0.9956223        141.6344
0.384                  0.9967606          141.06
0.388                  0.9984461        140.4541
0.392                   1.000382         139.807
0.396                    1.00223        139.1169
0.4                     1.003669          138.39
0.404                   1.004451        137.6394
0.408                   1.004441        136.8825
0.412                   1.003642        136.1385
0.416                   1.002194        135.4246
0.42                    1.000347        134.7538
0.424                   0.998425        134.1319
0.428                  0.9967645        133.5568
0.432                  0.9956584        133.0186
0.436                  0.9953026        132.5011
0.44                   0.9957601        131.9849
0.444                  0.9969496        131.4507
0.448                  0.9986603         130.883
0.452                   1.000589        130.2728
0.456                   1.002398        129.6191
0.46                    1.003769        128.9289
0.464                   1.004463        128.2158
0.468                   1.004359        127.4977
0.472                   1.003474        126.7937
0.476                   1.001962         126.121
0.48                    1.000085        125.4918
0.484                   0.998173        124.9112
0.488                   0.996564        124.3762
0.492                  0.9955439        123.8759
0.496                  0.9952955        123.3935
0.5                    0.9958645         122.909
0.504                  0.9971502        122.4034
0.508                   0.998925        121.8617
0.512                   1.000874        121.2759
0.516                   1.002654        120.6461
0.52                     1.00395        119.9804
0.524                   1.004536        119.2934
0.528                   1.004306        118.6036
0.532                   1.003299        117.9305
0.536                   1.001689        117.2908
0.54                   0.9997577        116.6962
0.544                   0.997845        116.1505
0.548                   0.996291        115.6495
0.552                  0.9953738        115.1809
0.556                  0.9952595        114.7269
0.56                   0.9959706        114.2671
0.564                  0.9973818        113.7824
0.568                  0.9992421        113.2586
0.572                   1.001221        112.6888
0.576                   1.002968        112.0745
0.58                    1.004172        111.4254
0.584                   1.004622        110.7573
0.588                   1.004233        110.0896
0.592                   1.003072        109.4419
0.596                   1.001339        108.8308
0.6                     0.999337        108.2668
0.604                  0.9974208        107.7526
0.608                  0.9959324         107.282
0.612                    0.99514        106.8414
0.616                  0.9951889        106.4115
0.62                   0.9960735        105.9714
0.624                  0.9976375        105.5021
0.628                  0.9996026        104.9902
0.632                   1.001619        104.4302
0.636                   1.003329        103.8254
0.64                    1.004428        103.1873
0.644                   1.004719         102.533
0.648                   1.004147         101.883
0.652                    1.00281        101.2571
0.656                   1.000938        100.6715
0.66                   0.9988611        100.1355
0.664                  0.9969482        99.65012
0.668                   0.995543        99.20731
0.672                  0.9949009        98.79137
0.676                  0.9951417        98.38181
0.68                   0.9962261        97.95689
0.684                  0.9979623        97.49791
0.688                   1.000041        96.99255
0.692                   1.002091        96.43704
0.696                   1.003748        95.83672
0.7                     1.004715        95.20491
0.704                   1.004817        94.56062
0.708                   1.004032        93.92516
0.712                    1.00249        93.31873
0.716                   1.000462        92.75674
0.72                   0.9983032        92.24723
0.724                  0.9963994        91.78912
0.728                  0.9950941        91.37218
0.732                  0.9946263        90.97859
0.736                  0.9950855        90.58625
0.74                   0.9963931        90.17285
0.744                  0.9983173        89.72004
0.748                   1.000515         89.2168
0.752                   1.002593         88.6614
0.756                   1.004179        88.06145
0.76                     1.00499        87.43251
0.764                   1.004876        86.79532
0.768                   1.003851         86.1723
0.772                   1.002088         85.5837
0.776                  0.9998959         85.0442
0.78                   0.9976614         84.5601
0.784                  0.9957852        84.12804
0.788                  0.9946082        83.73518
0.792                  0.9943484         83.3614
0.796                   0.995059        82.98302
0.8                    0.9966172        82.57713
0.804                  0.9987459        82.12596
0.808                   1.001065        81.62011
0.812                    1.00316        81.06019
0.816                   1.004654        80.45641
0.82                    1.005278        79.82677
0.824                   1.004914        79.19389
0.828                   1.003618        78.58123
0.832                    1.00161        78.00908
0.836                  0.9992421        77.49107
0.84                   0.9969333        77.03154
0.844                   0.995099        76.62439
0.848                  0.9940746        76.25396
0.852                  0.9940518        75.89764
0.856                  0.9950418        75.53002
0.86                   0.9968714        75.12777
0.864                  0.9992146        74.67395
0.868                   1.001652        74.16111
0.872                   1.003746        73.59248
0.876                    1.00512        72.98118
0.88                    1.005523        72.34787
0.884                   1.004874        71.71716
0.888                   1.003277        71.11348
0.892                   1.001006        70.55708
0.896                  0.9984574         70.0602
0.9                     0.996086        69.62483
0.904                  0.9943206        69.24182
0.908                  0.9934865         68.8923
0.912                  0.9937436        68.55093
0.916                  0.9950539        68.19062
0.92                   0.9971876         67.7877
0.924                  0.9997641        67.32635
0.928                   1.002322        66.80142
0.932                   1.004403        66.21919
0.936                    1.00563        65.59598
0.94                    1.005777        64.95534
0.944                   1.004806        64.32397
0.948                   1.002876        63.72737
0.952                   1.000319        63.18542
0.956                  0.9975824         62.7088
0.96                   0.9951566        62.29672
0.964                   0.993483        61.93656
0.968                  0.9928729        61.60591
0.972                  0.9934475        61.27645
0.976                  0.9951127        60.91936
0.98                   0.9975745        60.51084
0.984                   1.000393        60.03655
0.988                   1.003063        59.49402
0.992                   1.005102        58.89295
0.996                   1.006141        58.25327
1                       1.005982        57.60164
1.004                   1.004637        56.96706
1.008                   1.002329        56.37599
1.012                  0.9994522        55.84788
1.016                  0.9965145        55.39141
1.02                   0.9940423        55.00256
1.024                  0.9924881        54.66479
1.028                  0.9921454        54.35159
1.032                  0.9930891        54.03139
1.036                  0.9951595        53.67363
1.04                   0.9979905        53.25449
1.044                   1.001076        52.76139
1.048                   1.003862        52.19504
1.052                   1.005845        51.56907
1.056                   1.006663        50.90739
1.06                    1.006152        50.24018
1.064                   1.004384         49.5989
1.068                   1.001652        49.01107
1.072                  0.9984254        48.49544
1.076                  0.9952748        48.05842
1.08                   0.9927683        47.69221
1.084                  0.9913692        47.37562
1.088                  0.9913469        47.07758
1.092                  0.9927215        46.76291
1.096                  0.9952577        46.39909
1.1                    0.9985062        45.96253
1.104                   1.001886         45.4428
1.108                   1.004788        44.84432
1.112                   1.006688        44.18522
1.116                   1.007231        43.49401
1.12                    1.006298        42.80487
1.124                   1.004026        42.15207
1.128                   1.000791        41.56431
1.132                  0.9971518        41.05956
1.136                  0.9937499         40.6415
1.14                   0.9912024        40.29794
1.144                  0.9899845        40.00219
1.148                  0.9903372        39.71781
1.152                  0.9922163        39.40534
1.156                  0.9952971        39.03006
1.16                   0.9990326        38.56867
1.164                   1.002754        38.01327
1.168                   1.005791        37.37265
1.172                    1.00759        36.67021
1.176                   1.007807        35.93976
1.18                    1.006372        35.22024
1.184                   1.003502        34.54933
1.188                  0.9996723        33.95715
1.192                  0.9955427        33.46097
1.196                  0.9918457        33.06116
1.2                    0.9892569        32.74017
1.204                  0.9882673        32.46473
1.208                  0.9890848        32.19176
1.212                  0.9915876        31.87659
1.216                  0.9953426        31.48175
1.22                   0.9996841        30.98413
1.224                   1.003836        30.37903
1.228                   1.007048        29.68028
1.232                   1.008729        28.91762
1.236                   1.008546        28.13154
1.24                    1.006485        27.36684
1.244                   1.002858        26.66554
1.248                  0.9982615        26.06011
1.252                  0.9934845        25.56716
1.256                  0.9893759        25.18339
1.26                   0.9866919        24.88461
1.264                  0.9859504        24.62919
1.268                   0.987324        24.36538
1.272                   0.990597         24.0416
1.276                  0.9952011        23.61649
1.28                    1.000319        23.06688
1.284                   1.005034        22.39156
1.288                   1.008488        21.61071
1.292                   1.010033          20.762
1.296                   1.009341        19.89439
1.3                     1.006459        19.06058
1.304                   1.001817          18.309
1.308                    0.99617        17.67573
1.312                  0.9904803        17.17741
1.316                  0.9857612         16.8064
1.32                    0.982891        16.53006
1.324                  0.9824396        16.29522
1.328                  0.9845452        16.03785
1.332                   0.988875        15.69595
1.336                  0.9946799        15.22194
1.34                    1.000932        14.59164
1.344                    1.00651        13.80782
1.348                   1.010393        12.89867
1.352                   1.011835        11.91244
1.356                   1.010485        10.90988
1.36                     1.00646        9.955369
1.364                   1.000336        9.107486
1.368                  0.9930847        8.409305
1.372                  0.9859267        7.879471
1.376                  0.9801335        7.505836
1.38                   0.9767939         7.24417
1.384                  0.9765919        7.024015
1.388                  0.9796504        6.761715
1.392                  0.9854858        6.377615
1.396                   0.993088          5.8124
1.4                     1.001106        5.038016
1.404                   1.008087        4.061238
1.408                   1.012725        2.920717
1.412                   1.014074        1.679804
1.416                   1.011698       0.4172156
1.42                    1.005763      -0.7833891
1.424                  0.9970379       -1.844762
1.428                  0.9868177        -2.70844
1.432                  0.9767559       -3.347427
1.436                  0.9686027       -3.776755
1.44                   0.9638862       -4.057702
1.444                  0.9635887       -4.291287
1.448                  0.9679052       -4.599816
1.452                  0.9761624       -5.100898
1.456                  0.9869244       -5.882617
1.46                   0.9982543       -6.987746
1.464                   1.008052       -8.409732
1.468                   1.014397       -10.09799
1.472                   1.015832       -11.96802
1.476                   1.011585       -13.91281
1.48                    1.001708       -15.81444
1.484                  0.9871285       -17.55678
1.488                  0.9696176       -19.04138
1.492                   0.951625       -20.20814
1.496                   0.935966       -21.05929
1.5                    0.9253433       -21.67956
1.504                  0.9217595       -22.23999
1.508                   0.925976       -22.97419
1.512                  0.9372093       -24.13025
1.516                  0.9531944       -25.91827
1.52                   0.9705705       -28.47724
1.524                  0.9854219        -31.8707
1.528                   0.993799        -36.1038
1.532                  0.9921221       -41.14844
1.536                  0.9774557       -46.96734
1.54                   0.9476767       -53.53412
1.544                  0.9015733       -60.85169
1.548                  0.8389125       -68.97427
1.552                  0.7605101       -78.04265
