! TOUCHSTONE file generated by CST MICROWAVE STUDIO
! Date and time: Thu Jun  9 09:30:40 2022
! Project name: AppElm_antenne_patch_Alumina.cst
! Parameters = {L=30.5; W=41.8; e=0.035; h=1.6; lambda=0.190476; ls=90; w0=1.12; w1=0.3916; ws=90; y0=14; y1=10}
! Header version: 2018
! Port assignment regex: !\s*Touchstone port\s*([0-9]+)\s*=\s*(CST MWS port|CST DS port)\s*([0-9]+|Zmin|Zmax)\s*\(\"(.*)\"\)(\s*mode\s*([0-9]+))?.*
! Touchstone port assignment:
! Touchstone port 1 = CST MWS port 1 ("")
# GHz S MA R 50
0                      0.9793475              -0
0.004                  0.9804791       -10.36375
0.008                  0.9837253       -20.61792
0.012                  0.9886631       -30.65979
0.016                  0.9946599       -40.39891
0.02                    1.000965       -49.76022
0.024                   1.006815       -58.68465
0.028                   1.011527       -67.12804
0.032                   1.014583       -75.05909
0.036                   1.015685       -82.45736
0.04                    1.014783       -89.31192
0.044                   1.012075       -95.62077
0.048                   1.007978       -101.3915
0.052                   1.003076       -106.6421
0.056                  0.9980426       -111.4025
0.06                   0.9935526       -115.7144
0.064                  0.9901893       -119.6311
0.068                  0.9883622       -123.2141
0.072                  0.9882501       -126.5286
0.076                  0.9897792       -129.6378
0.08                   0.9926435       -132.5969
0.084                  0.9963591       -135.4486
0.088                   1.000343       -138.2205
0.092                   1.004005        -140.925
0.096                   1.006829       -143.5605
0.1                     1.008445       -146.1153
0.104                   1.008673       -148.5712
0.108                    1.00754       -150.9075
0.112                    1.00527       -153.1061
0.116                   1.002247       -155.1543
0.12                   0.9989608       -157.0486
0.124                  0.9959249        -158.796
0.128                   0.993605        -160.414
0.132                  0.9923428       -161.9294
0.136                  0.9923053       -163.3742
0.14                   0.9934604       -164.7815
0.144                  0.9955867       -166.1804
0.148                  0.9983155       -167.5919
0.152                   1.001194       -169.0269
0.156                   1.003762       -170.4848
0.16                     1.00562       -171.9554
0.164                   1.006493       -173.4207
0.168                   1.006269       -174.8586
0.172                   1.005008       -176.2466
0.176                   1.002937       -177.5653
0.18                    1.000405       -178.8017
0.184                  0.9978337       -179.9519
0.188                  0.9956444        178.9786
0.192                  0.9941925        177.9747
0.196                  0.9937065        177.0145
0.2                    0.9942512        176.0726
0.204                   0.995718        175.1243
0.208                  0.9978463        174.1499
0.212                   1.000271        173.1376
0.216                   1.002584        172.0852
0.22                    1.004406        170.9996
0.224                   1.005442        169.8959
0.228                   1.005533        168.7939
0.232                   1.004677        167.7154
0.236                   1.003026        166.6802
0.24                    1.000863        165.7032
0.244                  0.9985574        164.7918
0.248                  0.9964979        163.9443
0.252                  0.9950321          163.15
0.256                  0.9944051        162.3911
0.26                   0.9947166        161.6452
0.264                  0.9959051        160.8898
0.268                  0.9977589        160.1059
0.272                  0.9999556        159.2813
0.276                   1.002118        158.4123
0.28                    1.003881        157.5044
0.284                   1.004949        156.5707
0.288                   1.005148        155.6299
0.292                   1.004449        154.7027
0.296                   1.002977        153.8089
0.3                     1.000986        152.9637
0.304                  0.9988185        152.1755
0.308                  0.9968467        151.4439
0.312                  0.9954105        150.7601
0.316                  0.9947574        150.1076
0.32                   0.9949975        149.4657
0.324                  0.9960853        148.8126
0.328                  0.9978276        148.1298
0.332                  0.9999192        147.4051
0.336                   1.001997        146.6346
0.34                    1.003703        145.8234
0.344                   1.004746        144.9838
0.348                    1.00495        144.1341
0.352                   1.004283        143.2947
0.356                   1.002861        142.4849
0.36                    1.000931        141.7201
0.364                  0.9988252        141.0086
0.368                  0.9969118        140.3504
0.372                   0.995524        139.7367
0.376                  0.9949054        139.1517
0.38                    0.995164        138.5747
0.384                  0.9962527        137.9846
0.388                  0.9979788        137.3632
0.392                   1.000038        136.6986
0.396                   1.002071        135.9874
0.4                     1.003723        135.2346
0.404                   1.004709        134.4532
0.408                   1.004859        133.6613
0.412                   1.004147        132.8793
0.416                   1.002696        132.1266
0.42                    1.000758         131.418
0.424                  0.9986699        130.7616
0.428                  0.9967985        130.1568
0.432                  0.9954733        129.5944
0.436                  0.9949296        129.0579
0.44                   0.9952644        128.5268
0.444                  0.9964188        127.9798
0.448                  0.9981881        127.3992
0.452                    1.00026        126.7737
0.456                   1.002269        126.1006
0.46                    1.003864        125.3859
0.464                   1.004766        124.6432
0.468                   1.004817        123.8913
0.472                   1.004007        123.1508
0.476                   1.002475         122.441
0.48                    1.000488        121.7763
0.484                  0.9983931        121.1639
0.488                  0.9965601        120.6023
0.492                  0.9953149        120.0811
0.496                   0.994881         119.583
0.5                    0.9953374        119.0868
0.504                  0.9966046        118.5714
0.508                  0.9984576        118.0191
0.512                   1.000568        117.4199
0.516                   1.002564        116.7721
0.52                    1.004092        116.0831
0.524                   1.004883        115.3676
0.528                   1.004798        114.6451
0.532                   1.003848        113.9369
0.536                   1.002197        113.2621
0.54                    1.000132        112.6344
0.544                  0.9980167        112.0599
0.548                  0.9962259        111.5357
0.552                  0.9950808        111.0499
0.556                  0.9947884        110.5839
0.56                   0.9954045        110.1157
0.564                  0.9968212         109.624
0.568                  0.9987869        109.0918
0.572                   1.000953        108.5102
0.576                   1.002934         107.879
0.58                     1.00438        107.2073
0.584                   1.005035        106.5113
0.588                    1.00478        105.8117
0.592                   1.003656        105.1301
0.596                   1.001856        104.4855
0.6                    0.9996958        103.8908
0.604                  0.9975555        103.3507
0.608                  0.9958176        102.8603
0.612                  0.9947955        102.4059
0.616                  0.9946761        101.9675
0.62                   0.9954851        101.5221
0.624                  0.9970801        101.0482
0.628                  0.9991774        100.5297
0.632                   1.001403        99.95901
0.636                   1.003362        99.33795
0.64                    1.004706        98.67756
0.644                   1.005193        97.99577
0.648                   1.004735        97.31452
0.652                   1.003406        96.65596
0.656                   1.001436        96.03873
0.66                   0.9991693         95.4747
0.664                  0.9970088        94.96671
0.668                  0.9953421        94.50778
0.672                  0.9944719        94.08207
0.676                  0.9945598        93.66764
0.68                   0.9955948        93.24053
0.684                  0.9973945         92.7793
0.688                   0.999638        92.26893
0.692                   1.001925         91.7035
0.696                   1.003848        91.08714
0.7                     1.005063        90.43313
0.704                   1.005352         89.7614
0.708                   1.004656        89.09521
0.712                   1.003093        88.45719
0.716                   1.000933         87.8655
0.72                    0.998555        87.33066
0.724                  0.9963836        86.85335
0.728                  0.9948101        86.42406
0.732                  0.9941229        86.02445
0.736                  0.9944521        85.63069
0.74                   0.9957438        85.21782
0.744                  0.9977696        84.76458
0.748                   1.000168        84.25722
0.752                    1.00251          83.692
0.756                   1.004377        83.07563
0.76                    1.005434        82.42392
0.764                   1.005489        81.75896
0.768                   1.004523        81.10539
0.772                   1.002701        80.48622
0.776                   1.000337        79.91896
0.78                   0.9978501        79.41238
0.784                  0.9956847        78.96466
0.788                  0.9942339        78.56336
0.792                  0.9937665        78.18737
0.796                  0.9943743        77.81086
0.8                    0.9959538        77.40795
0.804                  0.9982247        76.95777
0.808                   1.000781        76.44827
0.812                   1.003164        75.87821
0.816                   1.004948        75.25724
0.82                     1.00581        74.60403
0.824                   1.005589        73.94298
0.828                   1.004315         73.3001
0.832                   1.002204        72.69869
0.836                  0.9996235        72.15527
0.84                     0.99703        71.67653
0.844                  0.9948903        71.25769
0.848                  0.9935956        70.88302
0.852                  0.9933883        70.52839
0.856                  0.9943149         70.1658
0.86                   0.9962149         69.7686
0.864                  0.9987499        69.31664
0.868                   1.001466        68.79985
0.872                   1.003876        68.21999
0.876                   1.005547        67.59006
0.88                    1.006175        66.93178
0.884                   1.005638          66.272
0.888                    1.00402        65.63815
0.892                   1.001595         65.0536
0.896                  0.9987888        64.53363
0.9                    0.9960988        64.08237
0.904                  0.9940122        63.69166
0.908                  0.9929138        63.34201
0.912                  0.9930127        63.00602
0.916                  0.9943015        62.65347
0.92                   0.9965543        62.25714
0.924                  0.9993694         61.7979
0.928                   1.002242        61.26821
0.932                   1.004655        60.67324
0.936                   1.006174        60.02967
0.94                    1.006518        59.36269
0.944                   1.005613        58.70171
0.948                   1.003605        58.07555
0.952                   1.000838        57.50744
0.956                  0.9977944        57.01104
0.96                   0.9950197        56.58743
0.964                   0.993019        56.22446
0.968                  0.9921649        55.89848
0.972                  0.9926256        55.57846
0.976                  0.9943295        55.23195
0.98                   0.9969766        54.83128
0.984                   1.000094         54.3588
0.988                   1.003123        53.80999
0.992                   1.005517        53.19395
0.996                   1.006843        52.53154
1                       1.006852         51.8517
1.004                   1.005525        51.18662
1.008                   1.003079        50.56644
1.012                   0.999933        50.01414
1.016                  0.9966411        49.54124
1.02                   0.9937938        49.14528
1.024                  0.9919134        48.80951
1.028                  0.9913554        48.50548
1.032                  0.9922366        48.19826
1.036                  0.9944109        47.85307
1.04                   0.9974937        47.44206
1.044                   1.000933        46.94955
1.048                   1.004111        46.37457
1.052                   1.006454        45.73077
1.056                   1.007533        45.04374
1.06                    1.007139        44.34655
1.064                   1.005318        43.67441
1.068                   1.002372         43.0588
1.072                  0.9988064        42.52216
1.076                  0.9952505        42.07345
1.08                   0.9923468        41.70589
1.084                  0.9906337        41.39732
1.088                  0.9904413        41.11385
1.092                  0.9918242         40.8161
1.096                  0.9945479        40.46685
1.1                    0.9981293        40.03839
1.104                   1.001927        39.51743
1.108                   1.005258        38.90736
1.112                   1.007519        38.22711
1.116                   1.008291        37.50765
1.12                    1.007412        36.78679
1.124                   1.005007        36.10311
1.128                   1.001475        35.48959
1.132                  0.9974236        34.96793
1.136                   0.993569        34.54397
1.14                   0.9906129        34.20574
1.144                  0.9891093        33.92472
1.148                  0.9893564        33.66053
1.152                  0.9913332        33.36871
1.156                  0.9946996        33.00939
1.16                    0.998857        32.55516
1.164                    1.00306        31.99576
1.168                   1.006552        31.33977
1.172                   1.008696        30.61227
1.176                   1.009086        29.85062
1.18                     1.00762         29.0981
1.184                   1.004515        28.39721
1.188                   1.000286        27.78282
1.192                  0.9956626        27.27558
1.196                  0.9914666        26.87758
1.2                    0.9884688        26.57049
1.204                  0.9872414        26.31799
1.208                  0.9880417         26.0718
1.212                  0.9907556        25.78127
1.216                  0.9949129        25.40351
1.22                   0.9997746        24.91147
1.224                   1.004469        24.29882
1.228                   1.008148         23.5804
1.232                   1.010134        22.78883
1.236                   1.010039        21.96913
1.24                    1.007827        21.17145
1.244                   1.003833        20.44343
1.248                  0.9987142        19.82218
1.252                  0.9933529        19.32759
1.256                  0.9887072        18.95711
1.26                   0.9856393        18.68454
1.264                  0.9847479        18.46337
1.268                  0.9862425         18.2352
1.272                  0.9898921        17.94132
1.276                  0.9950628        17.53462
1.28                    1.000836        16.98857
1.284                   1.006175        16.30153
1.288                   1.010113        15.49604
1.292                   1.011915         14.6143
1.296                   1.011204        13.71112
1.3                     1.008027        12.84572
1.304                   1.002861        12.07267
1.308                  0.9965527        11.43299
1.312                  0.9901857        10.94603
1.316                  0.9849055        10.60371
1.32                   0.9817075         10.3694
1.324                  0.9812375        10.18287
1.328                  0.9836499        9.971452
1.332                  0.9885622        9.664928
1.336                  0.9951201        9.209939
1.34                    1.002157        8.580043
1.344                   1.008407        7.779447
1.348                   1.012726        6.840847
1.352                   1.014283        5.819133
1.356                   1.012699        4.782791
1.36                    1.008119        3.804127
1.364                   1.001209        2.948791
1.368                   0.993076        2.264952
1.372                  0.9851059        1.773097
1.376                  0.9787376        1.458575
1.38                   0.9751931        1.270005
1.384                  0.9752234         1.12619
1.388                  0.9789314       0.9316088
1.392                  0.9857276       0.5966697
1.396                  0.9944328      0.05648127
1.4                     1.003498      -0.7172818
1.404                   1.011287       -1.713352
1.408                   1.016349       -2.885166
1.412                   1.017659       -4.159518
1.416                   1.014781        -5.44714
1.42                    1.007955       -6.654184
1.424                  0.9981005       -7.694727
1.428                  0.9867218       -8.504662
1.432                  0.9757105       -9.056233
1.436                  0.9670441       -9.370265
1.44                    0.962413       -9.520715
1.444                   0.962849       -9.626004
1.448                  0.9684597       -9.826023
1.452                   0.978359       -10.25095
1.456                  0.9908215       -10.99308
1.46                    1.003606       -12.09085
1.464                   1.014353       -13.52684
1.468                   1.020961        -15.2359
1.472                   1.021903       -17.11738
1.476                    1.01645       -19.04778
1.48                    1.004816       -20.89318
1.484                  0.9882084       -22.52299
1.488                  0.9687745       -23.82819
1.492                   0.949407       -24.74608
1.496                  0.9333577       -25.28925
1.5                    0.9236516       -25.56892
1.504                  0.9223832       -25.79505
1.508                  0.9301013       -26.24077
1.512                  0.9455333       -27.17928
1.516                  0.9657677       -28.82297
1.52                   0.9867875       -31.29287
1.524                   1.004118       -34.62333
1.528                   1.013394       -38.78739
1.532                    1.01076       -43.72619
1.536                  0.9931216       -49.37303
1.54                   0.9582788       -55.67107
1.544                  0.9049899       -62.58745
1.548                  0.8329912       -70.12966
1.552                  0.7430003       -78.37382
