! TOUCHSTONE file generated by CST MICROWAVE STUDIO
! Date and time: Thu Jun  9 09:30:35 2022
! Project name: AppElm_antenne_patch_Alumina.cst
! Parameters = {L=30.5; W=41.8; e=0.035; h=1.6; lambda=0.190476; ls=90; w0=1.12; w1=0.29835; ws=90; y0=14; y1=10}
! Header version: 2018
! Port assignment regex: !\s*Touchstone port\s*([0-9]+)\s*=\s*(CST MWS port|CST DS port)\s*([0-9]+|Zmin|Zmax)\s*\(\"(.*)\"\)(\s*mode\s*([0-9]+))?.*
! Touchstone port assignment:
! Touchstone port 1 = CST MWS port 1 ("")
# GHz S MA R 50
0                      0.9795218              -0
0.004                  0.9806568       -10.36669
0.008                   0.983912       -20.62268
0.012                  0.9888596       -30.66425
0.016                   0.994861       -40.40015
0.02                     1.00116       -49.75471
0.024                   1.006987       -58.66852
0.028                   1.011658       -67.09717
0.032                   1.014658       -75.00938
0.036                   1.015694       -82.38481
0.04                    1.014724       -89.21277
0.044                   1.011956       -95.49174
0.048                   1.007819       -101.2299
0.052                   1.002904        -106.446
0.056                  0.9978906       -111.1708
0.06                   0.9934528       -115.4473
0.064                  0.9901681       -119.3296
0.068                  0.9884345       -122.8799
0.072                  0.9884159       -126.1639
0.076                  0.9900227       -129.2446
0.08                   0.9929346       -132.1769
0.084                   0.996658       -135.0025
0.088                   1.000608       -137.7483
0.092                   1.004197       -140.4256
0.096                    1.00692       -143.0322
0.1                     1.008424       -145.5558
0.104                   1.008543        -147.978
0.108                   1.007323       -150.2787
0.112                   1.005003       -152.4401
0.116                   1.001976       -154.4507
0.12                   0.9987323       -156.3078
0.124                  0.9957806       -158.0196
0.128                  0.9935727       -159.6046
0.132                  0.9924321       -161.0899
0.136                  0.9925045       -162.5077
0.14                    0.993739       -163.8905
0.144                  0.9959001       -165.2664
0.148                  0.9986124       -166.6553
0.152                   1.001426       -168.0669
0.156                   1.003891       -169.4996
0.16                    1.005625       -170.9424
0.164                   1.006374       -172.3771
0.168                   1.006046       -173.7819
0.172                   1.004719       -175.1348
0.176                   1.002631       -176.4175
0.18                    1.000135       -177.6183
0.184                  0.9976473       -178.7343
0.188                  0.9955755       -179.7722
0.192                  0.9942551        179.2523
0.196                  0.9938916        178.3173
0.2                    0.9945283        177.3978
0.204                  0.9960404          176.47
0.208                  0.9981596        175.5157
0.212                   1.000522        174.5241
0.216                    1.00273        173.4944
0.22                    1.004423        172.4343
0.224                   1.005327         171.359
0.228                   1.005307        170.2882
0.232                   1.004378         169.243
0.236                   1.002706        168.2421
0.24                    1.000579        167.2993
0.244                  0.9983589        166.4204
0.248                  0.9964214        165.6028
0.252                  0.9950927        164.8352
0.256                  0.9945937        164.0995
0.26                   0.9950015         163.374
0.264                  0.9962374         162.637
0.268                  0.9980812        161.8709
0.272                   1.000212        161.0649
0.276                   1.002265        160.2166
0.28                    1.003893        159.3323
0.284                   1.004824        158.4253
0.288                   1.004907        157.5142
0.292                   1.004135        156.6188
0.296                   1.002644        155.7579
0.3                     1.000692        154.9452
0.304                  0.9986159        154.1879
0.308                  0.9967721        153.4844
0.312                  0.9954784        152.8252
0.316                  0.9949568        152.1939
0.32                   0.9952938          151.57
0.324                  0.9964267        150.9331
0.328                  0.9981539        150.2661
0.332                   1.000173        149.5581
0.336                   1.002133        148.8066
0.34                    1.003697        148.0173
0.344                   1.004599         147.203
0.348                   1.004687        146.3816
0.352                   1.003949        145.5726
0.356                   1.002513        144.7942
0.36                     1.00063        144.0603
0.364                  0.9986249        143.3779
0.368                  0.9968477        142.7457
0.372                  0.9956082        142.1545
0.376                  0.9951235        141.5882
0.38                   0.9954775         141.027
0.384                  0.9966059        140.4508
0.388                   0.998309         139.843
0.392                   1.000287        139.1933
0.396                   1.002193        138.4993
0.4                     1.003697        137.7671
0.404                   1.004539        137.0097
0.408                   1.004573        136.2448
0.412                   1.003796        135.4919
0.416                   1.002341         134.769
0.42                    1.000461        134.0896
0.424                  0.9984855        133.4603
0.428                  0.9967597        132.8792
0.432                  0.9955886        132.3367
0.436                  0.9951797        131.8165
0.44                   0.9956056        131.2986
0.444                  0.9967907        130.7632
0.448                   0.998525        130.1941
0.452                   1.000502        129.5816
0.456                   1.002375        128.9243
0.46                    1.003814        128.2289
0.464                   1.004569        127.5091
0.468                   1.004508         126.783
0.472                   1.003641        126.0704
0.476                   1.002117        125.3889
0.48                    1.000202        124.7516
0.484                  0.9982318        124.1641
0.488                  0.9965542        123.6238
0.492                  0.9954677        123.1199
0.496                  0.9951666        122.6353
0.5                    0.9957065        122.1499
0.504                  0.9969921        121.6436
0.508                  0.9987953         121.101
0.512                   1.000796        120.5132
0.516                   1.002642        119.8799
0.52                    1.004007        119.2091
0.524                   1.004651        118.5155
0.528                    1.00446         117.818
0.532                   1.003464        117.1365
0.536                   1.001836        116.4886
0.54                   0.9998592        115.8864
0.544                  0.9978826        115.3346
0.548                  0.9962568        114.8291
0.552                   0.995273        114.3579
0.556                  0.9951094        113.9027
0.56                   0.9957976        113.4426
0.564                  0.9972165         112.958
0.568                  0.9991139        112.4336
0.572                   1.001153        111.8621
0.576                   1.002972        111.2445
0.58                    1.004249        110.5903
0.584                   1.004757        109.9156
0.588                   1.004404        109.2402
0.592                   1.003249        108.5843
0.596                   1.001491        107.9652
0.6                    0.9994378        107.3941
0.604                  0.9974524        106.8743
0.608                  0.9958893           106.4
0.612                  0.9950305        105.9575
0.616                   0.995033        105.5272
0.62                   0.9958999        105.0874
0.624                  0.9974781        104.6185
0.628                  0.9994868        104.1063
0.632                   1.001568        103.5447
0.636                   1.003353        102.9366
0.64                    1.004523        102.2933
0.644                   1.004868        101.6324
0.648                   1.004325        100.9747
0.652                   1.002984        100.3409
0.656                   1.001078        99.74774
0.66                   0.9989403        99.20539
0.664                  0.9969514        98.71531
0.668                  0.9954684        98.26974
0.672                  0.9947606        97.85291
0.676                  0.9949599         97.4438
0.68                   0.9960345        97.02003
0.684                  0.9977946        96.56203
0.688                  0.9999265        96.05668
0.692                    1.00205        95.49966
0.696                   1.003787        94.89595
0.7                     1.004826        94.25896
0.704                   1.004981        93.60794
0.708                   1.004218        92.96487
0.712                   1.002666        92.35066
0.716                   1.000595        91.78155
0.72                   0.9983694        91.26631
0.724                  0.9963857        90.80431
0.728                  0.9950024        90.38549
0.732                  0.9944729        89.99185
0.736                   0.994898        89.60073
0.74                   0.9962061          89.189
0.744                  0.9981653        88.73744
0.748                   1.000426        88.23426
0.752                   1.002584        87.67715
0.756                   1.004255         87.0735
0.76                    1.005137        86.43902
0.764                    1.00507        85.79485
0.768                   1.004058        85.16408
0.772                   1.002274        84.56783
0.776                   1.000027         84.0216
0.78                   0.9977148        83.53239
0.784                  0.9957518        83.09725
0.788                   0.994494        82.70346
0.792                  0.9941743        82.33056
0.796                   0.994857        81.95417
0.8                     0.996424        81.55049
0.804                  0.9985971        81.10087
0.808                   1.000988        80.59515
0.812                   1.003168        80.03338
0.816                   1.004747        79.42568
0.82                    1.005438        78.79026
0.824                   1.005114         78.1503
0.828                    1.00382        77.53001
0.832                   1.001779        76.95059
0.836                  0.9993451        76.42652
0.84                   0.9969508        75.96278
0.844                  0.9950264        75.55368
0.848                  0.9939237        75.18345
0.852                  0.9938491        74.82902
0.856                  0.9948237        74.46421
0.86                   0.9966775         74.0647
0.864                  0.9990805        73.61258
0.868                   1.001603        73.09969
0.872                   1.003792         72.5288
0.876                   1.005254        71.91305
0.88                    1.005723        71.27343
0.884                   1.005106         70.6352
0.888                   1.003501        70.02374
0.892                   1.001183        69.46015
0.896                   0.998557        68.95762
0.9                    0.9960908        68.51872
0.904                    0.99423        68.13461
0.908                  0.9933177        67.78622
0.912                   0.993528        67.44757
0.916                  0.9948319        67.09065
0.92                   0.9970003        66.69075
0.924                  0.9996465         66.2311
0.928                   1.002296        65.70586
0.932                   1.004473        65.12096
0.936                   1.005785        64.49285
0.94                    1.005989        63.84556
0.944                   1.005036        63.20661
0.948                   1.003082        62.60244
0.952                   1.000461        62.05394
0.956                  0.9976344        61.57266
0.96                    0.995106        61.15833
0.964                  0.9933363         60.7985
0.968                  0.9926548        60.47035
0.972                  0.9931967        60.14478
0.976                  0.9948741        59.79192
0.98                   0.9973916        59.38682
0.984                     1.0003        58.91416
0.988                   1.003077        58.37086
0.992                   1.005223        57.76645
0.996                    1.00635         57.1211
1                       1.006243        56.46215
1.004                   1.004907        55.81951
1.008                   1.002561        55.22072
1.012                  0.9996086        54.68626
1.016                  0.9965681        54.22568
1.02                   0.9939858        53.83544
1.024                  0.9923347        53.49894
1.028                   0.991926        53.18914
1.032                  0.9928474        52.87354
1.036                  0.9949442        52.52031
1.04                   0.9978447        52.10452
1.044                   1.001031         51.6126
1.048                    1.00393         51.0448
1.052                   1.006018        50.41467
1.056                   1.006913         49.7466
1.06                    1.006439        49.07158
1.064                   1.004659        48.42211
1.068                   1.001866        47.82691
1.072                  0.9985421         47.3058
1.076                  0.9952727        46.86598
1.08                   0.9926478        46.49996
1.084                  0.9911525        46.18635
1.088                  0.9910745        45.89329
1.092                  0.9924449        45.58443
1.096                  0.9950295        45.22589
1.1                    0.9983703        44.79282
1.104                    1.00187        44.27396
1.108                   1.004898        43.67336
1.112                   1.006907        43.00927
1.116                   1.007524        42.31088
1.12                    1.006614        41.61337
1.124                   1.004312        40.95223
1.128                   1.000998        40.35741
1.132                   0.997243        39.84805
1.136                    0.99371        39.42846
1.14                   0.9910402        39.08664
1.144                  0.9897321        38.79549
1.148                  0.9900442        38.51747
1.152                  0.9919409        38.21175
1.156                  0.9950949        37.84213
1.16                   0.9989463        37.38404
1.164                   1.002806        36.82883
1.168                   1.005978         36.1851
1.172                   1.007884        35.47656
1.176                   1.008164          34.738
1.18                    1.006733        34.00958
1.184                   1.003808        33.33027
1.188                  0.9998739        32.73162
1.192                  0.9956066        32.23195
1.196                   0.991764        31.83228
1.2                     0.989049        31.51497
1.204                  0.9879768        31.24605
1.208                  0.9887716        30.98107
1.212                  0.9913165        30.67369
1.216                  0.9951713        30.28483
1.22                   0.9996518        29.79019
1.224                   1.003956        29.18443
1.228                   1.007306        28.48147
1.232                   1.009086        27.71173
1.236                   1.008945        26.91686
1.24                    1.006858        26.14311
1.244                   1.003142        25.43411
1.248                  0.9984064        24.82371
1.252                  0.9934654        24.32956
1.256                  0.9891972        23.94882
1.26                   0.9863889        23.65698
1.264                  0.9855837        23.41123
1.268                  0.9869684        23.15805
1.272                  0.9903276        22.84384
1.276                  0.9950791        22.42552
1.28                     1.00038        21.87876
1.284                   1.005281        21.20194
1.288                   1.008894        20.41561
1.292                   1.010544        19.55849
1.296                   1.009882        18.68099
1.3                     1.006954        17.83759
1.304                   1.002195        17.07846
1.308                  0.9963807        16.44121
1.312                  0.9905044        15.94349
1.316                  0.9856146        15.57792
1.32                   0.9826234        15.31115
1.324                  0.9821261        15.08836
1.328                   0.984272        14.84336
1.332                  0.9887217        14.51185
1.336                  0.9947037        14.04446
1.34                    1.001157        13.41604
1.344                    1.00692        12.62934
1.348                   1.010939        11.71338
1.352                   1.012439        10.71795
1.356                   1.011057        9.705713
1.36                    1.006908        8.743193
1.364                   1.000588        7.891009
1.368                  0.9930969          7.1939
1.372                   0.985699        6.671445
1.376                  0.9797107        6.311346
1.38                   0.9762619        6.067961
1.384                  0.9760629        5.868311
1.388                  0.9792418        5.625639
1.392                  0.9852978        5.257374
1.396                   0.993184         4.70218
1.4                     1.001501        3.931252
1.404                   1.008746         2.95188
1.408                    1.01357        1.804247
1.412                   1.014998       0.5539097
1.416                   1.012581      -0.7178514
1.42                    1.006493       -1.924717
1.424                   0.997528       -2.986967
1.428                  0.9870282       -3.844209
1.432                  0.9767014       -4.468523
1.436                  0.9683573       -4.875498
1.44                   0.9635726       -5.128704
1.444                  0.9633564        -5.33289
1.448                  0.9678994       -5.614639
1.452                  0.9764918       -6.095167
1.456                  0.9876378       -6.864528
1.46                   0.9993296       -7.965491
1.464                     1.0094       -9.389795
1.468                   1.015874       -11.08399
1.472                   1.017265       -12.96005
1.476                   1.012794       -14.90709
1.48                    1.002534       -16.80319
1.484                  0.9874649        -18.5283
1.488                  0.9694359       -19.98063
1.492                  0.9509973       -21.09813
1.496                  0.9350734       -21.88376
1.5                    0.9244614       -22.42675
1.504                  0.9212173       -22.90618
1.508                  0.9260897       -23.56526
1.512                  0.9382148       -24.65975
1.516                  0.9551975         -26.403
1.52                   0.9735292        -28.9324
1.524                  0.9891563       -32.30656
1.528                  0.9980159       -36.52428
1.532                  0.9964453       -41.55101
1.536                  0.9814523       -47.34327
1.54                   0.9508775       -53.86864
1.544                   0.903487       -61.12364
1.548                  0.8390292       -69.15515
1.552                  0.7582937       -78.09534
