! TOUCHSTONE file generated by CST MICROWAVE STUDIO
! Date and time: Thu Jun  9 09:30:39 2022
! Project name: AppElm_antenne_patch_Alumina.cst
! Parameters = {L=30.5; W=41.8; e=0.035; h=1.6; lambda=0.190476; ls=90; w0=1.12; w1=0.37295; ws=90; y0=14; y1=10}
! Header version: 2018
! Port assignment regex: !\s*Touchstone port\s*([0-9]+)\s*=\s*(CST MWS port|CST DS port)\s*([0-9]+|Zmin|Zmax)\s*\(\"(.*)\"\)(\s*mode\s*([0-9]+))?.*
! Touchstone port assignment:
! Touchstone port 1 = CST MWS port 1 ("")
# GHz S MA R 50
0                      0.9792023              -0
0.004                   0.980336       -10.36396
0.008                  0.9835883       -20.61815
0.012                  0.9885352        -30.6597
0.016                  0.9945428       -40.39805
0.02                     1.00086       -49.75803
0.024                   1.006719       -58.68054
0.028                   1.011439        -67.1214
0.032                     1.0145       -75.04931
0.036                   1.015605       -82.44389
0.04                    1.014704       -89.29419
0.044                   1.011996       -95.59833
0.048                   1.007899       -101.3639
0.052                   1.002998        -106.609
0.056                  0.9979685       -111.3636
0.06                    0.993485       -115.6697
0.064                  0.9901308       -119.5805
0.068                   0.988315       -123.1577
0.072                   0.988215       -126.4667
0.076                  0.9897558       -129.5705
0.08                   0.9926298       -132.5244
0.084                  0.9963517        -135.371
0.088                   1.000338        -138.138
0.092                   1.003999       -140.8374
0.096                   1.006818       -143.4679
0.1                     1.008427       -146.0175
0.104                   1.008647       -148.4679
0.108                   1.007506       -150.7986
0.112                   1.005231       -152.9914
0.116                   1.002207       -155.0337
0.12                   0.9989235       -156.9222
0.124                  0.9958942       -158.6638
0.128                  0.9935839       -160.2762
0.132                  0.9923332       -161.7863
0.136                  0.9923071       -163.2261
0.14                   0.9934712       -164.6287
0.144                  0.9956032        -166.023
0.148                   0.998333       -167.4301
0.152                   1.001208       -168.8606
0.156                   1.003768        -170.314
0.16                    1.005615       -171.7798
0.164                   1.006477       -173.2401
0.168                   1.006242       -174.6728
0.172                   1.004973       -176.0553
0.176                   1.002898       -177.3684
0.18                    1.000367       -178.5992
0.184                   0.997801       -179.7439
0.188                  0.9956216        179.1919
0.192                   0.994182        178.1931
0.196                  0.9937087        177.2377
0.2                    0.9942642        176.3002
0.204                  0.9957382        175.3561
0.208                  0.9978693        174.3857
0.212                   1.000291        173.3775
0.216                   1.002598        172.3292
0.22                    1.004409         171.248
0.224                   1.005433        170.1489
0.228                   1.005514        169.0518
0.232                   1.004649        167.9784
0.236                   1.002993        166.9484
0.24                    1.000832        165.9767
0.244                  0.9985314        165.0705
0.248                  0.9964819        164.2279
0.252                  0.9950285        163.4383
0.256                   0.994414        162.6837
0.26                   0.9947362        161.9419
0.264                  0.9959311        161.1903
0.268                  0.9977865        160.4101
0.272                  0.9999791        159.5891
0.276                   1.002133        158.7239
0.28                    1.003883        157.8201
0.284                   1.004937        156.8907
0.288                   1.005123        155.9546
0.292                   1.004415        155.0323
0.296                   1.002939        154.1435
0.3                     1.000949        153.3034
0.304                  0.9987877        152.5201
0.308                  0.9968271        151.7933
0.312                   0.995405        151.1139
0.316                   0.994766        150.4655
0.32                   0.9950183        149.8272
0.324                   0.996114        149.1776
0.328                  0.9978588        148.4981
0.332                  0.9999466        147.7767
0.336                   1.002015        147.0097
0.34                    1.003709        146.2022
0.344                   1.004738        145.3666
0.348                    1.00493        144.5212
0.352                   1.004253        143.6863
0.356                   1.002827        142.8813
0.36                    1.000898        142.1212
0.364                  0.9988001        141.4144
0.368                  0.9968984        140.7605
0.372                  0.9955252        140.1509
0.376                   0.994921        139.5695
0.38                   0.9951912        138.9958
0.384                  0.9962869        138.4088
0.388                  0.9980139        137.7903
0.392                   1.000068        137.1287
0.396                    1.00209        136.4205
0.4                     1.003728        135.6712
0.404                   1.004698        134.8936
0.408                   1.004834        134.1057
0.412                   1.004112        133.3281
0.416                   1.002657        132.5798
0.42                    1.000722        131.8757
0.424                  0.9986428        131.2237
0.428                  0.9967846        130.6229
0.432                  0.9954749        130.0642
0.436                  0.9949462         129.531
0.44                   0.9952927        129.0028
0.444                  0.9964533        128.4585
0.448                  0.9982223        127.8804
0.452                   1.000287        127.2575
0.456                   1.002284        126.5872
0.46                    1.003863        125.8757
0.464                   1.004748        125.1366
0.468                   1.004785        124.3886
0.472                   1.003966        123.6522
0.476                   1.002431        122.9467
0.48                    1.000448        122.2863
0.484                   0.998364        121.6779
0.488                  0.9965462          121.12
0.492                  0.9953184        120.6022
0.496                  0.9949005         120.107
0.5                    0.9953692        119.6133
0.504                  0.9966425        119.1001
0.508                  0.9984947        118.5501
0.512                   1.000597        117.9532
0.516                   1.002579        117.3079
0.52                    1.004091        116.6218
0.524                   1.004867        115.9096
0.528                   1.004768        115.1908
0.532                   1.003811        114.4865
0.536                   1.002159        113.8156
0.54                    1.000101        113.1919
0.544                  0.9979985        112.6211
0.548                  0.9962246        112.1001
0.552                  0.9950974        111.6172
0.556                   0.994821        111.1536
0.56                   0.9954478        110.6874
0.564                  0.9968681        110.1975
0.568                  0.9988295        109.6672
0.572                   1.000984        109.0875
0.576                   1.002948        108.4586
0.58                    1.004376        107.7897
0.584                   1.005012        107.0968
0.588                   1.004743        106.4007
0.592                   1.003612        105.7229
0.596                   1.001813         105.082
0.6                    0.9996606         104.491
0.604                   0.997535        103.9543
0.608                   0.995815        103.4668
0.612                  0.9948113         103.015
0.616                  0.9947073        102.5786
0.62                   0.9955255        102.1349
0.624                  0.9971219        101.6624
0.628                  0.9992125        101.1455
0.632                   1.001425        100.5766
0.636                   1.003365        99.95775
0.64                    1.004689        99.29996
0.644                   1.005158        98.62125
0.648                   1.004687        97.94342
0.652                   1.003353        97.28849
0.656                   1.001386        96.67489
0.66                    0.999131        96.11432
0.664                  0.9969881        95.60941
0.668                  0.9953416        95.15308
0.672                   0.994491        94.72943
0.676                  0.9945942        94.31664
0.68                   0.9956374        93.89088
0.684                  0.9974365        93.43085
0.688                  0.9996711        92.92181
0.692                   1.001943          92.358
0.696                   1.003846        91.74373
0.7                     1.005041        91.09228
0.704                   1.005314        90.42355
0.708                   1.004609        89.76066
0.712                   1.003045        89.12611
0.716                   1.000892        88.53781
0.72                   0.9985306        88.00608
0.724                  0.9963803        87.53144
0.728                  0.9948297        87.10424
0.732                   0.994163        86.70617
0.736                  0.9945065        86.31349
0.74                   0.9958038        85.90147
0.744                  0.9978254        85.44904
0.748                    1.00021        84.94267
0.752                   1.002533        84.37886
0.756                   1.004377        83.76441
0.76                    1.005412        83.11516
0.764                   1.005449        82.45312
0.768                   1.004474        81.80277
0.772                   1.002652        81.18692
0.776                   1.000298        80.62285
0.78                   0.9978279         80.1191
0.784                  0.9956841        79.67369
0.788                  0.9942553        79.27411
0.792                   0.993806        78.89932
0.796                  0.9944244        78.52359
0.8                    0.9960047        78.12131
0.804                  0.9982664        77.67181
0.808                   1.000805        77.16331
0.812                   1.003165        76.59473
0.816                   1.004924        75.97584
0.82                    1.005764        75.32525
0.824                   1.005529        74.66723
0.828                    1.00425        74.02763
0.832                   1.002144         73.4295
0.836                  0.9995787        72.88911
0.84                   0.9970075        72.41294
0.844                  0.9948934        71.99604
0.848                  0.9936227        71.62266
0.852                  0.9934335        71.26878
0.856                  0.9943687        70.90658
0.86                   0.9962662        70.50969
0.864                  0.9987879        70.05823
0.868                   1.001483        69.54237
0.872                   1.003867        68.96405
0.876                   1.005513        68.33624
0.88                     1.00612        67.68067
0.884                   1.005571          67.024
0.888                   1.003952        66.39341
0.892                   1.001539        65.81204
0.896                  0.9987535        65.29486
0.9                    0.9960908         64.8458
0.904                  0.9940331        64.45656
0.908                  0.9929597        64.10773
0.912                  0.9930757        63.77201
0.916                    0.99437        63.41946
0.92                   0.9966165        63.02312
0.924                   0.999414         62.5642
0.928                   1.002261        62.03537
0.932                   1.004646        61.44192
0.936                   1.006139        60.80053
0.94                    1.006465        60.13627
0.944                   1.005553        59.47836
0.948                   1.003549        58.85529
0.952                   1.000797        58.29004
0.956                  0.9977787        57.79598
0.96                   0.9950328        57.37401
0.964                  0.9930598        57.01193
0.968                  0.9922266        56.68615
0.972                  0.9926971         56.3659
0.976                  0.9943972        56.01902
0.98                   0.9970275        55.61818
0.984                   1.000117        55.14608
0.988                   1.003112        54.59835
0.992                   1.005473        53.98417
0.996                    1.00677        53.32436
1                       1.006761        52.64764
1.004                    1.00543        51.98594
1.008                   1.002994        51.36906
1.012                  0.9998706        50.81966
1.016                  0.9966098        50.34899
1.02                   0.9937965        49.95442
1.024                  0.9919469         49.6192
1.028                  0.9914102        49.31504
1.032                  0.9922996        49.00729
1.036                   0.994467        48.66154
1.04                   0.9975293        48.25034
1.044                   1.000938        47.75828
1.048                   1.004082        47.18456
1.052                   1.006394        46.54287
1.056                   1.007449        45.85862
1.06                    1.007045        45.16466
1.064                    1.00523        44.49582
1.068                   1.002304        43.88326
1.072                  0.9987702        43.34903
1.076                  0.9952523        42.90189
1.08                   0.9923862        42.53491
1.084                  0.9907028        42.22606
1.088                  0.9905267        41.94168
1.092                  0.9919095        41.64277
1.096                  0.9946157        41.29261
1.1                     0.998166        40.86382
1.104                   1.001925        40.34344
1.108                   1.005216        39.73491
1.112                   1.007443        39.05712
1.116                   1.008194        38.34078
1.12                    1.007312        37.62336
1.124                   1.004922        36.94301
1.128                    1.00142        36.33233
1.132                  0.9974095        35.81258
1.136                     0.9936        35.38944
1.14                   0.9906839        35.05093
1.144                   0.989208        34.76868
1.148                  0.9894643        34.50272
1.152                    0.99143         34.2091
1.156                   0.994766        33.84844
1.16                   0.9988793        33.39374
1.164                   1.003032        32.83506
1.168                   1.006476        32.18083
1.172                   1.008583        31.45615
1.176                   1.008953        30.69786
1.18                    1.007486        29.94895
1.184                   1.004401        29.25137
1.188                   1.000208        28.63947
1.192                  0.9956292        28.13367
1.196                  0.9914777        27.73583
1.2                    0.9885149        27.42779
1.204                  0.9873049        27.17349
1.208                  0.9881007        26.92522
1.212                  0.9907875        26.63295
1.216                  0.9948998        26.25423
1.22                   0.9997065        25.76248
1.224                   1.004346        25.15153
1.228                    1.00798        24.43595
1.232                    1.00994        23.64812
1.236                   1.009843         22.8326
1.24                    1.007656        22.03891
1.244                   1.003709        21.31409
1.248                  0.9986548        20.69481
1.252                  0.9933632        20.20052
1.256                   0.988781         19.8287
1.26                   0.9857589        19.55334
1.264                  0.9848867        19.32851
1.268                  0.9863705        19.09655
1.272                  0.9899811        18.79952
1.276                  0.9950922        18.39093
1.28                    1.000796        17.84464
1.284                   1.006071          17.159
1.288                    1.00996        16.35628
1.292                   1.011739        15.47815
1.296                   1.011034        14.57878
1.3                     1.007894        13.71665
1.304                   1.002789        12.94566
1.308                  0.9965531        12.30633
1.312                   0.990259        11.81769
1.316                  0.9850363         11.4718
1.32                   0.9818674        11.23251
1.324                  0.9813905        11.04043
1.328                  0.9837593        10.82388
1.332                  0.9885977        10.51358
1.336                  0.9950645        10.05677
1.34                    1.002009        9.427213
1.344                   1.008183        8.628868
1.348                   1.012455        7.693851
1.352                   1.014003        6.676242
1.356                   1.012451        5.643602
1.36                    1.007939        4.667314
1.364                   1.001121        3.812221
1.368                  0.9930868        3.125943
1.372                  0.9852021        2.628826
1.376                  0.9788858        2.306623
1.38                   0.9753443        2.108921
1.384                  0.9753222        1.955913
1.388                  0.9789262         1.75356
1.392                  0.9855817        1.413464
1.396                  0.9941316       0.8713449
1.4                     1.003053      0.09881996
1.404                   1.010731      -0.8934793
1.408                   1.015735       -2.060021
1.412                   1.017047        -3.32884
1.416                   1.014233       -4.611976
1.42                    1.007522       -5.816835
1.424                  0.9978157       -6.858566
1.428                  0.9865918       -7.673765
1.432                  0.9757126       -8.234789
1.436                  0.9671274       -8.561771
1.44                   0.9625071       -8.727115
1.444                  0.9628777       -8.847121
1.448                  0.9683584       -9.059538
1.452                  0.9780908       -9.493058
1.456                  0.9903858       -10.23956
1.46                    1.003041       -11.33808
1.464                   1.013727       -12.77268
1.468                   1.020366        -14.4801
1.472                   1.021438       -16.36184
1.476                   1.016207       -18.29665
1.48                    1.004861       -20.15283
1.484                  0.9885682        -21.8019
1.488                  0.9694206       -23.13642
1.492                  0.9502459       -24.09408
1.496                  0.9342312       -24.68586
1.5                    0.9243532       -25.01883
1.504                  0.9226927       -25.29687
1.508                  0.9298306       -25.78699
1.512                   0.944567        -26.7586
1.516                  0.9640856       -28.42385
1.52                   0.9844642       -30.90665
1.524                   1.001308       -34.24573
1.528                   1.010309       -38.41892
1.532                   1.007651       -43.37184
1.536                  0.9902614       -49.04216
1.54                   0.9559495       -55.37765
1.544                  0.9034764       -62.35114
1.548                  0.8325796       -69.97808
1.552                  0.7439862       -78.34676
