! TOUCHSTONE file generated by CST MICROWAVE STUDIO
! Date and time: Thu Jun  9 09:30:37 2022
! Project name: AppElm_antenne_patch_Alumina.cst
! Parameters = {L=30.5; W=41.8; e=0.035; h=1.6; lambda=0.190476; ls=90; w0=1.12; w1=0.33565; ws=90; y0=14; y1=10}
! Header version: 2018
! Port assignment regex: !\s*Touchstone port\s*([0-9]+)\s*=\s*(CST MWS port|CST DS port)\s*([0-9]+|Zmin|Zmax)\s*\(\"(.*)\"\)(\s*mode\s*([0-9]+))?.*
! Touchstone port assignment:
! Touchstone port 1 = CST MWS port 1 ("")
# GHz S MA R 50
0                      0.9791217              -0
0.004                  0.9802582       -10.36482
0.008                  0.9835177       -20.61946
0.012                  0.9884746       -30.66067
0.016                  0.9944926       -40.39757
0.02                    1.000817       -49.75481
0.024                    1.00668       -58.67314
0.028                   1.011397       -67.10834
0.032                    1.01445       -75.02909
0.036                   1.015542       -82.41508
0.04                    1.014626       -89.25545
0.044                   1.011904       -95.54845
0.048                   1.007799       -101.3019
0.052                   1.002897       -106.5342
0.056                  0.9978758       -111.2755
0.06                   0.9934107       -115.5683
0.064                  0.9900832        -119.466
0.068                  0.9882992       -123.0307
0.072                   0.988231       -126.3277
0.076                  0.9897992       -129.4202
0.08                   0.9926916       -132.3634
0.084                  0.9964193       -135.1996
0.088                   1.000398       -137.9562
0.092                   1.004038       -140.6449
0.096                   1.006828       -143.2641
0.1                     1.008402       -145.8018
0.104                   1.008588       -148.2395
0.108                    1.00742       -150.5569
0.112                   1.005129       -152.7359
0.116                   1.002103       -154.7642
0.12                   0.9988317       -156.6388
0.124                  0.9958286       -158.3669
0.128                  0.9935538       -159.9668
0.132                  0.9923421       -161.4652
0.136                   0.992352       -162.8943
0.14                   0.9935434        -164.287
0.144                  0.9956885        -165.672
0.148                  0.9984157       -167.0699
0.152                   1.001273       -168.4911
0.156                   1.003802       -169.9346
0.16                    1.005611       -171.3897
0.164                   1.006434       -172.8385
0.168                   1.006167       -174.2588
0.172                   1.004877       -175.6283
0.176                   1.002795       -176.9281
0.18                    1.000275       -178.1458
0.184                  0.9977349       -179.2777
0.188                  0.9955923          179.67
0.192                  0.9941943        178.6822
0.196                  0.9937603        177.7366
0.2                    0.9943459        176.8081
0.204                  0.9958355        175.8724
0.208                  0.9979648        174.9102
0.212                   1.000368        173.9104
0.216                   1.002642         172.871
0.22                    1.004412        171.7997
0.224                   1.005395        170.7113
0.228                   1.005438        169.6258
0.232                   1.004549        168.5647
0.236                   1.002886        167.5474
0.24                    1.000735        166.5884
0.244                   0.998461        165.6943
0.248                  0.9964499        164.8631
0.252                  0.9950406        164.0838
0.256                  0.9944679        163.3383
0.26                   0.9948222        162.6048
0.264                  0.9960343        161.8608
0.268                  0.9978885        161.0879
0.272                   1.000062        160.2744
0.276                   1.002183        159.4174
0.28                    1.003891        158.5226
0.284                   1.004901        157.6033
0.288                    1.00505        156.6781
0.292                   1.004317        155.7675
0.296                   1.002833        154.8907
0.3                     1.000854        154.0626
0.304                  0.9987205        153.2908
0.308                  0.9967995        152.5746
0.312                  0.9954221        151.9046
0.316                   0.994825        151.2646
0.32                   0.9951086        150.6337
0.324                  0.9962195        149.9908
0.328                  0.9979602        149.3179
0.332                   1.000026        148.6033
0.336                   1.002058        147.8439
0.34                    1.003706        147.0447
0.344                    1.00469        146.2188
0.348                   1.004843        145.3838
0.352                   1.004143        144.5601
0.356                   1.002711        143.7666
0.36                    1.000795        143.0179
0.364                   0.998728        142.3218
0.368                  0.9968692        141.6778
0.372                  0.9955433        141.0769
0.376                  0.9949828         140.503
0.38                   0.9952846        139.9359
0.384                  0.9963946        139.3547
0.388                  0.9981162         138.742
0.392                   1.000146        138.0865
0.396                   1.002129        137.3852
0.4                      1.00372        136.6438
0.404                   1.004644        135.8751
0.408                   1.004743        135.0972
0.412                   1.003999        134.3301
0.416                   1.002541        133.5928
0.42                    1.000624        132.8994
0.424                  0.9985794        132.2574
0.428                  0.9967676        131.6656
0.432                  0.9955075        131.1146
0.436                  0.9950229         130.588
0.44                   0.9954001        130.0654
0.444                  0.9965725        129.5261
0.448                  0.9983324        128.9529
0.452                   1.000369        128.3354
0.456                   1.002323        127.6714
0.46                    1.003854        126.9672
0.464                   1.004693        126.2365
0.468                   1.004693        125.4979
0.472                   1.003855        124.7716
0.476                   1.002321        124.0763
0.48                     1.00036        123.4258
0.484                  0.9983146        122.8266
0.488                  0.9965455        122.2767
0.492                  0.9953678        121.7656
0.496                  0.9949924         121.276
0.5                    0.9954883        120.7869
0.504                  0.9967681        120.2778
0.508                  0.9986047         119.732
0.512                   1.000673        119.1398
0.516                   1.002607        118.5003
0.52                    1.004066        117.8211
0.524                   1.004794        117.1169
0.528                    1.00466        116.4072
0.532                   1.003686        115.7125
0.536                   1.002039        115.0514
0.54                    1.000007        114.4369
0.544                  0.9979479        113.8746
0.548                   0.996226        113.3608
0.552                  0.9951501        112.8837
0.556                  0.9949153        112.4247
0.56                   0.9955663        111.9624
0.564                  0.9969888        111.4758
0.568                  0.9989301         110.949
0.572                   1.001045        110.3736
0.576                   1.002959        109.7501
0.58                    1.004333        109.0877
0.584                   1.004923        108.4026
0.588                   1.004623        107.7152
0.592                   1.003481        107.0465
0.596                   1.001694        106.4148
0.6                    0.9995751        105.8324
0.604                  0.9974981        105.3032
0.608                  0.9958339         104.822
0.612                  0.9948825        104.3749
0.616                  0.9948181        103.9422
0.62                   0.9956559        103.5012
0.624                  0.9972484        103.0314
0.628                  0.9993121        102.5174
0.632                    1.00148        101.9523
0.636                   1.003365        101.3385
0.64                    1.004634        100.6871
0.644                   1.005059        100.0158
0.648                   1.004561         99.3464
0.652                   1.003222        98.70021
0.656                   1.001275        98.09516
0.66                   0.9990608        97.54239
0.664                  0.9969719         97.0441
0.668                  0.9953838        96.59293
0.672                  0.9945851        96.17303
0.676                   0.994724        95.76281
0.68                   0.9957803        95.33897
0.684                  0.9975673        94.88085
0.688                  0.9997668        94.37421
0.692                   1.001986         93.8139
0.696                    1.00383        93.20444
0.7                      1.00497        92.55918
0.704                   1.005198        91.89783
0.708                   1.004471        91.24309
0.712                   1.002909        90.61689
0.716                   1.000783        90.03661
0.72                   0.9984675        89.51196
0.724                  0.9963752        89.04305
0.728                  0.9948836        88.62007
0.732                   0.994266        88.22483
0.736                  0.9946393        87.83389
0.74                   0.9959418        87.42315
0.744                  0.9979426        86.97214
0.748                   1.000285        86.46799
0.752                    1.00255        85.90761
0.756                   1.004332        85.29806
0.76                    1.005314        84.65507
0.764                   1.005314        84.00042
0.768                   1.004325        83.35807
0.772                   1.002516        82.75024
0.776                   1.000199        82.19358
0.78                   0.9977857        81.69607
0.784                  0.9957063        81.25538
0.788                  0.9943391         80.8589
0.792                  0.9939368        80.48582
0.796                   0.994579        80.11086
0.8                    0.9961558        79.70905
0.804                  0.9983868         79.2605
0.808                   1.000873        78.75389
0.812                    1.00317        78.18867
0.816                   1.004865        77.57466
0.82                    1.005652        76.93037
0.824                   1.005384        76.27968
0.828                     1.0041        75.64786
0.832                   1.002016        75.05731
0.836                  0.9994966        74.52366
0.84                   0.9969874        74.05284
0.844                    0.99494        73.63965
0.848                  0.9937284        73.26834
0.852                  0.9935795         72.9152
0.856                  0.9945282        72.55302
0.86                   0.9964098        72.15613
0.864                  0.9988893        71.70538
0.868                   1.001523        71.19151
0.872                   1.003838        70.61673
0.876                   1.005419        69.99412
0.88                    1.005977        69.34509
0.884                   1.005405        68.69584
0.888                   1.003791        68.07288
0.892                   1.001412        67.49864
0.896                  0.9986829        66.98747
0.9                    0.9960893        66.54283
0.904                  0.9941002        66.15622
0.908                  0.9930824        65.80835
0.912                  0.9932299        65.47243
0.916                  0.9945254        65.11921
0.92                   0.9967421        64.72253
0.924                  0.9994843        64.26429
0.928                    1.00226        63.73771
0.932                   1.004572        63.14828
0.936                   1.006001        62.51257
0.94                    1.006285        61.85527
0.944                    1.00536        61.20498
0.948                   1.003376        60.58945
0.952                   1.000673        60.03095
0.956                  0.9977242        59.54218
0.96                   0.9950566        59.12364
0.964                  0.9931559        58.76307
0.968                  0.9923761        58.43719
0.972                  0.9928709        58.11582
0.976                  0.9945619        57.76764
0.98                   0.9971515        57.36615
0.984                   1.000177        56.89473
0.988                   1.003096        56.34947
0.992                   1.005384        55.73963
0.996                   1.006624        55.08576
1                       1.006585        54.41609
1.004                   1.005256        53.76178
1.008                   1.002856        53.15186
1.012                  0.9997962         52.6082
1.016                  0.9966146        52.14151
1.02                   0.9938822        51.74884
1.024                  0.9920998        51.41355
1.028                  0.9916036        51.10785
1.032                  0.9924983         50.7979
1.036                  0.9946343        50.45022
1.04                   0.9976338        50.03822
1.044                    1.00096        49.54715
1.048                   1.004015        48.97652
1.052                   1.006248        48.33989
1.056                   1.007249        47.66229
1.06                    1.006825        46.97584
1.064                   1.005026        46.31453
1.068                   1.002152        45.70864
1.072                  0.9986953        45.17946
1.076                  0.9952659        44.73522
1.08                   0.9924829        44.36889
1.084                  0.9908615        44.05869
1.088                  0.9907131        43.77172
1.092                  0.9920832        43.46992
1.096                  0.9947387        43.11761
1.1                    0.9982087        42.68828
1.104                   1.001872        42.16951
1.108                    1.00507        41.56489
1.112                   1.007224        40.89299
1.116                   1.007933        40.18393
1.12                    1.007049        39.47429
1.124                   1.004698        38.80126
1.128                   1.001269        38.19651
1.132                  0.9973522        37.68061
1.136                  0.9936403        37.25881
1.14                    0.990807        36.91921
1.144                  0.9893822        36.63406
1.148                  0.9896477        36.36432
1.152                  0.9915777        36.06713
1.156                  0.9948398        35.70434
1.16                   0.9988546        35.24966
1.164                   1.002903        34.69355
1.168                   1.006255        34.04438
1.172                   1.008301        33.32656
1.176                   1.008654        32.57622
1.18                    1.007216        31.83515
1.184                   1.004205        31.14426
1.188                   1.000118        30.53694
1.192                  0.9956581        30.03293
1.196                   0.991619        29.63394
1.2                    0.9887402        29.32213
1.204                  0.9875694        29.06228
1.208                  0.9883513        28.80803
1.212                  0.9909731        28.51076
1.216                  0.9949811        28.12911
1.22                   0.9996636        27.63734
1.224                   1.004182        27.02934
1.228                    1.00772        26.31928
1.232                   1.009627        25.53869
1.236                   1.009528        24.73095
1.24                    1.007392        23.94439
1.244                    1.00354        23.22479
1.248                  0.9986062        22.60789
1.252                  0.9934384        22.11265
1.256                  0.9889578        21.73663
1.26                   0.9859925        21.45462
1.264                  0.9851184        21.22198
1.268                   0.986538        20.98273
1.272                  0.9900318        20.68047
1.276                   0.994994        20.26985
1.28                    1.000543        19.72514
1.284                   1.005685        19.04447
1.288                   1.009488        18.24922
1.292                   1.011243        17.37974
1.296                   1.010581        16.48871
1.3                     1.007545        15.63308
1.304                   1.002589        14.86542
1.308                  0.9965198        14.22534
1.312                  0.9903783        13.73161
1.316                  0.9852638        13.37681
1.32                   0.9821345        13.12615
1.324                  0.9816169        12.92221
1.328                  0.9838687        12.69547
1.332                  0.9885341        12.37844
1.336                  0.9948029        11.91941
1.34                    1.001562         11.2922
1.344                   1.007595        10.49997
1.348                   1.011798        9.573324
1.352                   1.013364        8.564502
1.356                   1.011914        7.539089
1.36                    1.007574        6.566618
1.364                   1.000968        5.710464
1.368                   0.993148        5.017415
1.372                   0.985439        4.507911
1.376                  0.9792214        4.168896
1.38                   0.9756769        3.952209
1.384                  0.9755442        3.780936
1.388                  0.9789477        3.563864
1.392                  0.9853492        3.214592
1.396                   0.993641        2.669512
1.4                      1.00235        1.899515
1.404                   1.009903       0.9134023
1.408                   1.014897      -0.2458073
1.412                   1.016321       -1.508932
1.416                   1.013726       -2.790741
1.42                    1.007309       -4.001048
1.424                   0.997919       -5.056765
1.428                  0.9869736       -5.895201
1.432                  0.9762704       -6.487911
1.436                  0.9677055       -6.852387
1.44                   0.9629206       -7.056709
1.444                  0.9629487       -7.212043
1.448                  0.9679532       -7.451637
1.452                  0.9771499       -7.901679
1.456                  0.9889378       -8.654174
1.46                    1.001196       -9.750636
1.464                   1.011658       -11.17906
1.468                   1.018279       -12.88075
1.472                    1.01954       -14.76181
1.476                   1.014673       -16.70528
1.48                    1.003806       -18.58332
1.484                  0.9880166       -20.27047
1.488                  0.9692876       -21.66085
1.492                  0.9503296       -22.69113
1.496                  0.9342275       -23.36759
1.5                     0.923901       -23.78859
1.504                  0.9214469       -24.14707
1.508                  0.9275464       -24.70066
1.512                  0.9411653       -25.71474
1.516                  0.9596777       -27.40416
1.52                   0.9793358       -29.90041
1.524                  0.9958797       -33.25186
1.528                    1.00509       -37.44591
1.532                   1.003198       -42.43697
1.536                  0.9871496       -48.17114
1.54                   0.9547515       -54.60538
1.544                  0.9047539       -61.72407
1.548                  0.8368898        -69.5587
1.552                  0.7519089       -78.22125
