! TOUCHSTONE file generated by CST MICROWAVE STUDIO
! Date and time: Thu Jun  9 09:30:42 2022
! Project name: AppElm_antenne_patch_Alumina.cst
! Parameters = {L=30.5; W=41.8; e=0.035; h=1.6; lambda=0.190476; ls=90; w0=1.12; w1=0.4289; ws=90; y0=14; y1=10}
! Header version: 2018
! Port assignment regex: !\s*Touchstone port\s*([0-9]+)\s*=\s*(CST MWS port|CST DS port)\s*([0-9]+|Zmin|Zmax)\s*\(\"(.*)\"\)(\s*mode\s*([0-9]+))?.*
! Touchstone port assignment:
! Touchstone port 1 = CST MWS port 1 ("")
# GHz S MA R 50
0                      0.9792463              -0
0.004                  0.9803752       -10.36401
0.008                  0.9836139        -20.6187
0.012                   0.988541       -30.66159
0.016                   0.994526       -40.40242
0.02                    1.000821       -49.76627
0.024                   1.006664       -58.69412
0.028                   1.011374       -67.14188
0.032                   1.014435       -75.07821
0.036                   1.015549       -82.48271
0.04                    1.014663       -89.34438
0.044                   1.011975       -95.66121
0.048                   1.007899       -101.4407
0.052                   1.003016       -106.7007
0.056                  0.9979989        -111.471
0.06                   0.9935193       -115.7933
0.064                  0.9901602       -119.7206
0.068                   0.988331       -123.3141
0.072                  0.9882117       -126.6389
0.076                  0.9897311       -129.7582
0.08                   0.9925856        -132.727
0.084                  0.9962933       -135.5881
0.088                   1.000274       -138.3692
0.092                   1.003937       -141.0827
0.096                   1.006769       -143.7273
0.1                     1.008397       -146.2913
0.104                   1.008639       -148.7566
0.108                   1.007522       -151.1026
0.112                   1.005266       -153.3111
0.116                   1.002255       -155.3695
0.12                    0.998974       -157.2741
0.124                  0.9959381       -159.0316
0.128                  0.9936124       -160.6598
0.132                    0.99234        -162.185
0.136                  0.9922902       -163.6392
0.14                    0.993433       -165.0556
0.144                  0.9955494       -166.4632
0.148                   0.998273       -167.8832
0.152                   1.001152       -169.3265
0.156                   1.003725       -170.7929
0.16                    1.005593        -172.272
0.164                    1.00648        -173.746
0.168                    1.00627       -175.1929
0.172                   1.005022       -176.5902
0.176                   1.002959       -177.9183
0.18                     1.00043       -179.1644
0.184                  0.9978559        179.6759
0.188                  0.9956584         178.597
0.192                  0.9941943        177.5841
0.196                  0.9936943        176.6152
0.2                    0.9942255         175.665
0.204                  0.9956822        174.7087
0.208                  0.9978056        173.7266
0.212                   1.000231        172.7067
0.216                   1.002552        171.6465
0.22                    1.004386        170.5532
0.224                   1.005437        169.4413
0.228                   1.005544        168.3309
0.232                     1.0047        167.2435
0.236                   1.003058        166.1993
0.24                    1.000899        165.2133
0.244                  0.9985899        164.2928
0.248                   0.996521        163.4364
0.252                  0.9950416        162.6336
0.256                  0.9943989        161.8665
0.26                   0.9946958        161.1129
0.264                  0.9958728        160.3501
0.268                  0.9977207        159.5591
0.272                   0.999918        158.7274
0.276                   1.002088        157.8513
0.28                    1.003862        156.9361
0.284                   1.004945        155.9948
0.288                   1.005158        155.0461
0.292                   1.004472        154.1107
0.296                   1.003008        153.2084
0.3                     1.001019        152.3547
0.304                   0.998846         151.558
0.308                   0.996863        150.8182
0.312                  0.9954121        150.1265
0.316                  0.9947424        149.4666
0.32                   0.9949675        148.8176
0.324                  0.9960445        148.1578
0.328                  0.9977823        147.4685
0.332                  0.9998761        146.7375
0.336                   1.001962        145.9605
0.34                    1.003682        145.1425
0.344                   1.004742         144.296
0.348                   1.004963        143.4388
0.352                   1.004309        142.5916
0.356                   1.002896        141.7739
0.36                    1.000966        141.0011
0.364                  0.9988551        140.2817
0.368                  0.9969298        139.6157
0.372                  0.9955265        138.9948
0.376                  0.9948914        138.4029
0.38                   0.9951352        137.8195
0.384                  0.9962143        137.2233
0.388                  0.9979373        136.5961
0.392                   1.000001        135.9257
0.396                   1.002045        135.2085
0.4                     1.003713        134.4495
0.404                   1.004717        133.6615
0.408                   1.004883        132.8625
0.412                   1.004184        132.0732
0.416                    1.00274        131.3129
0.42                    1.000801        130.5968
0.424                  0.9987057         129.933
0.428                  0.9968201         129.321
0.432                  0.9954773        128.7519
0.436                  0.9949153        128.2092
0.44                   0.9952348        127.6723
0.444                  0.9963791        127.1199
0.448                  0.9981454         126.534
0.452                   1.000222        125.9032
0.456                   1.002243        125.2247
0.46                    1.003854        124.5043
0.464                   1.004773        123.7555
0.468                    1.00484        122.9971
0.472                   1.004041        122.2498
0.476                   1.002514         121.533
0.48                    1.000523        120.8613
0.484                  0.9984179        120.2421
0.488                  0.9965689         119.674
0.492                   0.995305        119.1469
0.496                  0.9948532        118.6433
0.5                    0.9952957        118.1421
0.504                  0.9965555        117.6219
0.508                  0.9984093        117.0651
0.512                   1.000529        116.4612
0.516                   1.002539        115.8085
0.52                    1.004086        115.1142
0.524                   1.004897        114.3929
0.528                   1.004829        113.6643
0.532                    1.00389        112.9497
0.536                   1.002242        112.2682
0.54                    1.000173         111.634
0.544                  0.9980446        111.0532
0.548                  0.9962359        110.5231
0.552                  0.9950708        110.0319
0.556                  0.9947603        109.5611
0.56                   0.9953628        109.0884
0.564                  0.9967732        108.5925
0.568                  0.9987412        108.0563
0.572                   1.000917        107.4704
0.576                   1.002914        106.8347
0.58                     1.00438        106.1581
0.584                   1.005053        105.4567
0.588                   1.004812        104.7513
0.592                   1.003696        104.0637
0.596                   1.001897         103.413
0.6                    0.9997275        102.8123
0.604                  0.9975719        102.2665
0.608                  0.9958143        101.7709
0.612                  0.9947719         101.312
0.616                  0.9946357        100.8695
0.62                   0.9954339        100.4203
0.624                  0.9970268        99.94281
0.628                   0.999131        99.42076
0.632                   1.001372        98.84625
0.636                   1.003351        98.22103
0.64                    1.004716        97.55596
0.644                   1.005223        96.86903
0.648                   1.004779        96.18227
0.652                   1.003456        95.51796
0.656                   1.001483        94.89498
0.66                   0.9992055        94.32541
0.664                  0.9970274        93.81228
0.668                  0.9953398         93.3487
0.672                  0.9944494         92.9189
0.676                  0.9945216        92.50088
0.68                   0.9955486        92.07055
0.684                   0.997349        91.60619
0.688                  0.9996023        91.09256
0.692                   1.001906        90.52357
0.696                    1.00385        89.90322
0.7                     1.005086        89.24471
0.704                   1.005392          88.568
0.708                   1.004707        87.89651
0.712                   1.003145        87.25305
0.716                   1.000977        86.65604
0.72                   0.9985831        86.11615
0.724                  0.9963898         85.6343
0.728                   0.994793        85.20102
0.732                  0.9940852        84.79801
0.736                  0.9943999        84.40131
0.74                   0.9956863        83.98576
0.744                  0.9977164        83.52986
0.748                   1.000128        83.01962
0.752                    1.00249        82.45113
0.756                   1.004379        81.83095
0.76                    1.005457        81.17494
0.764                   1.005526        80.50524
0.768                   1.004568        79.84666
0.772                   1.002742        79.22244
0.776                   1.000367        78.65035
0.78                   0.9978606        78.13933
0.784                  0.9956719        77.68773
0.788                  0.9941991        77.28314
0.792                  0.9937142        76.90444
0.796                   0.994313        76.52558
0.8                    0.9958939        76.12046
0.804                  0.9981762        75.66795
0.808                   1.000752        75.15574
0.812                    1.00316        74.58244
0.816                   1.004969        73.95767
0.82                    1.005852        73.30011
0.824                   1.005645         72.6343
0.828                   1.004374        71.98649
0.832                   1.002256         71.3802
0.836                  0.9996583        70.83224
0.84                   0.9970416        70.34946
0.844                  0.9948764        69.92721
0.848                  0.9935589        69.54978
0.852                  0.9933358        69.19291
0.856                  0.9942565        68.82837
0.86                   0.9961613        68.42927
0.864                  0.9987113        67.97512
0.868                   1.001449        67.45569
0.872                   1.003885        66.87262
0.876                   1.005578        66.23884
0.88                    1.006222        65.57626
0.884                   1.005693        64.91189
0.888                    1.00407         64.2734
0.892                   1.001631        63.68447
0.896                  0.9988019        63.16057
0.9                    0.9960854        62.70605
0.904                  0.9939735        62.31275
0.908                  0.9928558        61.96113
0.912                  0.9929459         61.6236
0.916                  0.9942378        61.26964
0.92                    0.996506        60.87169
0.924                  0.9993458        60.41038
0.928                   1.002248        59.87798
0.932                   1.004692        59.27959
0.936                   1.006235        58.63196
0.94                    1.006595        57.96045
0.944                   1.005693        57.29475
0.948                   1.003676        56.66394
0.952                   1.000888         56.0916
0.956                  0.9978166        55.59158
0.96                   0.9950121         55.1651
0.964                  0.9929851        54.80001
0.968                  0.9921134        54.47249
0.972                  0.9925685        54.15125
0.976                  0.9942798        53.80351
0.98                   0.9969462        53.40124
0.984                   1.000091        52.92657
0.988                   1.003148        52.37484
0.992                   1.005569        51.75516
0.996                   1.006912        51.08856
1                       1.006925        50.40423
1.004                   1.005589        49.73466
1.008                   1.003122        49.11035
1.012                  0.9999453        48.55453
1.016                  0.9966188        48.07897
1.02                   0.9937393         47.6812
1.024                  0.9918356        47.34436
1.028                  0.9912675        47.03976
1.032                  0.9921545        46.73207
1.036                  0.9943495         46.3861
1.04                   0.9974645        45.97368
1.044                   1.000942        45.47889
1.048                   1.004156        44.90074
1.052                   1.006528          44.253
1.056                   1.007623        43.56148
1.06                    1.007229        42.85965
1.064                   1.005393        42.18307
1.068                   1.002418        41.56361
1.072                  0.9988157        41.02396
1.076                  0.9952221        40.57323
1.08                   0.9922877        40.20459
1.084                  0.9905566        39.89566
1.088                  0.9903633        39.61214
1.092                  0.9917632        39.31418
1.096                  0.9945187        38.96416
1.1                    0.9981412        38.53398
1.104                   1.001982        38.01031
1.108                   1.005349        37.39655
1.112                   1.007633        36.71189
1.116                    1.00841        35.98768
1.12                    1.007517        35.26219
1.124                   1.005082        34.57441
1.128                   1.001507        33.95772
1.132                  0.9974091        33.43401
1.136                  0.9935129        33.00922
1.14                   0.9905283         32.6711
1.144                  0.9890157        32.39082
1.148                  0.9892756        32.12737
1.152                  0.9912855        31.83577
1.156                  0.9946992        31.47574
1.16                   0.9989095        31.01948
1.164                   1.003161        30.45681
1.168                   1.006688        29.79655
1.172                   1.008847        29.06422
1.176                   1.009228         28.2976
1.18                     1.00773        27.54062
1.184                   1.004577        26.83635
1.188                   1.000291        26.21983
1.192                  0.9956112        25.71199
1.196                  0.9913722        25.31475
1.2                    0.9883536        25.00949
1.204                  0.9871328        24.75913
1.208                  0.9879675        24.51471
1.212                   0.990738        24.22492
1.216                  0.9949647        23.84634
1.22                    0.999896        23.35183
1.224                   1.004648        22.73528
1.228                   1.008361        22.01189
1.232                   1.010354        21.21491
1.236                   1.010235         20.3901
1.24                    1.007974        19.58829
1.244                   1.003913         18.8576
1.248                  0.9987231        18.23557
1.252                  0.9932998        17.74199
1.256                  0.9886144        17.37404
1.26                   0.9855383        17.10482
1.264                  0.9846736        16.88697
1.268                  0.9862259        16.66112
1.272                  0.9899536        16.36785
1.276                  0.9952079        15.95969
1.28                    1.001053        15.41021
1.284                   1.006439        14.71823
1.288                   1.010386        13.90708
1.292                   1.012158        13.01986
1.296                   1.011378        12.11233
1.3                     1.008105         11.2445
1.304                   1.002831        10.47155
1.308                  0.9964203        9.834743
1.312                  0.9899774        9.353174
1.316                   0.984664         9.01806
1.32                   0.9814849        8.791599
1.324                  0.9810863        8.612173
1.328                  0.9836119        8.405827
1.332                  0.9886603        8.101467
1.336                  0.9953538        7.645505
1.34                    1.002502        7.011909
1.344                    1.00882        6.205812
1.348                   1.013152        5.261127
1.352                   1.014667        4.234058
1.356                   1.012993        3.194317
1.36                    1.008292          2.2152
1.364                   1.001253        1.362967
1.368                  0.9930101       0.6858612
1.372                  0.9849755       0.2037775
1.376                  0.9786067     -0.09922458
1.38                   0.9751333      -0.2763532
1.384                  0.9752984      -0.4107739
1.388                  0.9791829       -0.599599
1.392                  0.9861646      -0.9331727
1.396                  0.9950282       -1.476116
1.4                     1.004193       -2.255582
1.404                      1.012       -3.258546
1.408                    1.01699        -4.43644
1.412                   1.018144       -5.714077
1.416                   1.015046       -7.000432
1.42                    1.007969       -8.200282
1.424                  0.9978734       -9.226934
1.428                  0.9863108       -10.01638
1.432                  0.9752148       -10.54213
1.436                   0.966593       -10.82756
1.44                   0.9621441       -10.95016
1.444                  0.9628801       -11.03205
1.448                  0.9688627       -11.21589
1.452                  0.9791437       -11.63279
1.456                  0.9919322       -12.37398
1.46                    1.004933       -13.47523
1.464                    1.01575       -14.91571
1.468                   1.022273       -16.62669
1.472                   1.022989       -18.50413
1.476                   1.017207       -20.42159
1.48                      1.0052       -22.24269
1.484                  0.9882489       -23.83522
1.488                  0.9685896       -25.08996
1.492                  0.9491991       -25.94624
1.496                  0.9333929       -26.42172
1.5                    0.9242164        -26.6354
1.504                  0.9237212       -26.80588
1.508                  0.9323501       -27.21237
1.512                  0.9486849        -28.1289
1.516                   0.969664       -29.76342
1.52                   0.9911462       -32.22933
1.524                   1.008572       -35.55259
1.528                    1.01753       -39.69852
1.532                   1.014149       -44.60135
1.536                  0.9953421       -50.18753
1.54                   0.9589278       -56.39225
1.544                  0.9036894        -63.1718
1.548                  0.8293825       -70.51734
1.552                  0.7367218       -78.47861
