! TOUCHSTONE file generated by CST MICROWAVE STUDIO
! Date and time: Thu Jun  9 09:30:36 2022
! Project name: AppElm_antenne_patch_Alumina.cst
! Parameters = {L=30.5; W=41.8; e=0.035; h=1.6; lambda=0.190476; ls=90; w0=1.12; w1=0.317; ws=90; y0=14; y1=10}
! Header version: 2018
! Port assignment regex: !\s*Touchstone port\s*([0-9]+)\s*=\s*(CST MWS port|CST DS port)\s*([0-9]+|Zmin|Zmax)\s*\(\"(.*)\"\)(\s*mode\s*([0-9]+))?.*
! Touchstone port assignment:
! Touchstone port 1 = CST MWS port 1 ("")
# GHz S MA R 50
0                      0.9791203              -0
0.004                  0.9802576       -10.36551
0.008                  0.9835195       -20.62059
0.012                  0.9884794       -30.66177
0.016                  0.9944993       -40.39801
0.02                    1.000824       -49.75381
0.024                   1.006683       -58.66985
0.028                   1.011393       -67.10186
0.032                   1.014436       -75.01857
0.036                   1.015516        -82.3996
0.04                    1.014587       -89.23423
0.044                   1.011855       -95.52079
0.048                   1.007743       -101.2672
0.052                   1.002841       -106.4921
0.056                   0.997826       -111.2258
0.06                   0.9933741       -115.5109
0.064                  0.9900653       -119.4013
0.068                  0.9883029       -122.9589
0.072                  0.9882559       -126.2494
0.076                  0.9898418       -129.3359
0.08                   0.9927447       -132.2733
0.084                  0.9964744        -135.104
0.088                   1.000446       -137.8549
0.092                    1.00407       -140.5378
0.096                   1.006838       -143.1508
0.1                     1.008389       -145.6817
0.104                   1.008552       -148.1122
0.108                   1.007366       -150.4219
0.112                   1.005064       -152.5928
0.116                   1.002038       -154.6131
0.12                   0.9987767       -156.4796
0.124                  0.9957928       -158.2002
0.128                   0.993543       -159.7929
0.132                  0.9923582       -161.2849
0.136                  0.9923926       -162.7083
0.14                   0.9936012       -164.0957
0.144                  0.9957541       -165.4758
0.148                  0.9984776        -166.869
0.152                    1.00132       -168.2851
0.156                   1.003827       -169.7232
0.16                    1.005609       -171.1723
0.164                   1.006406       -172.6145
0.168                   1.006115       -174.0277
0.172                   1.004811       -175.3897
0.176                   1.002726       -176.6817
0.18                    1.000214       -177.8917
0.184                  0.9976926       -179.0163
0.188                  0.9955758        179.9383
0.192                  0.9942066        178.9565
0.196                  0.9937993        178.0163
0.2                    0.9944048        177.0926
0.204                  0.9959043        176.1612
0.208                  0.9980313        175.2034
0.212                   1.000421        174.2079
0.216                   1.002672        173.1735
0.22                    1.004414        172.1076
0.224                   1.005367        171.0253
0.228                   1.005387        169.9466
0.232                   1.004482        168.8927
0.236                   1.002815        167.8828
0.24                    1.000671        166.9311
0.244                  0.9984164         166.044
0.248                  0.9964322        165.2192
0.252                  0.9950529        164.4457
0.256                  0.9945083        163.7052
0.26                   0.9948836        162.9759
0.264                   0.996106        162.2359
0.268                   0.997958        161.4668
0.272                   1.000117        160.6573
0.276                   1.002213        159.8048
0.28                    1.003892         158.915
0.284                   1.004873        158.0015
0.288                   1.004996        157.0827
0.292                   1.004247        156.1789
0.296                   1.002759        155.3093
0.3                     1.000789        154.4881
0.304                  0.9986752         153.723
0.308                  0.9967822        153.0128
0.312                  0.9954362        152.3482
0.316                   0.994868        151.7127
0.32                   0.9951728        151.0857
0.324                  0.9962936        150.4462
0.328                   0.998031        149.7766
0.332                   1.000081        149.0657
0.336                   1.002087        148.3102
0.34                    1.003704        147.5158
0.344                   1.004657        146.6953
0.348                   1.004785        145.8664
0.352                   1.004069        145.0493
0.356                   1.002634        144.2625
0.36                    1.000729        143.5205
0.364                   0.998684        142.8307
0.368                  0.9968554        142.1924
0.372                  0.9955623        141.5963
0.376                  0.9950309        141.0264
0.38                   0.9953537        140.4626
0.384                  0.9964723        139.8844
0.388                  0.9981885        139.2746
0.392                     1.0002        138.6222
0.396                   1.002155        137.9246
0.4                     1.003714        137.1876
0.404                   1.004606        136.4241
0.408                    1.00468         135.652
0.412                   1.003921        134.8912
0.416                   1.002463        134.1604
0.42                    1.000558        133.4733
0.424                  0.9985384        132.8371
0.428                  0.9967586        132.2505
0.432                  0.9955325        131.7038
0.436                  0.9950773        131.1806
0.44                   0.9954747        130.6608
0.444                   0.996654        130.1239
0.448                   0.998406        129.5532
0.452                   1.000422        128.9385
0.456                   1.002346        128.2779
0.46                    1.003842        127.5778
0.464                   1.004649         126.852
0.468                   1.004625         126.119
0.472                   1.003774        125.3987
0.476                   1.002242        124.7096
0.48                    1.000297         124.065
0.484                  0.9982786        123.4712
0.488                  0.9965438         122.926
0.492                  0.9954009        122.4185
0.496                  0.9950549        121.9318
0.5                    0.9955689         121.445
0.504                  0.9968528        120.9378
0.508                  0.9986785         120.394
0.512                   1.000723        119.8043
0.516                   1.002624        119.1679
0.52                    1.004047        118.4926
0.524                   1.004742        117.7931
0.528                   1.004584        117.0888
0.532                     1.0036        116.3999
0.536                   1.001959        115.7446
0.54                   0.9999466        115.1357
0.544                  0.9979176        114.5783
0.548                  0.9962323        114.0686
0.552                  0.9951922        113.5946
0.556                   0.994986        113.1379
0.56                    0.995653        112.6772
0.564                  0.9970761        112.1921
0.568                  0.9990024        111.6669
0.572                    1.00109        111.0937
0.576                   1.002968         110.473
0.58                    1.004304        109.8144
0.584                   1.004862        109.1339
0.588                    1.00454        108.4518
0.592                   1.003391        107.7887
0.596                   1.001614        107.1625
0.6                    0.9995183        106.5852
0.604                  0.9974756        106.0604
0.608                  0.9958499        105.5826
0.612                  0.9949346        105.1381
0.616                  0.9948973         104.707
0.62                    0.995748        104.2673
0.624                  0.9973367        103.7984
0.628                  0.9993808        103.2858
0.632                   1.001516        102.7226
0.636                   1.003364        102.1115
0.64                    1.004594        101.4638
0.644                   1.004987        100.7971
0.648                    1.00447        100.1327
0.652                   1.003129        99.49193
0.656                   1.001196        98.89213
0.66                   0.9990103        98.34406
0.664                  0.9969595        97.84964
0.668                   0.995412        97.40135
0.672                  0.9946492        96.98331
0.676                  0.9948129        96.57419
0.68                   0.9958781        96.15099
0.684                  0.9976564        95.69345
0.688                  0.9998311        95.18785
0.692                   1.002014        94.62929
0.696                   1.003817        94.02254
0.7                     1.004917        93.38094
0.704                   1.005116        92.72406
0.708                   1.004373        92.07437
0.712                   1.002813        91.45337
0.716                   1.000707        90.87801
0.72                   0.9984254        90.35762
0.724                  0.9963746        89.89203
0.728                  0.9949253        89.47129
0.732                  0.9943426        89.07729
0.736                  0.9947374        88.68686
0.74                   0.9960436        88.27627
0.744                  0.9980298        87.82555
0.748                   1.000341        87.32223
0.752                   1.002566        86.76357
0.756                   1.004305        86.15673
0.76                    1.005247        85.51747
0.764                    1.00522        84.86735
0.768                   1.004221        84.22996
0.772                    1.00242        83.62715
0.776                    1.00013        83.07505
0.78                   0.9977546        82.58134
0.784                  0.9957204        82.14336
0.788                  0.9943962        81.74847
0.792                  0.9940269          81.376
0.796                  0.9946861        81.00097
0.8                    0.9962605        80.59889
0.804                  0.9984701        80.15034
0.808                    1.00092         79.6445
0.812                   1.003171          79.081
0.816                   1.004821        78.46984
0.82                     1.00557         77.8294
0.824                   1.005279        77.18331
0.828                   1.003989        76.55643
0.832                   1.001921        75.97067
0.836                  0.9994341        75.44125
0.84                   0.9969694         74.9737
0.844                    0.99497        74.56259
0.848                  0.9938013         74.1922
0.852                  0.9936824        73.83903
0.856                  0.9946422        73.47626
0.86                   0.9965142        73.07874
0.864                  0.9989644        72.62784
0.868                   1.001555         72.1147
0.872                   1.003821        71.54181
0.876                   1.005355        70.92225
0.88                    1.005878        70.27727
0.884                   1.005287        69.63272
0.888                   1.003676        69.01466
0.892                    1.00132        68.44501
0.896                  0.9986314        67.93763
0.9                    0.9960875        67.49566
0.904                   0.994149        67.11044
0.908                  0.9931729        66.76278
0.912                  0.9933456        66.42618
0.916                   0.994645        66.07187
0.92                   0.9968431        65.67427
0.924                  0.9995476        65.21583
0.928                   1.002274        64.69011
0.932                   1.004533        64.10281
0.936                   1.005915        63.47042
0.94                    1.006167        62.81742
0.944                   1.005231        62.17194
0.948                   1.003258        61.56127
0.952                   1.000587        61.00707
0.956                  0.9976866         60.5216
0.96                   0.9950739         60.1051
0.964                  0.9932251        59.74517
0.968                  0.9924843        59.41872
0.972                  0.9929978        59.09603
0.976                  0.9946834        58.74632
0.98                   0.9972446        58.34373
0.984                   1.000224        57.87215
0.988                   1.003086          57.328
0.992                   1.005318        56.72063
0.996                   1.006513        56.07046
1                       1.006448        55.40535
1.004                   1.005116        54.75599
1.008                   1.002738        54.15078
1.012                  0.9997211        53.61106
1.016                  0.9965957        53.14708
1.02                   0.9939229        52.75564
1.024                  0.9921925        52.42012
1.028                  0.9917305        52.11306
1.032                  0.9926351        51.80113
1.036                  0.9947545        51.45154
1.04                   0.9977136        51.03833
1.044                   1.000983        50.54726
1.048                   1.003976        49.97808
1.052                   1.006151        49.34439
1.056                   1.007111        48.67092
1.06                    1.006667        47.98934
1.064                   1.004877        47.33305
1.068                   1.002037        46.73167
1.072                  0.9986339        46.20594
1.076                  0.9952691        45.76365
1.08                   0.9925494        45.39763
1.084                  0.9909777        45.08625
1.088                  0.9908563        44.79703
1.092                  0.9922252        44.49263
1.096                  0.9948505        44.13808
1.1                    0.9982672        43.70755
1.104                   1.001864        43.18907
1.108                   1.004994         42.5864
1.112                    1.00709        41.91798
1.116                   1.007763        41.21352
1.12                     1.00687        40.50903
1.124                   1.004541        39.84099
1.128                    1.00116        39.24038
1.132                  0.9973102        38.72724
1.136                  0.9936706        38.30642
1.14                   0.9909025          37.966
1.144                   0.989523        37.67851
1.148                  0.9898046        37.40555
1.152                  0.9917182        37.10513
1.156                  0.9949337        36.73985
1.16                   0.9988801        36.28408
1.164                   1.002851        35.72871
1.168                    1.00613        35.08213
1.172                   1.008122        34.36843
1.176                   1.008447        33.62317
1.18                    1.007016        32.88743
1.184                   1.004044        32.20138
1.188                   1.000021        31.59762
1.192                  0.9956418        31.09533
1.196                  0.9916829        30.69598
1.2                    0.9888693        30.38184
1.204                  0.9877355        30.11828
1.208                  0.9885183        29.85972
1.212                   0.991104        29.55845
1.216                  0.9950453        29.17413
1.22                   0.9996422        28.68154
1.224                   1.004072        28.07483
1.228                   1.007534        27.36806
1.232                   1.009392        26.59229
1.236                    1.00928        25.79007
1.24                    1.007169        25.00889
1.244                   1.003378        24.29361
1.248                  0.9985292        23.67925
1.252                  0.9934564        23.18422
1.256                  0.9890623        22.80596
1.26                   0.9861582         22.5197
1.264                  0.9853069        22.28149
1.268                  0.9867051        22.03649
1.272                  0.9901365        21.72946
1.276                  0.9950059        21.31598
1.28                    1.000449        20.77085
1.284                   1.005491        20.09223
1.288                   1.009218        19.30109
1.292                   1.010935        18.43705
1.296                   1.010281        17.55179
1.3                     1.007297        16.70118
1.304                    1.00243        15.93681
1.308                  0.9964721        15.29748
1.312                  0.9904426        14.80154
1.316                  0.9854195        14.44167
1.32                   0.9823415        14.18378
1.324                  0.9818231        13.97163
1.328                  0.9840199        13.73716
1.332                  0.9885849        13.41421
1.336                  0.9947257        12.95204
1.34                    1.001352        12.32481
1.344                   1.007273         11.5354
1.348                   1.011404        10.61367
1.352                   1.012951        9.610703
1.356                   1.011541        8.590807
1.36                    1.007292        7.622202
1.364                   1.000816        6.767101
1.368                  0.9931414        6.071471
1.372                  0.9855645        5.555475
1.376                  0.9794385        5.206511
1.38                   0.9759235        4.977635
1.384                  0.9757477        4.793736
1.388                  0.9790396        4.565577
1.392                  0.9852795        4.208384
1.396                  0.9933883        3.659434
1.4                     1.001926        2.889613
1.404                   1.009351        1.906912
1.408                   1.014282       0.7529881
1.412                   1.015723       -0.504658
1.416                   1.013223       -1.782582
1.42                    1.006964       -2.992305
1.424                  0.9977708       -4.052186
1.428                  0.9870244       -4.900451
1.432                  0.9764818        -5.50874
1.436                  0.9680006       -5.893505
1.44                   0.9631953        -6.12062
1.444                  0.9630911        -6.29825
1.448                  0.9678677       -6.556633
1.452                  0.9767776       -7.019829
1.456                  0.9882697       -7.779165
1.46                    1.000275       -8.876951
1.464                   1.010573       -10.30308
1.468                   1.017146       -12.00139
1.472                   1.018489       -13.88073
1.476                   1.013825       -15.82698
1.48                    1.003253       -17.71499
1.484                  0.9878031       -19.42172
1.488                  0.9693936       -20.84306
1.492                  0.9506597       -21.91604
1.496                  0.9346122        -22.6451
1.5                    0.9241168       -23.12403
1.504                  0.9212561       -23.53909
1.508                  0.9267493       -24.14117
1.512                  0.9396471       -25.19145
1.516                  0.9574354       -26.90449
1.52                   0.9764795       -29.41496
1.524                  0.9926145       -32.77635
1.528                   1.001692       -36.98158
1.532                  0.9999905       -41.99034
1.536                  0.9844811       -47.75371
1.54                   0.9529845       -54.23382
1.544                   0.904256       -61.42105
1.548                  0.8380345       -69.35468
1.552                  0.7550878       -78.15734
