! TOUCHSTONE file generated by CST MICROWAVE STUDIO
! Date and time: Thu Jun  9 09:30:43 2022
! Project name: AppElm_antenne_patch_Alumina.cst
! Parameters = {L=30.5; W=41.8; e=0.035; h=1.6; lambda=0.190476; ls=90; w0=1.12; w1=0.44755; ws=90; y0=14; y1=10}
! Header version: 2018
! Port assignment regex: !\s*Touchstone port\s*([0-9]+)\s*=\s*(CST MWS port|CST DS port)\s*([0-9]+|Zmin|Zmax)\s*\(\"(.*)\"\)(\s*mode\s*([0-9]+))?.*
! Touchstone port assignment:
! Touchstone port 1 = CST MWS port 1 ("")
# GHz S MA R 50
0                      0.9793886              -0
0.004                  0.9805159       -10.36376
0.008                    0.98375       -20.61835
0.012                  0.9886701       -30.66143
0.016                   0.994647       -40.40285
0.02                    1.000934       -49.76775
0.024                   1.006769       -58.69718
0.028                   1.011473         -67.147
0.032                    1.01453       -75.08594
0.036                    1.01564       -82.49353
0.04                    1.014753       -89.35875
0.044                   1.012063       -95.67951
0.048                   1.007984       -101.4632
0.052                   1.003097       -106.7278
0.056                  0.9980732       -111.5028
0.06                   0.9935846       -115.8298
0.064                  0.9902142       -119.7617
0.068                  0.9883726       -123.3598
0.072                   0.988241        -126.689
0.076                  0.9897494       -129.8124
0.08                   0.9925957       -132.7852
0.084                  0.9962987       -135.6502
0.088                   1.000279       -138.4352
0.092                   1.003945       -141.1526
0.096                   1.006783       -143.8014
0.1                     1.008419       -146.3696
0.104                   1.008669       -148.8394
0.108                   1.007558         -151.19
0.112                   1.005305       -153.4033
0.116                   1.002293       -155.4665
0.12                   0.9990076       -157.3759
0.124                  0.9959634       -159.1381
0.128                  0.9936268       -160.7706
0.132                  0.9923432          -162.3
0.136                  0.9922828       -163.7581
0.14                   0.9934179       -165.1781
0.144                   0.995531       -166.5892
0.148                  0.9982557       -168.0126
0.152                    1.00114       -169.4594
0.156                   1.003723       -170.9294
0.16                    1.005603       -172.4123
0.164                   1.006502       -173.8905
0.168                   1.006302       -175.3418
0.172                   1.005061       -176.7436
0.176                      1.003       -178.0764
0.18                    1.000469       -179.3271
0.184                  0.9978878        179.5087
0.188                    0.99568        178.4255
0.192                  0.9942038        177.4085
0.196                  0.9936922        176.4359
0.2                    0.9942143        175.4823
0.204                  0.9956657        174.5228
0.208                  0.9977888        173.5375
0.212                   1.000219        172.5144
0.216                   1.002548        171.4509
0.22                    1.004392        170.3539
0.224                   1.005455        169.2382
0.228                   1.005571        168.1237
0.232                   1.004734        167.0321
0.236                   1.003094        165.9835
0.24                    1.000931        164.9931
0.244                  0.9986138        164.0684
0.248                  0.9965336         163.208
0.252                  0.9950412        162.4015
0.256                  0.9943865         161.631
0.26                   0.9946738        160.8743
0.264                  0.9958457        160.1087
0.268                  0.9976938        159.3149
0.272                  0.9998965        158.4803
0.276                   1.002076        157.6011
0.28                    1.003862        156.6826
0.284                   1.004958        155.7378
0.288                   1.005182        154.7852
0.292                   1.004503        153.8457
0.296                   1.003042        152.9393
0.3                     1.001049        152.0814
0.304                  0.9988682        151.2807
0.308                  0.9968739        150.5372
0.312                  0.9954097         149.842
0.316                  0.9947277         149.179
0.32                   0.9949434        148.5272
0.324                  0.9960156        147.8648
0.328                   0.997754         147.173
0.332                  0.9998542        146.4393
0.336                   1.001951        145.6595
0.34                    1.003684        144.8385
0.344                   1.004757        143.9885
0.348                   1.004989        143.1277
0.352                   1.004342        142.2766
0.356                    1.00293        141.4549
0.36                    1.000997        140.6781
0.364                  0.9988767         139.955
0.368                  0.9969389        139.2855
0.372                  0.9955219        138.6615
0.376                  0.9948739        138.0667
0.38                   0.9951083        137.4808
0.384                  0.9961827        136.8823
0.388                  0.9979071        136.2528
0.392                  0.9999778          135.58
0.396                   1.002032        134.8602
0.4                     1.003714        134.0984
0.404                    1.00473        133.3072
0.408                   1.004908        132.5048
0.412                   1.004215        131.7118
0.416                   1.002772        130.9478
0.42                    1.000828        130.2281
0.424                  0.9987227        129.5608
0.428                  0.9968241        128.9456
0.432                  0.9954677        128.3737
0.436                  0.9948937        127.8286
0.44                    0.995205        127.2895
0.444                  0.9963467         126.735
0.448                  0.9981169        126.1472
0.452                   1.000203        125.5142
0.456                   1.002237        124.8333
0.46                    1.003863        124.1102
0.464                   1.004797        123.3583
0.468                   1.004875        122.5966
0.472                   1.004082        121.8457
0.476                   1.002555        121.1253
0.48                    1.000558        120.4501
0.484                  0.9984417        119.8276
0.488                  0.9965781        119.2566
0.492                  0.9952992        118.7268
0.496                  0.9948342        118.2211
0.5                    0.9952678         117.718
0.504                  0.9965246        117.1959
0.508                  0.9983817        116.6373
0.512                    1.00051        116.0315
0.516                   1.002533        115.3766
0.52                    1.004094        114.6797
0.524                   1.004918        113.9556
0.528                   1.004858        113.2239
0.532                   1.003923        112.5059
0.536                   1.002273        111.8212
0.54                    1.000194        111.1838
0.544                  0.9980533        110.6001
0.548                  0.9962294        110.0675
0.552                  0.9950492        109.5741
0.556                  0.9947269        109.1015
0.56                   0.9953231        108.6273
0.564                  0.9967338          108.13
0.568                  0.9987085        107.5922
0.572                   1.000897        107.0046
0.576                    1.00291        106.3669
0.58                    1.004391        105.6878
0.584                   1.005079        104.9837
0.588                   1.004848        104.2752
0.592                   1.003736        103.5844
0.596                   1.001933        102.9305
0.6                    0.9997543        102.3268
0.604                  0.9975846        101.7784
0.608                  0.9958111        101.2804
0.612                  0.9947535        100.8196
0.616                   0.994606        100.3755
0.62                   0.9953987        99.92499
0.624                  0.9969928        99.44625
0.628                  0.9991049        98.92281
0.632                   1.001359        98.34667
0.636                   1.003353        97.71947
0.64                    1.004734        97.05205
0.644                   1.005254        96.36245
0.648                   1.004817        95.67274
0.652                   1.003495        95.00543
0.656                   1.001516        94.37948
0.66                   0.9992259        93.80718
0.664                  0.9970318        93.29168
0.668                  0.9953272        92.82616
0.672                   0.994422        92.39482
0.676                  0.9944843        91.97561
0.68                   0.9955078        91.54424
0.684                  0.9973125        91.07886
0.688                  0.9995767        90.56403
0.692                   1.001896        89.99353
0.696                   1.003858        89.37127
0.7                      1.00511        88.71044
0.704                   1.005428        88.03109
0.708                   1.004749        87.35674
0.712                   1.003186        86.71038
0.716                    1.00101        86.11055
0.72                   0.9986017        85.56818
0.724                  0.9963914        85.08422
0.728                  0.9947776         84.6493
0.732                  0.9940559        84.24506
0.736                  0.9943628        83.84741
0.74                   0.9956487        83.43106
0.744                  0.9976862        82.97427
0.748                   1.000111        82.46288
0.752                   1.002491        81.89286
0.756                   1.004398        81.27074
0.76                    1.005492        80.61236
0.764                   1.005573        79.93997
0.768                   1.004618        79.27853
0.772                   1.002788        78.65148
0.776                     1.0004        78.07672
0.78                   0.9978769        77.56341
0.784                  0.9956687        77.10995
0.788                  0.9941774        76.70399
0.792                  0.9936785        76.32434
0.796                    0.99427         75.9448
0.8                    0.9958518        75.53906
0.804                  0.9981429         75.0858
0.808                   1.000733        74.57253
0.812                   1.003159        73.99776
0.816                   1.004986        73.37106
0.82                    1.005882         72.7112
0.824                   1.005683         72.0428
0.828                   1.004412        71.39229
0.832                   1.002285        70.78342
0.836                  0.9996727        70.23316
0.84                    0.997037        69.74851
0.844                  0.9948524         69.3249
0.848                  0.9935185        68.94658
0.852                  0.9932854        68.58918
0.856                  0.9942045         68.2243
0.86                   0.9961171        67.82478
0.864                  0.9986825        67.36999
0.868                   1.001442        66.84947
0.872                   1.003899        66.26481
0.876                   1.005614        65.62895
0.88                    1.006273        64.96386
0.884                   1.005751        64.29673
0.888                   1.004126        63.65544
0.892                   1.001677        63.06386
0.896                  0.9988299        62.53769
0.9                    0.9960922        62.08137
0.904                  0.9939593        61.68683
0.908                  0.9928249        61.33445
0.912                  0.9929054        60.99649
0.916                  0.9941968        60.64225
0.92                   0.9964734         60.2439
0.924                  0.9993288        59.78187
0.928                   1.002251        59.24827
0.932                   1.004714        58.64817
0.936                   1.006274        57.99837
0.94                    1.006643        57.32436
0.944                   1.005743        56.65602
0.948                   1.003717        56.02264
0.952                   1.000911        55.44804
0.956                  0.9978184        54.94623
0.96                   0.9949906        54.51855
0.964                  0.9929435        54.15282
0.968                  0.9920587        53.82512
0.972                  0.9925106        53.50394
0.976                  0.9942295        53.15623
0.98                   0.9969129        52.75372
0.984                   1.000081        52.27833
0.988                   1.003166        51.72528
0.992                   1.005611        51.10368
0.996                   1.006973        50.43464
1                       1.006997        49.74755
1.004                    1.00566        49.07514
1.008                   1.003181        48.44815
1.012                  0.9999848        47.89004
1.016                  0.9966336        47.41275
1.02                   0.9937291         47.0139
1.024                  0.9918052        46.67658
1.028                  0.9912252        46.37192
1.032                   0.992111        46.06435
1.036                  0.9943158        45.71837
1.04                   0.9974494        45.30558
1.044                   1.000951        44.80985
1.048                    1.00419        44.23013
1.052                   1.006582        43.58024
1.056                   1.007689        42.88617
1.06                    1.007297        42.18156
1.064                    1.00545        41.50229
1.068                   1.002455        40.88048
1.072                  0.9988252        40.33905
1.076                  0.9952024        39.88725
1.08                   0.9922417        39.51824
1.084                  0.9904928        39.20953
1.088                  0.9902932        38.92657
1.092                     0.9917        38.62918
1.096                  0.9944745         38.2794
1.1                    0.9981245        37.84891
1.104                   1.001996        37.32418
1.108                   1.005393        36.70863
1.112                   1.007699        36.02158
1.116                   1.008486        35.29458
1.12                    1.007591         34.5662
1.124                   1.005141        33.87576
1.128                   1.001541        33.25692
1.132                  0.9974114        32.73178
1.136                  0.9934842        32.30637
1.14                    0.990475        31.96844
1.144                   0.988949        31.68885
1.148                  0.9892101        31.42637
1.152                  0.9912358        31.13554
1.156                  0.9946774         30.7757
1.16                   0.9989232         30.3189
1.164                   1.003211        29.75489
1.168                   1.006769        29.09241
1.172                   1.008948         28.3573
1.176                   1.009335        27.58764
1.18                    1.007828        26.82766
1.184                   1.004651        26.12079
1.188                   1.000332        25.50241
1.192                  0.9956155        24.99359
1.196                  0.9913435        24.59635
1.2                    0.9883019         24.2918
1.204                   0.987073        24.04264
1.208                  0.9879164        23.79948
1.212                   0.990711        23.51051
1.216                  0.9949726        23.13195
1.22                   0.9999429        22.63658
1.224                    1.00473        22.01817
1.228                   1.008468        21.29212
1.232                    1.01047        20.49209
1.236                   1.010341        19.66421
1.24                    1.008053        18.85973
1.244                   1.003951        18.12711
1.248                  0.9987138        17.50424
1.252                  0.9932446        17.01106
1.256                  0.9885235        16.64465
1.26                   0.9854296         16.3778
1.264                  0.9845696        16.16261
1.268                  0.9861493        15.93917
1.272                  0.9899233        15.64748
1.276                  0.9952352         15.2397
1.28                     1.00114        14.68926
1.284                   1.006576        13.99512
1.288                   1.010559        13.18091
1.292                   1.012344         12.2902
1.296                   1.011554        11.37928
1.3                      1.00825        10.50865
1.304                   1.002931        9.733942
1.308                  0.9964697        9.096685
1.312                  0.9899807        8.616048
1.316                  0.9846356        8.283035
1.32                    0.981447        8.059372
1.324                  0.9810637        7.882779
1.328                  0.9836275        7.678606
1.332                  0.9887292        7.375213
1.336                    0.99548        6.918734
1.34                    1.002677        6.283199
1.344                   1.009024        5.474089
1.348                   1.013359         4.52588
1.352                   1.014844        3.495451
1.356                   1.013112        2.453213
1.36                    1.008331        1.473106
1.364                   1.001202       0.6218897
1.368                  0.9928726     -0.05193562
1.372                  0.9847718      -0.5285733
1.376                  0.9783707      -0.8244847
1.38                   0.9749079      -0.9937985
1.384                  0.9751281       -1.120836
1.388                  0.9791048       -1.303815
1.392                  0.9862013       -1.633845
1.396                  0.9951836       -2.175791
1.4                     1.004452       -2.956523
1.404                   1.012331       -3.962327
1.408                   1.017353       -5.143719
1.412                   1.018496       -6.424523
1.416                   1.015346       -7.712757
1.42                     1.00819        -8.91238
1.424                  0.9980046       -9.936116
1.428                  0.9863622       -10.71975
1.432                  0.9752176       -11.23709
1.436                  0.9665956       -11.51244
1.44                   0.9622026       -11.62474
1.444                  0.9630468       -11.69777
1.448                   0.969173       -11.87558
1.452                  0.9796059       -12.28992
1.456                  0.9925247       -13.03177
1.46                    1.005606       -14.13592
1.464                   1.016436       -15.58007
1.468                   1.022892       -17.29386
1.472                   1.023465       -19.17161
1.476                   1.017476       -21.08524
1.48                    1.005222       -22.89686
1.484                  0.9880231       -24.47298
1.488                  0.9681577       -25.70362
1.492                  0.9486517        -26.5284
1.496                  0.9328646       -26.96685
1.5                    0.9238677        -27.1417
1.504                  0.9237086       -27.27628
1.508                  0.9327914       -27.65393
1.512                  0.9496321       -28.55058
1.516                  0.9710939       -30.17319
1.52                    0.992967       -32.63214
1.524                    1.01064       -35.94954
1.528                   1.019667        -40.0869
1.532                    1.01616       -44.97489
1.536                  0.9970258       -50.53647
1.54                   0.9600858       -56.70282
1.544                  0.9041311       -63.42499
1.548                  0.8289254       -70.68625
1.552                  0.7351857       -78.52333
