! TOUCHSTONE file generated by CST MICROWAVE STUDIO
! Date and time: Sat May 14 12:01:04 2022
! Project name: AppElm_antenne_dipole_Alumina.cst
! Parameters = {L=33; e=0.035; f=2.45e+09; h=1.6; i=0.8; l1=2; lambda=122.449; ls=37.5; wl=1.7; ws=80}
! Header version: 2018
! Port assignment regex: !\s*Touchstone port\s*([0-9]+)\s*=\s*(CST MWS port|CST DS port)\s*([0-9]+|Zmin|Zmax)\s*\(\"(.*)\"\)(\s*mode\s*([0-9]+))?.*
! Touchstone port assignment:
! Touchstone port 1 = CST MWS port 1 ("")
# GHz S MA R 50
0                              1              -0
0.004                  0.9999985     -0.06987257
0.008                  0.9999942      -0.1397374
0.012                  0.9999868      -0.2095867
0.016                  0.9999766      -0.2794128
0.02                   0.9999635       -0.349208
0.024                  0.9999477      -0.4189648
0.028                   0.999929      -0.4886758
0.032                  0.9999075      -0.5583337
0.036                  0.9998835      -0.6279311
0.04                   0.9998567      -0.6974613
0.044                  0.9998274      -0.7669174
0.048                  0.9997957      -0.8362927
0.052                  0.9997615      -0.9055809
0.056                   0.999725      -0.9747757
0.06                   0.9996863       -1.043871
0.064                  0.9996456       -1.112863
0.068                  0.9996027       -1.181744
0.072                   0.999558        -1.25051
0.076                  0.9995115       -1.319156
0.08                   0.9994633       -1.387679
0.084                  0.9994136       -1.456073
0.088                  0.9993624       -1.524336
0.092                    0.99931       -1.592465
0.096                  0.9992564       -1.660456
0.1                     0.999202       -1.728306
0.104                  0.9991466       -1.796015
0.108                  0.9990903        -1.86358
0.112                  0.9990336       -1.931001
0.116                  0.9989765       -1.998276
0.12                   0.9989191       -2.065404
0.124                  0.9988615       -2.132388
0.128                  0.9988039       -2.199226
0.132                  0.9987465       -2.265919
0.136                  0.9986895        -2.33247
0.14                   0.9986329        -2.39888
0.144                  0.9985768       -2.465151
0.148                  0.9985216       -2.531286
0.152                  0.9984674       -2.597288
0.156                  0.9984141       -2.663161
0.16                    0.998362       -2.728908
0.164                  0.9983113       -2.794534
0.168                  0.9982618       -2.860045
0.172                  0.9982143       -2.925444
0.176                  0.9981682       -2.990738
0.18                   0.9981239       -3.055933
0.184                  0.9980817       -3.121035
0.188                  0.9980415       -3.186049
0.192                  0.9980035       -3.250984
0.196                  0.9979677       -3.315847
0.2                    0.9979343       -3.380645
0.204                  0.9979034       -3.445386
0.208                  0.9978749       -3.510077
0.212                  0.9978491       -3.574728
0.216                  0.9978259       -3.639347
0.22                   0.9978055       -3.703943
0.224                  0.9977879       -3.768524
0.228                   0.997773         -3.8331
0.232                  0.9977611       -3.897679
0.236                  0.9977521       -3.962272
0.24                    0.997746       -4.026887
0.244                  0.9977429       -4.091534
0.248                  0.9977428       -4.156223
0.252                  0.9977456       -4.220963
0.256                  0.9977514       -4.285764
0.26                     0.99776       -4.350635
0.264                  0.9977717       -4.415586
0.268                  0.9977862       -4.480627
0.272                  0.9978037       -4.545765
0.276                  0.9978238       -4.611013
0.28                   0.9978469       -4.676377
0.284                  0.9978726       -4.741867
0.288                   0.997901       -4.807492
0.292                  0.9979318       -4.873261
0.296                  0.9979653       -4.939181
0.3                    0.9980011       -5.005261
0.304                  0.9980391       -5.071511
0.308                  0.9980795       -5.137935
0.312                  0.9981219       -5.204541
0.316                  0.9981663       -5.271338
0.32                   0.9982127       -5.338331
0.324                  0.9982608       -5.405528
0.328                  0.9983104       -5.472934
0.332                  0.9983616       -5.540554
0.336                  0.9984141       -5.608395
0.34                    0.998468        -5.67646
0.344                  0.9985228       -5.744755
0.348                  0.9985787       -5.813284
0.352                  0.9986353        -5.88205
0.356                  0.9986926       -5.951056
0.36                   0.9987504       -6.020304
0.364                  0.9988084         -6.0898
0.368                  0.9988667       -6.159542
0.372                   0.998925       -6.229533
0.376                  0.9989831       -6.299774
0.38                    0.999041       -6.370266
0.384                  0.9990986       -6.441007
0.388                  0.9991553       -6.512001
0.392                  0.9992114       -6.583241
0.396                  0.9992666       -6.654732
0.4                    0.9993207       -6.726468
0.404                  0.9993736        -6.79845
0.408                  0.9994252       -6.870672
0.412                  0.9994753       -6.943135
0.416                  0.9995237       -7.015833
0.42                   0.9995705       -7.088763
0.424                  0.9996152       -7.161922
0.428                   0.999658       -7.235303
0.432                  0.9996986       -7.308904
0.436                   0.999737       -7.382719
0.44                   0.9997728       -7.456741
0.444                  0.9998064       -7.530965
0.448                  0.9998373       -7.605386
0.452                  0.9998655       -7.679997
0.456                   0.999891        -7.75479
0.46                   0.9999137        -7.82976
0.464                  0.9999334         -7.9049
0.468                    0.99995       -7.980201
0.472                  0.9999639       -8.055656
0.476                  0.9999744       -8.131259
0.48                   0.9999819          -8.207
0.484                  0.9999862       -8.282873
0.488                  0.9999873       -8.358869
0.492                  0.9999853        -8.43498
0.496                  0.9999799       -8.511198
0.5                    0.9999716       -8.587515
0.504                  0.9999598       -8.663923
0.508                  0.9999447       -8.740415
0.512                  0.9999266        -8.81698
0.516                  0.9999053       -8.893612
0.52                   0.9998808       -8.970304
0.524                  0.9998534       -9.047047
0.528                  0.9998227       -9.123833
0.532                  0.9997893       -9.200656
0.536                  0.9997529       -9.277506
0.54                   0.9997137       -9.354379
0.544                  0.9996718       -9.431267
0.548                  0.9996272       -9.508164
0.552                  0.9995799       -9.585064
0.556                  0.9995303       -9.661957
0.56                   0.9994784       -9.738841
0.564                  0.9994242       -9.815711
0.568                  0.9993681        -9.89256
0.572                  0.9993098       -9.969386
0.576                  0.9992496       -10.04618
0.58                   0.9991879       -10.12294
0.584                  0.9991244       -10.19967
0.588                  0.9990597       -10.27636
0.592                  0.9989938         -10.353
0.596                  0.9989266        -10.4296
0.6                    0.9988584       -10.50616
0.604                  0.9987896       -10.58266
0.608                  0.9987201       -10.65912
0.612                    0.99865       -10.73553
0.616                  0.9985797       -10.81189
0.62                   0.9985093       -10.88821
0.624                  0.9984388       -10.96447
0.628                  0.9983685        -11.0407
0.632                  0.9982987       -11.11688
0.636                  0.9982292       -11.19302
0.64                   0.9981605       -11.26912
0.644                  0.9980927       -11.34519
0.648                  0.9980258       -11.42123
0.652                  0.9979601       -11.49725
0.656                  0.9978957       -11.57325
0.66                   0.9978328       -11.64923
0.664                  0.9977715       -11.72521
0.668                   0.997712       -11.80118
0.672                  0.9976544       -11.87716
0.676                  0.9975988       -11.95316
0.68                   0.9975454       -12.02918
0.684                  0.9974943       -12.10522
0.688                  0.9974455       -12.18131
0.692                  0.9973993       -12.25744
0.696                  0.9973557       -12.33362
0.7                    0.9973149       -12.40988
0.704                  0.9972768        -12.4862
0.708                  0.9972416       -12.56262
0.712                  0.9972095       -12.63913
0.716                  0.9971804       -12.71575
0.72                   0.9971543       -12.79249
0.724                  0.9971314       -12.86936
0.728                  0.9971117       -12.94637
0.732                  0.9970953       -13.02353
0.736                   0.997082       -13.10085
0.74                   0.9970719       -13.17836
0.744                  0.9970653       -13.25605
0.748                  0.9970618       -13.33394
0.752                  0.9970617       -13.41204
0.756                  0.9970648       -13.49037
0.76                   0.9970711       -13.56893
0.764                  0.9970806       -13.64774
0.768                  0.9970931       -13.72681
0.772                  0.9971088       -13.80615
0.776                  0.9971274       -13.88577
0.78                    0.997149       -13.96569
0.784                  0.9971734       -14.04591
0.788                  0.9972005       -14.12645
0.792                  0.9972303       -14.20731
0.796                  0.9972628       -14.28851
0.8                    0.9972976       -14.37006
0.804                  0.9973347       -14.45197
0.808                   0.997374       -14.53424
0.812                  0.9974153       -14.61689
0.816                  0.9974585       -14.69993
0.82                   0.9975034       -14.78336
0.824                    0.99755       -14.86719
0.828                   0.997598       -14.95143
0.832                  0.9976472       -15.03608
0.836                  0.9976976       -15.12116
0.84                   0.9977488       -15.20667
0.844                  0.9978007       -15.29261
0.848                  0.9978534         -15.379
0.852                  0.9979062       -15.46583
0.856                  0.9979593       -15.55311
0.86                   0.9980124       -15.64084
0.864                  0.9980652       -15.72903
0.868                  0.9981176       -15.81768
0.872                  0.9981694       -15.90679
0.876                  0.9982204       -15.99637
0.88                   0.9982704       -16.08641
0.884                  0.9983192       -16.17691
0.888                  0.9983667       -16.26788
0.892                  0.9984125       -16.35932
0.896                  0.9984567       -16.45122
0.9                    0.9984988       -16.54358
0.904                  0.9985387        -16.6364
0.908                  0.9985763       -16.72968
0.912                  0.9986116       -16.82341
0.916                   0.998644        -16.9176
0.92                   0.9986737       -17.01224
0.924                  0.9987003       -17.10731
0.928                  0.9987238       -17.20283
0.932                  0.9987439       -17.29878
0.936                  0.9987606       -17.39515
0.94                   0.9987737       -17.49196
0.944                  0.9987831       -17.58917
0.948                  0.9987885       -17.68679
0.952                    0.99879       -17.78482
0.956                  0.9987875       -17.88323
0.96                   0.9987808       -17.98204
0.964                  0.9987698       -18.08123
0.968                  0.9987544       -18.18078
0.972                  0.9987348        -18.2807
0.976                  0.9987105       -18.38097
0.98                   0.9986818       -18.48159
0.984                  0.9986484       -18.58255
0.988                  0.9986105       -18.68383
0.992                   0.998568       -18.78544
0.996                  0.9985207       -18.88735
1                      0.9984688       -18.98957
1.004                  0.9984123       -19.09208
1.008                  0.9983513       -19.19487
1.012                  0.9982857       -19.29795
1.016                  0.9982153       -19.40128
1.02                   0.9981406       -19.50488
1.024                  0.9980613        -19.6087
1.028                  0.9979777       -19.71279
1.032                  0.9978898       -19.81713
1.036                  0.9977978       -19.92166
1.04                   0.9977016       -20.02646
1.044                  0.9976012       -20.13145
1.048                  0.9974972       -20.23664
1.052                  0.9973892       -20.34201
1.056                  0.9972776       -20.44761
1.06                   0.9971626       -20.55337
1.064                  0.9970442       -20.65934
1.068                  0.9969225       -20.76549
1.072                  0.9967979       -20.87179
1.076                  0.9966704       -20.97829
1.08                     0.99654       -21.08492
1.084                  0.9964074       -21.19177
1.088                  0.9962723       -21.29876
1.092                  0.9961351       -21.40591
1.096                  0.9959959       -21.51325
1.1                    0.9958551       -21.62073
1.104                  0.9957125       -21.72841
1.108                  0.9955687       -21.83621
1.112                  0.9954238       -21.94421
1.116                  0.9952778       -22.05238
1.12                   0.9951312        -22.1607
1.124                  0.9949841       -22.26925
1.128                  0.9948366       -22.37795
1.132                   0.994689       -22.48685
1.136                  0.9945416       -22.59595
1.14                   0.9943944       -22.70526
1.144                  0.9942478       -22.81477
1.148                  0.9941019       -22.92451
1.152                  0.9939569       -23.03448
1.156                  0.9938129       -23.14469
1.16                   0.9936703       -23.25515
1.164                  0.9935292       -23.36587
1.168                  0.9933896       -23.47686
1.172                  0.9932519       -23.58814
1.176                  0.9931162       -23.69972
1.18                   0.9929825       -23.81162
1.184                  0.9928511       -23.92384
1.188                  0.9927222       -24.03641
1.192                  0.9925958       -24.14933
1.196                   0.992472       -24.26263
1.2                     0.992351       -24.37631
1.204                  0.9922328       -24.49041
1.208                  0.9921177       -24.60493
1.212                  0.9920055       -24.71989
1.216                  0.9918964       -24.83532
1.22                   0.9917904       -24.95122
1.224                  0.9916878       -25.06762
1.228                  0.9915882       -25.18454
1.232                  0.9914919         -25.302
1.236                  0.9913989       -25.42002
1.24                    0.991309       -25.53861
1.244                  0.9912225        -25.6578
1.248                  0.9911389       -25.77761
1.252                  0.9910588       -25.89805
1.256                  0.9909813       -26.01916
1.26                   0.9909072       -26.14094
1.264                  0.9908359       -26.26342
1.268                  0.9907673       -26.38662
1.272                  0.9907014       -26.51056
1.276                  0.9906382       -26.63526
1.28                   0.9905773       -26.76074
1.284                  0.9905186       -26.88702
1.288                  0.9904622       -27.01412
1.292                  0.9904075       -27.14206
1.296                  0.9903547       -27.27085
1.3                    0.9903034       -27.40052
1.304                  0.9902534       -27.53108
1.308                  0.9902045       -27.66255
1.312                  0.9901563       -27.79495
1.316                  0.9901089        -27.9283
1.32                   0.9900618       -28.06261
1.324                  0.9900148        -28.1979
1.328                  0.9899676       -28.33418
1.332                    0.98992       -28.47148
1.336                  0.9898717       -28.60979
1.34                   0.9898221       -28.74914
1.344                  0.9897714       -28.88954
1.348                  0.9897188         -29.031
1.352                  0.9896645       -29.17354
1.356                  0.9896076       -29.31716
1.36                   0.9895482       -29.46188
1.364                  0.9894858        -29.6077
1.368                  0.9894202       -29.75463
1.372                   0.989351       -29.90269
1.376                  0.9892778       -30.05187
1.38                   0.9892003        -30.2022
1.384                  0.9891183       -30.35367
1.388                  0.9890311       -30.50629
1.392                  0.9889388       -30.66005
1.396                  0.9888408       -30.81498
1.4                    0.9887367       -30.97107
1.404                  0.9886265       -31.12831
1.408                  0.9885097       -31.28673
1.412                  0.9883859       -31.44632
1.416                  0.9882549       -31.60707
1.42                   0.9881162       -31.76899
1.424                  0.9879698       -31.93209
1.428                  0.9878152       -32.09634
1.432                  0.9876522       -32.26177
1.436                  0.9874804       -32.42835
1.44                   0.9872997        -32.5961
1.444                  0.9871098       -32.76501
1.448                  0.9869104       -32.93507
1.452                  0.9867012       -33.10628
1.456                  0.9864821       -33.27864
1.46                   0.9862528       -33.45215
1.464                  0.9860131       -33.62678
1.468                  0.9857627       -33.80256
1.472                  0.9855017       -33.97946
1.476                  0.9852297       -34.15748
1.48                   0.9849466       -34.33662
1.484                  0.9846524       -34.51686
1.488                  0.9843467       -34.69822
1.492                  0.9840295       -34.88067
1.496                  0.9837007       -35.06422
1.5                    0.9833603       -35.24885
1.504                  0.9830082       -35.43456
1.508                  0.9826443       -35.62135
1.512                  0.9822685       -35.80922
1.516                  0.9818808       -35.99814
1.52                   0.9814812       -36.18813
1.524                  0.9810698       -36.37918
1.528                  0.9806463       -36.57128
1.532                  0.9802112       -36.76443
1.536                   0.979764       -36.95863
1.54                   0.9793051       -37.15388
1.544                  0.9788346       -37.35016
1.548                  0.9783522       -37.54749
1.552                  0.9778585       -37.74586
