! TOUCHSTONE file generated by CST MICROWAVE STUDIO
! Date and time: Sat May 14 12:01:00 2022
! Project name: AppElm_antenne_dipole_Alumina.cst
! Parameters = {L=33; e=0.035; f=2.45e+09; h=1.6; i=0.8; l1=2; lambda=122.449; ls=31.5; wl=1.7; ws=80}
! Header version: 2018
! Port assignment regex: !\s*Touchstone port\s*([0-9]+)\s*=\s*(CST MWS port|CST DS port)\s*([0-9]+|Zmin|Zmax)\s*\(\"(.*)\"\)(\s*mode\s*([0-9]+))?.*
! Touchstone port assignment:
! Touchstone port 1 = CST MWS port 1 ("")
# GHz S MA R 50
0                              1              -0
0.004                  0.9999985     -0.06970543
0.008                  0.9999943      -0.1394035
0.012                  0.9999873      -0.2090867
0.016                  0.9999776      -0.2787479
0.02                   0.9999653      -0.3483796
0.024                    0.99995      -0.4179748
0.028                  0.9999321      -0.4875263
0.032                  0.9999116      -0.5570272
0.036                  0.9998885      -0.6264705
0.04                    0.999863      -0.6958497
0.044                   0.999835      -0.7651584
0.048                  0.9998045      -0.8343901
0.052                  0.9997719      -0.9035389
0.056                  0.9997371      -0.9725987
0.06                      0.9997       -1.041564
0.064                  0.9996611        -1.11043
0.068                  0.9996201       -1.179192
0.072                  0.9995772       -1.247843
0.076                  0.9995327       -1.316381
0.08                   0.9994868       -1.384801
0.084                  0.9994392       -1.453099
0.088                  0.9993902       -1.521272
0.092                  0.9993401       -1.589317
0.096                   0.999289        -1.65723
0.1                    0.9992367       -1.725012
0.104                  0.9991837       -1.792658
0.108                    0.99913       -1.860167
0.112                  0.9990759       -1.927538
0.116                  0.9990212       -1.994772
0.12                   0.9989663       -2.061866
0.124                  0.9989112       -2.128823
0.128                  0.9988562       -2.195641
0.132                  0.9988014       -2.262322
0.136                  0.9987468       -2.328869
0.14                   0.9986927        -2.39528
0.144                  0.9986392       -2.461561
0.148                  0.9985865       -2.527713
0.152                  0.9985345       -2.593739
0.156                  0.9984835       -2.659643
0.16                   0.9984338       -2.725427
0.164                  0.9983853       -2.791098
0.168                  0.9983381        -2.85666
0.172                  0.9982925       -2.922116
0.176                  0.9982485       -2.987473
0.18                   0.9982063       -3.052736
0.184                  0.9981659       -3.117912
0.188                  0.9981275       -3.183007
0.192                  0.9980912       -3.248027
0.196                  0.9980569        -3.31298
0.2                    0.9980251       -3.377872
0.204                  0.9979955       -3.442711
0.208                  0.9979683       -3.507506
0.212                  0.9979436       -3.572263
0.216                  0.9979216       -3.636992
0.22                    0.997902         -3.7017
0.224                  0.9978852       -3.766395
0.228                  0.9978712       -3.831088
0.232                  0.9978597       -3.895788
0.236                  0.9978512       -3.960501
0.24                   0.9978454       -4.025237
0.244                  0.9978424       -4.090007
0.248                  0.9978424       -4.154818
0.252                   0.997845       -4.219682
0.256                  0.9978507       -4.284605
0.26                    0.997859       -4.349597
0.264                  0.9978702       -4.414668
0.268                  0.9978841       -4.479827
0.272                  0.9979008       -4.545084
0.276                  0.9979202       -4.610445
0.28                   0.9979422       -4.675921
0.284                  0.9979668        -4.74152
0.288                  0.9979939       -4.807251
0.292                  0.9980235       -4.873121
0.296                  0.9980554       -4.939139
0.3                    0.9980897       -5.005313
0.304                  0.9981261        -5.07165
0.308                  0.9981647       -5.138157
0.312                  0.9982052       -5.204842
0.316                  0.9982477       -5.271712
0.32                    0.998292       -5.338773
0.324                  0.9983379       -5.406031
0.328                  0.9983856        -5.47349
0.332                  0.9984345       -5.541159
0.336                  0.9984847       -5.609041
0.34                    0.998536       -5.677142
0.344                  0.9985885       -5.745463
0.348                  0.9986419       -5.814011
0.352                   0.998696       -5.882789
0.356                  0.9987506       -5.951801
0.36                   0.9988058       -6.021047
0.364                  0.9988613       -6.090532
0.368                   0.998917       -6.160256
0.372                  0.9989726       -6.230222
0.376                  0.9990281       -6.300429
0.38                   0.9990834       -6.370879
0.384                  0.9991381       -6.441573
0.388                  0.9991924       -6.512509
0.392                  0.9992459       -6.583686
0.396                  0.9992985       -6.655104
0.4                    0.9993503       -6.726762
0.404                  0.9994008       -6.798656
0.408                  0.9994498       -6.870786
0.412                  0.9994976       -6.943148
0.416                  0.9995437       -7.015738
0.42                   0.9995883       -7.088554
0.424                  0.9996309        -7.16159
0.428                  0.9996717       -7.234845
0.432                  0.9997102       -7.308313
0.436                  0.9997467       -7.381989
0.44                    0.999781       -7.455865
0.444                  0.9998128       -7.529941
0.448                  0.9998421       -7.604207
0.452                  0.9998689       -7.678658
0.456                  0.9998931       -7.753287
0.46                   0.9999145        -7.82809
0.464                  0.9999331       -7.903058
0.468                  0.9999488       -7.978185
0.472                  0.9999618       -8.053464
0.476                  0.9999716       -8.128886
0.48                   0.9999785       -8.204445
0.484                  0.9999824       -8.280134
0.488                  0.9999831       -8.355943
0.492                   0.999981       -8.431869
0.496                  0.9999756       -8.507902
0.5                    0.9999673        -8.58403
0.504                  0.9999556       -8.660251
0.508                  0.9999411       -8.736556
0.512                  0.9999233       -8.812937
0.516                  0.9999028       -8.889383
0.52                   0.9998791       -8.965893
0.524                  0.9998526       -9.042454
0.528                   0.999823       -9.119063
0.532                  0.9997907       -9.195711
0.536                  0.9997556       -9.272389
0.54                   0.9997178       -9.349094
0.544                  0.9996774       -9.425818
0.548                  0.9996343       -9.502554
0.552                   0.999589       -9.579297
0.556                  0.9995413       -9.656042
0.56                   0.9994913       -9.732782
0.564                  0.9994392       -9.809511
0.568                  0.9993851       -9.886228
0.572                  0.9993292       -9.962925
0.576                  0.9992714        -10.0396
0.58                    0.999212       -10.11625
0.584                  0.9991511       -10.19287
0.588                   0.999089       -10.26945
0.592                  0.9990255         -10.346
0.596                   0.998961       -10.42252
0.6                    0.9988957       -10.49899
0.604                  0.9988295       -10.57543
0.608                  0.9987627       -10.65183
0.612                  0.9986955       -10.72818
0.616                  0.9986279        -10.8045
0.62                   0.9985602       -10.88077
0.624                  0.9984927       -10.95701
0.628                  0.9984252       -11.03321
0.632                  0.9983581       -11.10937
0.636                  0.9982914       -11.18551
0.64                   0.9982255       -11.26161
0.644                  0.9981605       -11.33769
0.648                  0.9980963       -11.41375
0.652                  0.9980331       -11.48979
0.656                  0.9979713       -11.56582
0.66                    0.997911       -11.64184
0.664                  0.9978521       -11.71787
0.668                  0.9977949        -11.7939
0.672                  0.9977395       -11.86994
0.676                  0.9976862         -11.946
0.68                   0.9976349       -12.02209
0.684                  0.9975857       -12.09822
0.688                  0.9975389       -12.17438
0.692                  0.9974944       -12.25061
0.696                  0.9974525       -12.32689
0.7                    0.9974132       -12.40324
0.704                  0.9973766       -12.47968
0.708                  0.9973426        -12.5562
0.712                  0.9973116       -12.63283
0.716                  0.9972835       -12.70956
0.72                   0.9972583       -12.78642
0.724                  0.9972362       -12.86341
0.728                  0.9972169       -12.94054
0.732                   0.997201       -13.01782
0.736                  0.9971879       -13.09528
0.74                    0.997178       -13.17291
0.744                  0.9971712       -13.25072
0.748                  0.9971678       -13.32874
0.752                  0.9971672       -13.40697
0.756                  0.9971698       -13.48542
0.76                   0.9971755        -13.5641
0.764                  0.9971841       -13.64304
0.768                  0.9971957       -13.72222
0.772                  0.9972102       -13.80168
0.776                  0.9972275       -13.88141
0.78                   0.9972478       -13.96144
0.784                  0.9972706       -14.04176
0.788                  0.9972961        -14.1224
0.792                  0.9973241       -14.20336
0.796                  0.9973546       -14.28465
0.8                    0.9973873       -14.36629
0.804                  0.9974222       -14.44827
0.808                  0.9974592       -14.53061
0.812                   0.997498       -14.61333
0.816                  0.9975388       -14.69642
0.82                   0.9975811        -14.7799
0.824                  0.9976248       -14.86377
0.828                    0.99767       -14.94804
0.832                  0.9977164       -15.03272
0.836                  0.9977637       -15.11781
0.84                    0.997812       -15.20333
0.844                  0.9978608       -15.28927
0.848                  0.9979101       -15.37564
0.852                  0.9979598       -15.46245
0.856                  0.9980096        -15.5497
0.86                   0.9980594       -15.63739
0.864                  0.9981089       -15.72553
0.868                  0.9981581       -15.81412
0.872                  0.9982066       -15.90316
0.876                  0.9982542       -15.99266
0.88                   0.9983009       -16.08261
0.884                  0.9983465       -16.17301
0.888                  0.9983906       -16.26387
0.892                  0.9984334       -16.35518
0.896                  0.9984742       -16.44695
0.9                    0.9985132       -16.53917
0.904                  0.9985502       -16.63185
0.908                  0.9985848       -16.72497
0.912                  0.9986169       -16.81854
0.916                  0.9986467       -16.91254
0.92                   0.9986735       -17.00699
0.924                  0.9986975       -17.10187
0.928                  0.9987184       -17.19719
0.932                  0.9987361       -17.29292
0.936                  0.9987505       -17.38908
0.94                   0.9987614       -17.48566
0.944                  0.9987687       -17.58264
0.948                  0.9987723       -17.68002
0.952                  0.9987721        -17.7778
0.956                  0.9987679       -17.87597
0.96                   0.9987597       -17.97451
0.964                  0.9987473       -18.07344
0.968                  0.9987308       -18.17273
0.972                  0.9987101       -18.27237
0.976                   0.998685       -18.37237
0.98                   0.9986557       -18.47271
0.984                  0.9986218       -18.57338
0.988                  0.9985835       -18.67438
0.992                  0.9985409        -18.7757
0.996                  0.9984936       -18.87733
1                       0.998442       -18.97925
1.004                  0.9983859       -19.08147
1.008                  0.9983255         -19.184
1.012                  0.9982605       -19.28678
1.016                  0.9981911        -19.3898
1.02                   0.9981174       -19.49311
1.024                  0.9980395       -19.59668
1.028                  0.9979573       -19.70049
1.032                   0.997871       -19.80453
1.036                  0.9977806       -19.90882
1.04                   0.9976863       -20.01332
1.044                  0.9975882       -20.11801
1.048                  0.9974863       -20.22295
1.052                  0.9973808       -20.32811
1.056                  0.9972718        -20.4334
1.06                   0.9971593       -20.53894
1.064                  0.9970437       -20.64467
1.068                   0.996925       -20.75057
1.072                  0.9968035       -20.85668
1.076                  0.9966791       -20.96296
1.08                    0.996552        -21.0694
1.084                  0.9964227       -21.17603
1.088                   0.996291       -21.28283
1.092                  0.9961574       -21.38979
1.096                  0.9960217       -21.49695
1.1                    0.9958846       -21.60429
1.104                  0.9957457       -21.71179
1.108                  0.9956057       -21.81946
1.112                  0.9954645        -21.9273
1.116                  0.9953224       -22.03538
1.12                   0.9951796        -22.1436
1.124                  0.9950364       -22.25201
1.128                  0.9948926       -22.36062
1.132                  0.9947489       -22.46943
1.136                  0.9946052       -22.57845
1.14                   0.9944619       -22.68769
1.144                   0.994319       -22.79715
1.148                  0.9941767       -22.90683
1.152                  0.9940354       -23.01676
1.156                   0.993895       -23.12694
1.16                   0.9937558       -23.23738
1.164                   0.993618       -23.34809
1.168                  0.9934817       -23.45908
1.172                  0.9933472       -23.57036
1.176                  0.9932145       -23.68195
1.18                   0.9930838       -23.79387
1.184                  0.9929553       -23.90612
1.188                   0.992829       -24.01871
1.192                  0.9927051       -24.13168
1.196                  0.9925837       -24.24502
1.2                    0.9924649       -24.35876
1.204                  0.9923487       -24.47291
1.208                  0.9922355       -24.58749
1.212                  0.9921249       -24.70252
1.216                  0.9920174       -24.81801
1.22                   0.9919128       -24.93398
1.224                  0.9918112       -25.05046
1.228                  0.9917127       -25.16745
1.232                  0.9916171       -25.28499
1.236                  0.9915246       -25.40308
1.24                   0.9914351       -25.52175
1.244                  0.9913486       -25.64101
1.248                  0.9912652        -25.7609
1.252                  0.9911845       -25.88141
1.256                  0.9911069       -26.00258
1.26                   0.9910319       -26.12443
1.264                  0.9909597       -26.24697
1.268                  0.9908899       -26.37023
1.272                  0.9908229       -26.49422
1.276                  0.9907582       -26.61896
1.28                   0.9906955       -26.74449
1.284                   0.990635       -26.87079
1.288                  0.9905764       -26.99791
1.292                  0.9905196       -27.12586
1.296                  0.9904643       -27.25466
1.3                    0.9904104       -27.38433
1.304                  0.9903576       -27.51487
1.308                  0.9903058       -27.64632
1.312                  0.9902546       -27.77869
1.316                  0.9902039       -27.91199
1.32                   0.9901533       -28.04624
1.324                  0.9901029       -28.18145
1.328                  0.9900522       -28.31764
1.332                  0.9900008       -28.45483
1.336                  0.9899486       -28.59303
1.34                   0.9898952       -28.73225
1.344                  0.9898405        -28.8725
1.348                   0.989784        -29.0138
1.352                  0.9897253       -29.15617
1.356                  0.9896645       -29.29959
1.36                   0.9896009        -29.4441
1.364                  0.9895344        -29.5897
1.368                  0.9894646       -29.73639
1.372                  0.9893912       -29.88419
1.376                  0.9893137        -30.0331
1.38                   0.9892322       -30.18314
1.384                  0.9891458        -30.3343
1.388                  0.9890547       -30.48658
1.392                  0.9889584       -30.64001
1.396                  0.9888565       -30.79458
1.4                    0.9887486       -30.95029
1.404                  0.9886347       -31.10715
1.408                  0.9885143       -31.26516
1.412                   0.988387       -31.42432
1.416                  0.9882525       -31.58464
1.42                   0.9881108        -31.7461
1.424                  0.9879613       -31.90873
1.428                  0.9878037        -32.0725
1.432                  0.9876383       -32.23741
1.436                   0.987464       -32.40349
1.44                   0.9872809       -32.57071
1.444                   0.987089       -32.73907
1.448                  0.9868877       -32.90857
1.452                  0.9866769       -33.07922
1.456                  0.9864563         -33.251
1.46                   0.9862258       -33.42391
1.464                  0.9859852       -33.59795
1.468                  0.9857344       -33.77311
1.472                  0.9854729       -33.94939
1.476                   0.985201       -34.12678
1.48                   0.9849181       -34.30528
1.484                  0.9846243       -34.48488
1.488                  0.9843194       -34.66558
1.492                  0.9840033       -34.84737
1.496                  0.9836759       -35.03025
1.5                    0.9833372       -35.21422
1.504                   0.982987       -35.39926
1.508                  0.9826253       -35.58537
1.512                  0.9822522       -35.77255
1.516                  0.9818673        -35.9608
1.52                    0.981471       -36.15011
1.524                   0.981063       -36.34047
1.528                  0.9806435       -36.53189
1.532                  0.9802122       -36.72436
1.536                  0.9797694       -36.91788
1.54                   0.9793153       -37.11244
1.544                  0.9788497       -37.30806
1.548                  0.9783726       -37.50471
1.552                  0.9778842       -37.70242
