! TOUCHSTONE file generated by CST MICROWAVE STUDIO
! Date and time: Thu Jun  9 09:13:14 2022
! Project name: AppElm_antenne_patch_Alumina.cst
! Parameters = {L=30.5; W=41.8; e=0.035; h=1.6; lambda=0.190476; ls=90; w0=1.008; w1=0.373; ws=90; y0=14; y1=10}
! Header version: 2018
! Port assignment regex: !\s*Touchstone port\s*([0-9]+)\s*=\s*(CST MWS port|CST DS port)\s*([0-9]+|Zmin|Zmax)\s*\(\"(.*)\"\)(\s*mode\s*([0-9]+))?.*
! Touchstone port assignment:
! Touchstone port 1 = CST MWS port 1 ("")
# GHz S MA R 50
0                      0.9798205              -0
0.004                  0.9809343       -10.36422
0.008                  0.9841285       -20.61916
0.012                  0.9889849       -30.66232
0.016                   0.994878       -40.40343
0.02                    1.001067       -49.76744
0.024                   1.006796       -58.69524
0.028                   1.011396       -67.14259
0.032                   1.014357       -75.07815
0.036                    1.01539       -82.48148
0.04                    1.014453       -89.34182
0.044                   1.011747       -95.65744
0.048                   1.007691       -101.4363
0.052                   1.002864       -106.6968
0.056                  0.9979319       -111.4694
0.06                   0.9935576       -115.7961
0.064                  0.9903098       -119.7304
0.068                  0.9885823       -123.3334
0.072                  0.9885398       -126.6699
0.076                  0.9900989       -129.8023
0.08                   0.9929491       -132.7846
0.084                  0.9966083       -135.6586
0.088                   1.000503       -138.4511
0.092                   1.004054       -141.1738
0.096                   1.006763       -143.8249
0.1                     1.008277       -146.3928
0.104                    1.00843       -148.8596
0.108                    1.00726       -151.2056
0.112                   1.004998       -153.4132
0.116                   1.002027       -155.4711
0.12                   0.9988283       -157.3764
0.124                  0.9959026       -159.1369
0.128                  0.9936977       -160.7707
0.132                  0.9925369       -162.3042
0.136                  0.9925705       -163.7691
0.14                   0.9937542       -165.1976
0.144                   0.995862       -166.6175
0.148                  0.9985285        -168.049
0.152                   1.001311       -169.5019
0.156                   1.003765       -170.9752
0.16                     1.00551       -172.4582
0.164                   1.006289       -173.9335
0.168                   1.006005       -175.3795
0.172                   1.004729       -176.7745
0.176                   1.002688       -178.1002
0.18                    1.000228       -179.3448
0.184                   0.997758         179.495
0.188                  0.9956833         178.413
0.192                   0.994339         177.394
0.196                  0.9939351        176.4165
0.2                     0.994522        175.4559
0.204                  0.9959839        174.4886
0.208                  0.9980614        173.4961
0.212                   1.000398        172.4675
0.216                   1.002602        171.4014
0.22                    1.004311        170.3049
0.224                   1.005251         169.193
0.228                   1.005279        168.0848
0.232                   1.004402        167.0012
0.236                   1.002778         165.961
0.24                    1.000686        164.9781
0.244                  0.9984816        164.0588
0.248                  0.9965379         163.201
0.252                  0.9951819        162.3937
0.256                  0.9946397        161.6195
0.26                   0.9949959         160.857
0.264                   0.996181        160.0846
0.268                  0.9979844        159.2844
0.272                   1.000092        158.4454
0.276                   1.002143        157.5646
0.28                    1.003791        156.6479
0.284                    1.00476        155.7081
0.288                   1.004893        154.7632
0.292                   1.004173        153.8332
0.296                   1.002727        152.9366
0.3                     1.000807        152.0877
0.304                  0.9987405        151.2938
0.308                  0.9968847        150.5541
0.312                  0.9955579        149.8594
0.316                  0.9949884        149.1938
0.32                   0.9952712        148.5374
0.324                  0.9963532        147.8694
0.328                  0.9980422        147.1727
0.332                   1.000042         146.436
0.336                   1.002007        145.6563
0.34                    1.003597        144.8386
0.344                   1.004543        143.9954
0.348                   1.004685        143.1442
0.352                      1.004        142.3043
0.356                    1.00261        141.4941
0.36                    1.000754        140.7278
0.364                   0.998755        140.0128
0.368                  0.9969603        139.3484
0.372                  0.9956831         138.726
0.376                  0.9951471        138.1299
0.38                   0.9954453        137.5405
0.384                  0.9965245        136.9378
0.388                  0.9981931        136.3047
0.392                   1.000158        135.6307
0.396                   1.002075        134.9126
0.4                     1.003612        134.1561
0.404                   1.004502        133.3736
0.408                   1.004592        132.5827
0.412                   1.003868        131.8027
0.416                   1.002454        131.0519
0.42                    1.000596         130.344
0.424                  0.9986181        129.6862
0.428                  0.9968669        129.0772
0.432                   0.995651         128.508
0.436                  0.9951859        127.9625
0.44                   0.9955547        127.4211
0.444                  0.9966921        126.8638
0.448                  0.9983962         126.274
0.452                   1.000366        125.6415
0.456                   1.002256        124.9644
0.46                    1.003733        124.2487
0.464                   1.004539        123.5078
0.468                   1.004534        122.7596
0.472                   1.003717        122.0238
0.476                   1.002229        121.3184
0.48                    1.000328        120.6567
0.484                  0.9983482        120.0451
0.488                  0.9966384        119.4814
0.492                  0.9955028        118.9555
0.496                  0.9951454        118.4505
0.5                    0.9956316        117.9463
0.504                  0.9968765        117.4228
0.508                  0.9986593        116.8639
0.512                   1.000664        116.2604
0.516                   1.002537        115.6113
0.52                    1.003949         114.924
0.524                   1.004649        114.2129
0.528                   1.004514        113.4969
0.532                   1.003565        112.7958
0.536                   1.001965        112.1277
0.54                   0.9999946        111.5051
0.544                  0.9979993        110.9333
0.548                  0.9963341        110.4089
0.552                  0.9952971        109.9202
0.556                  0.9950767        109.4491
0.56                   0.9957149        108.9748
0.564                  0.9970999        108.4773
0.568                  0.9989855        107.9408
0.572                   1.001037        107.3575
0.576                   1.002889        106.7277
0.58                    1.004215        106.0606
0.584                   1.004778        105.3718
0.588                   1.004476        104.6813
0.592                   1.003358        104.0095
0.596                   1.001617         103.374
0.6                    0.9995573        102.7867
0.604                  0.9975428        102.2514
0.608                  0.9959333        101.7628
0.612                  0.9950196        101.3075
0.616                  0.9949691         100.866
0.62                   0.9957947        100.4165
0.624                  0.9973511        99.93904
0.628                  0.9993616        99.41869
0.632                   1.001468        98.84884
0.636                   1.003296         98.2319
0.64                    1.004519         97.5788
0.644                   1.004919        96.90701
0.648                   1.004421        96.23748
0.652                   1.003107         95.5911
0.656                   1.001206        94.98526
0.66                   0.9990502        94.43065
0.664                  0.9970233        93.92926
0.668                  0.9954899        93.47377
0.672                  0.9947288        93.04859
0.676                   0.994882        92.63266
0.68                   0.9959268        92.20327
0.684                  0.9976786        91.74038
0.688                  0.9998253        91.23027
0.692                   1.001984        90.66805
0.696                   1.003769        90.05832
0.7                      1.00486        89.41425
0.704                   1.005061        88.75515
0.708                    1.00433        88.10322
0.712                   1.002789        87.47982
0.716                   1.000706        86.90174
0.72                   0.9984476         86.3783
0.724                  0.9964163        85.90935
0.728                  0.9949794         85.4851
0.732                  0.9944009        85.08758
0.736                  0.9947907         84.6939
0.74                   0.9960841        84.28047
0.744                  0.9980517        83.82749
0.748                   1.000342        83.32258
0.752                   1.002546        82.76298
0.756                   1.004268        82.15582
0.76                      1.0052        81.51673
0.764                   1.005169        80.86713
0.768                   1.004174        80.23046
0.772                   1.002383        79.62838
0.776                   1.000109        79.07693
0.78                   0.9977533        78.58368
0.784                  0.9957387        78.14597
0.788                  0.9944322        77.75114
0.792                  0.9940763        77.37857
0.796                  0.9947428        77.00345
0.8                    0.9963177        76.60141
0.804                  0.9985213        76.15316
0.808                   1.000959        75.64802
0.812                   1.003195        75.08573
0.816                   1.004827        74.47634
0.82                     1.00556        73.83823
0.824                   1.005256        73.19502
0.828                   1.003959        72.57145
0.832                    1.00189        71.98934
0.836                  0.9994102         71.4637
0.84                   0.9969599        70.99992
0.844                  0.9949803        70.59242
0.848                  0.9938345        70.22534
0.852                  0.9937379        69.87514
0.856                  0.9947162          69.515
0.86                   0.9965991        69.11991
0.864                  0.9990508        68.67143
0.868                   1.001632        68.16092
0.872                   1.003878        67.59114
0.876                   1.005385        66.97531
0.88                    1.005876        66.33491
0.884                   1.005255         65.6958
0.888                   1.003619        65.08406
0.892                   1.001248        64.52142
0.896                  0.9985571        64.02153
0.9                    0.9960265        63.58716
0.904                  0.9941153        63.20931
0.908                  0.9931769        62.86847
0.912                   0.993392        62.53793
0.916                  0.9947316        62.18888
0.92                    0.996961        61.79582
0.924                  0.9996823        61.34147
0.928                   1.002407        60.81984
0.932                   1.004646          60.237
0.936                   1.005992        59.60993
0.94                    1.006198        58.96335
0.944                   1.005213        58.32563
0.948                   1.003198        57.72401
0.952                   1.000499        57.17999
0.956                  0.9975909        56.70544
0.96                   0.9949943        56.30003
0.964                  0.9931838        55.95083
0.968                  0.9924983        55.63419
0.972                  0.9930751           55.32
0.976                   0.994821        54.97741
0.98                   0.9974277        54.58075
0.984                   1.000429        54.11433
0.988                   1.003285        53.57523
0.992                   1.005481        52.97351
0.996                   1.006615        52.33024
1                       1.006474        51.67375
1.004                   1.005064        51.03501
1.008                   1.002617        50.44243
1.012                  0.9995553        49.91699
1.016                  0.9964184        49.46832
1.02                   0.9937717        49.09238
1.024                  0.9921023        48.77163
1.028                  0.9917276        48.47776
1.032                  0.9927313        48.17694
1.036                  0.9949446        47.83622
1.04                   0.9979756        47.42999
1.044                   1.001281        46.94473
1.048                   1.004267        46.38116
1.052                   1.006392         45.7539
1.056                   1.007267        45.08863
1.06                    1.006717        44.41773
1.064                   1.004818        43.77495
1.068                   1.001886        43.18984
1.072                  0.9984269        42.68258
1.076                  0.9950542        42.26003
1.08                   0.9923796        41.91373
1.084                  0.9909017        41.62075
1.088                  0.9909077        41.34747
1.092                  0.9924162        41.05589
1.096                  0.9951688        40.71098
1.1                    0.9986764        40.28753
1.104                    1.00231        39.77467
1.108                   1.005415        39.17758
1.112                   1.007426        38.51616
1.116                   1.007968         37.8214
1.12                    1.006918        37.13024
1.124                   1.004433        36.47954
1.128                   1.000927        35.90006
1.132                  0.9970055        35.41091
1.136                  0.9933658        35.01552
1.14                   0.9906728        34.70019
1.144                  0.9894341        34.43548
1.148                  0.9898997        34.18159
1.152                  0.9920083        33.89565
1.156                  0.9953942        33.54043
1.16                   0.9994548        33.09138
1.164                   1.003461        32.54095
1.168                   1.006689        31.89965
1.172                   1.008547        31.19357
1.176                    1.00868        30.45996
1.18                    1.007027        29.74106
1.184                   1.003842        29.07739
1.188                  0.9996573        28.50111
1.192                  0.9951968        28.02996
1.196                  0.9912591        27.66329
1.2                    0.9885716        27.38077
1.204                  0.9876515        27.14515
1.208                  0.9887006        26.90889
1.212                  0.9915587        26.62344
1.216                  0.9957291        26.24892
1.22                     1.00047        25.76177
1.224                   1.004929        25.15864
1.228                   1.008301        24.45641
1.232                   1.009961        23.68883
1.236                   1.009574        22.90074
1.24                     1.00716        22.14092
1.244                   1.003088        21.45465
1.248                  0.9980372          20.876
1.252                  0.9928824         20.4213
1.256                  0.9885506        20.08479
1.26                   0.9858518        19.83788
1.264                  0.9853186        19.63322
1.268                  0.9870944        19.41341
1.272                  0.9908953        19.12243
1.276                  0.9960573        18.71695
1.28                    1.001661        18.17448
1.284                   1.006698        17.49688
1.288                   1.010249        16.70913
1.292                   1.011645        15.85455
1.296                   1.010575        14.98769
1.3                     1.007147        14.16618
1.304                   1.001886        13.44181
1.308                  0.9956592        12.85188
1.312                  0.9895451        12.41147
1.316                  0.9846513        12.10845
1.32                   0.9819087        11.90321
1.324                  0.9818827        11.73444
1.328                  0.9846467        11.53074
1.332                  0.9897529        11.22525
1.336                  0.9963116         10.7693
1.34                    1.003156        10.14132
1.344                   1.009053        9.349704
1.348                   1.012918        8.430033
1.352                   1.013998        7.438515
1.356                   1.011995        6.443363
1.36                    1.007129        5.515045
1.364                   1.000124        4.715899
1.368                  0.9921141        4.089512
1.372                  0.9844805        3.650986
1.376                   0.978615        3.380382
1.38                   0.9756576        3.222352
1.384                  0.9762543        3.094273
1.388                  0.9804025        2.902368
1.392                  0.9874278        2.561621
1.396                  0.9961042        2.013365
1.4                     1.004883        1.235657
1.404                   1.012169         0.24513
1.408                   1.016588      -0.9079456
1.412                   1.017214       -2.148501
1.416                   1.013716       -3.387243
1.42                    1.006436       -4.532133
1.424                   0.996378       -5.500986
1.428                  0.9850985       -6.235379
1.432                  0.9744954       -6.714889
1.436                  0.9664982       -6.968276
1.44                   0.9626935       -7.076191
1.444                  0.9639702       -7.160348
1.448                  0.9702819       -7.359131
1.452                  0.9806126       -7.796685
1.456                  0.9931578       -8.556618
1.46                     1.00566        -9.66832
1.464                   1.015803       -11.10677
1.468                   1.021578       -12.80136
1.472                    1.02158       -14.64815
1.476                   1.015226       -16.52236
1.48                    1.002877       -18.29073
1.484                  0.9858814       -19.82582
1.488                  0.9665012       -21.02511
1.492                  0.9476903       -21.83641
1.496                  0.9326804       -22.28658
1.5                    0.9243735       -22.50202
1.504                  0.9246413       -22.70367
1.508                  0.9337531       -23.16634
1.512                  0.9501695       -24.15449
1.516                  0.9707856       -25.86549
1.52                   0.9914908       -28.40481
1.524                   1.007809       -31.79481
1.528                   1.015436       -36.00111
1.532                   1.010618       -40.96102
1.536                  0.9903776       -46.60617
1.54                   0.9526381       -52.87873
1.544                  0.8962752       -59.74468
1.548                  0.8211327       -67.20948
1.552                  0.7280153       -75.34639
