! TOUCHSTONE file generated by CST MICROWAVE STUDIO
! Date and time: Thu Jun  9 09:13:13 2022
! Project name: AppElm_antenne_patch_Alumina.cst
! Parameters = {L=30.5; W=41.8; e=0.035; h=1.6; lambda=0.190476; ls=90; w0=0.952; w1=0.373; ws=90; y0=14; y1=10}
! Header version: 2018
! Port assignment regex: !\s*Touchstone port\s*([0-9]+)\s*=\s*(CST MWS port|CST DS port)\s*([0-9]+|Zmin|Zmax)\s*\(\"(.*)\"\)(\s*mode\s*([0-9]+))?.*
! Touchstone port assignment:
! Touchstone port 1 = CST MWS port 1 ("")
# GHz S MA R 50
0                      0.9799095              -0
0.004                  0.9810132       -10.36501
0.008                  0.9841787       -20.62093
0.012                  0.9889901       -30.66546
0.016                  0.9948269       -40.40842
0.02                    1.000953       -49.77481
0.024                    1.00662       -58.70551
0.028                   1.011163       -67.15626
0.032                    1.01408        -75.0957
0.036                   1.015086       -82.50345
0.04                    1.014142       -89.36875
0.044                   1.011451       -95.69011
0.048                   1.007431       -101.4756
0.052                   1.002659       -106.7441
0.056                  0.9977956        -111.526
0.06                   0.9934959       -115.8637
0.064                  0.9903201       -119.8105
0.068                  0.9886529       -123.4275
0.072                  0.9886516       -126.7791
0.076                  0.9902278        -129.927
0.08                   0.9930691       -132.9249
0.084                  0.9966958       -135.8139
0.088                   1.000539       -138.6203
0.092                   1.004028       -141.3554
0.096                   1.006675       -144.0174
0.1                     1.008134       -146.5949
0.104                   1.008249       -149.0701
0.108                   1.007063       -151.4237
0.112                    1.00481       -153.6389
0.116                   1.001874       -155.7045
0.12                   0.9987276       -157.6185
0.124                  0.9958664       -159.3889
0.128                  0.9937274       -161.0339
0.132                  0.9926237         -162.58
0.136                  0.9926961       -164.0586
0.14                   0.9938945       -165.5012
0.144                  0.9959909       -166.9352
0.148                  0.9986217       -168.3801
0.152                   1.001351        -169.845
0.156                   1.003743       -171.3289
0.16                    1.005428       -172.8211
0.164                   1.006159       -174.3041
0.168                   1.005847       -175.7568
0.172                   1.004567        -177.158
0.176                   1.002548         -178.49
0.18                    1.000132       -179.7415
0.184                  0.9977224        179.0902
0.188                  0.9957128        177.9987
0.192                  0.9944281        176.9688
0.196                  0.9940682        175.9793
0.2                    0.9946759        175.0059
0.204                   0.996132        174.0258
0.208                  0.9981784         173.021
0.212                   1.000464        171.9813
0.216                   1.002606        170.9054
0.22                    1.004252        169.8009
0.224                   1.005139        168.6823
0.228                   1.005133        167.5686
0.232                   1.004247        166.4801
0.236                    1.00264         165.435
0.24                    1.000588        164.4465
0.244                    0.99844        163.5207
0.248                  0.9965591        162.6548
0.252                  0.9952618        161.8382
0.256                  0.9947629        161.0534
0.26                   0.9951398        160.2795
0.264                  0.9963194        159.4957
0.268                  0.9980914        158.6847
0.272                   1.000148        157.8359
0.276                   1.002137        156.9469
0.28                    1.003721        156.0234
0.284                   1.004638        155.0785
0.288                   1.004737        154.1295
0.292                    1.00401        153.1961
0.296                   1.002583         152.296
0.3                     1.000705         151.443
0.304                  0.9986972        150.6439
0.308                  0.9969061        149.8975
0.312                  0.9956397        149.1948
0.316                  0.9951147          148.52
0.32                    0.995419        147.8535
0.324                  0.9964953        147.1755
0.328                  0.9981531        146.4692
0.332                   1.000102        145.7242
0.336                   1.002004        144.9376
0.34                    1.003533        144.1148
0.344                   1.004427        143.2678
0.348                   1.004538        142.4139
0.352                   1.003847        141.5719
0.356                   1.002478        140.7596
0.36                    1.000666        139.9904
0.364                  0.9987262        139.2714
0.368                   0.996996        138.6017
0.372                  0.9957774        137.9724
0.376                  0.9952833        137.3683
0.38                   0.9955994        136.7702
0.384                  0.9966689        136.1589
0.388                  0.9983022        135.5178
0.392                   1.000212         134.837
0.396                   1.002065        134.1137
0.4                     1.003539        133.3537
0.404                   1.004378        132.5691
0.408                   1.004439        131.7771
0.412                   1.003712        130.9966
0.416                   1.002322        130.2451
0.42                    1.000511        129.5358
0.424                  0.9985944        128.8753
0.428                  0.9969087        128.2622
0.432                  0.9957511        127.6874
0.436                  0.9953267        127.1353
0.44                   0.9957109        126.5866
0.444                  0.9968358        126.0221
0.448                  0.9985023        125.4258
0.452                   1.000416        124.7882
0.456                    1.00224        124.1075
0.46                    1.003655        123.3899
0.464                   1.004413        122.6485
0.468                   1.004382        121.9007
0.472                   1.003565        121.1658
0.476                   1.002105        120.4611
0.48                    1.000253        119.7993
0.484                  0.9983366        119.1863
0.488                  0.9966924        118.6197
0.492                  0.9956134        118.0894
0.496                  0.9952931         117.579
0.5                    0.9957902        117.0688
0.504                  0.9970176        116.5395
0.508                  0.9987578        115.9757
0.512                   1.000702        115.3686
0.516                   1.002508        114.7176
0.52                    1.003856        114.0301
0.524                   1.004509        113.3202
0.528                    1.00435        112.6063
0.532                   1.003405        111.9077
0.536                   1.001837        111.2417
0.54                   0.9999196        110.6204
0.544                  0.9979901        110.0485
0.548                   0.996392        109.5224
0.552                  0.9954115        109.0305
0.556                  0.9952266        108.5553
0.56                   0.9958731        108.0764
0.564                  0.9972378        107.5744
0.568                  0.9990783        107.0345
0.572                   1.001068        106.4491
0.576                   1.002853        105.8191
0.58                    1.004118        105.1533
0.584                   1.004636        104.4673
0.588                   1.004315        103.7803
0.592                   1.003207        103.1123
0.596                   1.001502        102.4803
0.6                    0.9994996        101.8954
0.604                  0.9975538        101.3609
0.608                  0.9960123        100.8717
0.612                  0.9951536        100.4142
0.616                  0.9951353        99.96957
0.62                   0.9959644        99.51662
0.624                  0.9974949        99.03595
0.628                  0.9994547        98.51351
0.632                   1.001495        97.94308
0.636                   1.003251        97.32732
0.64                    1.004411        96.67712
0.644                   1.004767        96.00957
0.648                   1.004252        95.34512
0.652                    1.00295          94.704
0.656                   1.001088        94.10289
0.66                   0.9989921        93.55187
0.664                  0.9970359        93.05254
0.668                  0.9955705        92.59746
0.672                  0.9948631        92.17127
0.676                  0.9950459        91.75334
0.68                   0.9960904        91.32167
0.684                  0.9978124        90.85696
0.688                  0.9999052        90.34617
0.692                   1.001995        89.78487
0.696                   1.003708        89.17788
0.7                     1.004739        88.53822
0.704                     1.0049        87.88486
0.708                   1.004157        87.23943
0.712                   1.002635        86.62256
0.716                   1.000598        86.05037
0.72                   0.9984061        85.53152
0.724                  0.9964505        85.06555
0.728                  0.9950851        84.64251
0.732                   0.994561        84.24474
0.736                  0.9949787        83.84982
0.74                   0.9962684        83.43495
0.744                  0.9982016         82.9811
0.748                   1.000433        82.47657
0.752                   1.002563        81.91906
0.756                    1.00421        81.31586
0.76                    1.005078        80.68249
0.764                   1.005006        80.03991
0.768                      1.004        79.41097
0.772                    1.00223        78.81659
0.776                   1.000005        78.27212
0.78                   0.9977172        77.78444
0.784                  0.9957786        77.35059
0.788                   0.994542        76.95783
0.792                   0.994237        76.58584
0.796                  0.9949258        76.21041
0.8                    0.9964899        75.80798
0.804                  0.9986513        75.36003
0.808                   1.001023        74.85659
0.812                   1.003179        74.29785
0.816                   1.004733        73.69398
0.82                    1.005401        73.06317
0.824                   1.005058        72.42858
0.828                   1.003754        71.81427
0.832                   1.001713        71.24129
0.836                  0.9992902        70.72389
0.84                    0.996917        70.26678
0.844                  0.9950216        69.86408
0.848                  0.9939521        69.49988
0.852                  0.9939106        69.15098
0.856                   0.994913        68.79126
0.86                   0.9967847        68.39654
0.864                  0.9991927        67.94919
0.868                   1.001705        67.44135
0.872                    1.00387        66.87615
0.876                   1.005298        66.26697
0.88                    1.005726        65.63504
0.884                    1.00507        65.00573
0.888                   1.003433        64.40432
0.892                   1.001096        63.85178
0.896                  0.9984702         63.3609
0.9                    0.9960238        62.93384
0.904                  0.9942017        62.56125
0.908                  0.9933418        62.22362
0.912                  0.9936105        61.89469
0.916                  0.9949691         61.5464
0.92                   0.9971794        61.15417
0.924                  0.9998463        60.70165
0.928                   1.002491        60.18351
0.932                   1.004638        59.60633
0.936                   1.005896        58.98715
0.94                    1.006033        58.35039
0.944                    1.00501        57.72385
0.948                   1.002995        57.13398
0.952                   1.000334        56.60136
0.956                  0.9974951        56.13698
0.96                   0.9949885        55.73985
0.964                  0.9932724        55.39668
0.968                  0.9926685         55.0839
0.972                  0.9932989        54.77191
0.976                  0.9950606        54.43067
0.98                    0.997642        54.03552
0.984                   1.000581        53.57176
0.988                   1.003349        53.03724
0.992                   1.005445         52.4424
0.996                   1.006487         51.8084
1                       1.006275        51.16323
1.004                   1.004828         50.5372
1.008                   1.002388        49.95783
1.012                  0.9993735        49.44509
1.016                  0.9963183        49.00767
1.02                   0.9937735        48.64081
1.024                  0.9922089        48.32662
1.028                  0.9919229        48.03695
1.032                   0.992983        47.73851
1.036                  0.9952098        47.39936
1.04                   0.9982084        46.99501
1.044                   1.001442        46.51297
1.048                   1.004327        45.95479
1.052                   1.006342        45.33552
1.056                   1.007115        44.68088
1.06                    1.006489        44.02283
1.064                   1.004553        43.39437
1.068                   1.001632        42.82406
1.072                  0.9982293        42.33097
1.076                  0.9949506        41.92089
1.08                    0.992392        41.58458
1.084                  0.9910312        41.29876
1.088                  0.9911351           41.03
1.092                  0.9927042        40.74101
1.096                  0.9954691        40.39786
1.1                    0.9989384         39.9766
1.104                    1.00249        39.46754
1.108                   1.005484        38.87669
1.112                   1.007374        38.22445
1.116                   1.007806        37.54175
1.12                    1.006677        36.86506
1.124                   1.004159        36.23039
1.128                   1.000673        35.66737
1.132                  0.9968238        35.19376
1.136                  0.9932971        34.81188
1.14                   0.9907397        34.50714
1.144                  0.9896358        34.24973
1.148                  0.9902111         34.0001
1.152                  0.9923844        33.71629
1.156                  0.9957783        33.36237
1.16                    0.999788        32.91522
1.164                   1.003693        32.36869
1.168                   1.006787        31.73414
1.172                   1.008501         31.0382
1.176                   1.008502        30.31808
1.18                    1.006755        29.61542
1.184                   1.003529         28.9698
1.188                  0.9993637        28.41199
1.192                  0.9949822        27.95836
1.196                    0.99117        27.60674
1.2                    0.9886328        27.33593
1.204                  0.9878604        27.10825
1.208                  0.9890273        26.87654
1.212                  0.9919503         26.5933
1.216                  0.9961197        26.22021
1.22                    1.000792        25.73538
1.224                   1.005128        25.13694
1.228                    1.00834        24.44291
1.232                    1.00983        23.68749
1.236                   1.009295        22.91544
1.24                    1.006776        22.17491
1.244                   1.002667        21.50995
1.248                  0.9976523        20.95304
1.252                  0.9926062        20.51878
1.256                    0.98844        20.19969
1.26                   0.9859368        19.96596
1.264                   0.985596        19.76977
1.268                  0.9875271        19.55421
1.272                  0.9914185        19.26458
1.276                  0.9965911        18.85945
1.28                    1.002124        18.31838
1.284                   1.007021          17.645
1.288                   1.010389        16.86558
1.292                   1.011589        16.02403
1.296                   1.010345        15.17485
1.3                     1.006797        14.37485
1.304                   1.001493        13.67444
1.308                  0.9953129          13.109
1.312                  0.9893312        12.69142
1.316                   0.984637        12.40751
1.32                   0.9821279        12.21609
1.324                  0.9823279        12.05533
1.328                  0.9852677        11.85448
1.332                  0.9904661        11.54844
1.336                   0.997014        11.09095
1.34                    1.003743        10.46302
1.344                   1.009438        9.675252
1.348                   1.013045        8.764787
1.352                    1.01385        7.788628
1.356                   1.011598        6.814949
1.36                    1.006552        5.913369
1.364                  0.9994654        5.144564
1.368                  0.9914935        4.549745
1.372                  0.9840152        4.141158
1.376                  0.9784005        3.895977
1.38                   0.9757479        3.756606
1.384                  0.9766491        3.639469
1.388                  0.9810445        3.451504
1.392                  0.9882131        3.109945
1.396                  0.9969013        2.559316
1.4                     1.005557        1.781052
1.404                   1.012603       0.7947225
1.408                   1.016706      -0.3472678
1.412                   1.016989       -1.568661
1.416                   1.013181       -2.779957
1.42                    1.005679       -3.889953
1.424                  0.9955361       -4.818418
1.428                  0.9843402       -5.510069
1.432                  0.9739963       -5.948625
1.436                  0.9664081       -6.167418
1.44                   0.9631059       -6.251005
1.444                  0.9648974       -6.323087
1.448                  0.9716476       -6.521286
1.452                  0.9822639       -6.966387
1.456                  0.9948929       -7.737063
1.46                    1.007263       -8.857492
1.464                   1.017078       -10.29815
1.468                   1.022376       -11.98505
1.472                   1.021824       -13.81202
1.476                   1.014918       -15.65313
1.48                    1.002112       -17.37509
1.484                   0.984839        -18.8519
1.488                  0.9654369       -19.98448
1.492                  0.9469054       -20.72666
1.496                   0.932474       -21.11374
1.5                    0.9249802       -21.28136
1.504                  0.9261687       -21.45732
1.508                  0.9361429       -21.91783
1.512                  0.9531992       -22.92258
1.516                  0.9741075       -24.66009
1.52                   0.9946881       -27.22642
1.524                   1.010448       -30.63613
1.528                   1.017107       -34.84942
1.532                   1.010957       -39.79989
1.536                  0.9890821        -45.4162
1.54                   0.9494684        -51.6373
1.544                  0.8910553        -58.4245
1.548                    0.81374       -65.77593
1.552                   0.718365       -73.75276
