! TOUCHSTONE file generated by CST MICROWAVE STUDIO
! Date and time: Thu Jun  9 09:13:17 2022
! Project name: AppElm_antenne_patch_Alumina.cst
! Parameters = {L=30.5; W=41.8; e=0.035; h=1.6; lambda=0.190476; ls=90; w0=1.176; w1=0.373; ws=90; y0=14; y1=10}
! Header version: 2018
! Port assignment regex: !\s*Touchstone port\s*([0-9]+)\s*=\s*(CST MWS port|CST DS port)\s*([0-9]+|Zmin|Zmax)\s*\(\"(.*)\"\)(\s*mode\s*([0-9]+))?.*
! Touchstone port assignment:
! Touchstone port 1 = CST MWS port 1 ("")
# GHz S MA R 50
0                      0.9792093              -0
0.004                  0.9803514       -10.36362
0.008                  0.9836279       -20.61728
0.012                  0.9886121       -30.65795
0.016                  0.9946666       -40.39496
0.02                    1.001034       -49.75311
0.024                   1.006944        -58.6733
0.028                   1.011708       -67.11134
0.032                   1.014803       -75.03598
0.036                   1.015927       -82.42676
0.04                    1.015026       -89.27271
0.044                     1.0123       -95.57179
0.048                   1.008166       -101.3314
0.052                   1.003213       -106.5695
0.056                  0.9981194       -111.3158
0.06                   0.9935681       -115.6122
0.064                   0.990149       -119.5119
0.068                  0.9882791       -123.0768
0.072                  0.9881418       -126.3724
0.076                  0.9896665       -129.4625
0.08                   0.9925473       -132.4028
0.084                  0.9962961       -135.2364
0.088                   1.000325       -137.9912
0.092                   1.004037       -140.6797
0.096                   1.006908       -143.3005
0.1                     1.008561       -145.8416
0.104                   1.008811       -148.2845
0.108                   1.007681       -150.6083
0.112                   1.005396       -152.7943
0.116                   1.002341       -154.8296
0.12                   0.9990107       -156.7102
0.124                  0.9959257       -158.4429
0.128                  0.9935591       -160.0452
0.132                  0.9922602       -161.5441
0.136                  0.9922018       -162.9719
0.14                   0.9933547       -164.3619
0.144                  0.9954978       -165.7439
0.148                  0.9982592       -167.1393
0.152                   1.001181       -168.5591
0.156                   1.003794       -170.0031
0.16                    1.005693       -171.4609
0.164                   1.006596       -172.9142
0.168                   1.006385       -174.3408
0.172                    1.00512       -175.7177
0.176                   1.003026        -177.025
0.18                    1.000457       -178.2496
0.184                  0.9978414        -179.387
0.188                  0.9956071        179.5572
0.192                  0.9941175         178.568
0.196                  0.9936074        177.6232
0.2                    0.9941455        176.6969
0.204                  0.9956246         175.764
0.208                  0.9977819        174.8044
0.212                   1.000247         173.806
0.216                   1.002605        172.7662
0.22                    1.004468        171.6923
0.224                   1.005536        170.5993
0.228                   1.005643        169.5073
0.232                   1.004784        168.4385
0.236                   1.003113        167.4131
0.24                    1.000917        166.4466
0.244                  0.9985685        165.5465
0.248                  0.9964653        164.7112
0.252                  0.9949623        163.9301
0.256                   0.994311        163.1849
0.26                   0.9946157        162.4532
0.264                  0.9958156        161.7117
0.268                  0.9976974        160.9412
0.272                  0.9999335        160.1289
0.276                    1.00214        159.2712
0.28                    1.003943        158.3734
0.284                   1.005042         157.449
0.288                   1.005255        156.5167
0.292                   1.004554        155.5979
0.296                   1.003061        154.7126
0.3                     1.001036        153.8764
0.304                  0.9988254        153.0981
0.308                  0.9968099        152.3774
0.312                  0.9953373        151.7053
0.316                  0.9946607        151.0652
0.32                   0.9948948        150.4359
0.324                  0.9959952        149.7953
0.328                  0.9977663        149.1243
0.332                  0.9998974        148.4105
0.336                   1.002018        147.6498
0.34                    1.003764        146.8471
0.344                   1.004837        146.0153
0.348                   1.005054        145.1726
0.352                   1.004383          144.34
0.356                   1.002939        143.5374
0.36                    1.000973        142.7802
0.364                  0.9988254        142.0772
0.368                  0.9968692        141.4284
0.372                  0.9954464        140.8251
0.376                  0.9948063        140.2509
0.38                   0.9950611        139.6851
0.384                  0.9961642        139.1058
0.388                  0.9979203        138.4946
0.392                    1.00002        137.8392
0.396                   1.002096        137.1361
0.4                     1.003787        136.3903
0.404                     1.0048         135.615
0.408                   1.004961        134.8286
0.412                   1.004243        134.0519
0.416                   1.002769        133.3048
0.42                    1.000795        132.6024
0.424                  0.9986643        131.9531
0.428                  0.9967514        131.3563
0.432                  0.9953929        130.8027
0.436                  0.9948302        130.2756
0.44                   0.9951637         129.754
0.444                  0.9963348        129.2163
0.448                  0.9981356        128.6441
0.452                   1.000248        128.0261
0.456                   1.002301        127.3594
0.46                    1.003934          126.65
0.464                   1.004861        125.9118
0.468                   1.004922        125.1637
0.472                   1.004104         124.427
0.476                   1.002547        123.7213
0.48                    1.000523        123.0613
0.484                  0.9983855        122.4545
0.488                  0.9965115        121.8993
0.492                  0.9952345        121.3854
0.496                  0.9947831        120.8952
0.5                    0.9952399        120.4069
0.504                  0.9965253         119.899
0.508                  0.9984107        119.3536
0.512                   1.000562        118.7602
0.516                     1.0026        118.1171
0.52                    1.004164        117.4317
0.524                    1.00498         116.719
0.528                   1.004902        115.9989
0.532                   1.003942        115.2929
0.536                   1.002265        114.6207
0.54                    1.000162        113.9962
0.544                  0.9980044        113.4259
0.548                  0.9961732        112.9067
0.552                  0.9949972        112.4266
0.556                  0.9946892         111.967
0.56                   0.9953072        111.5051
0.564                  0.9967432        111.0194
0.568                   0.998742        110.4924
0.572                   1.000949         109.915
0.576                   1.002972        109.2869
0.58                    1.004453        108.6172
0.584                    1.00513        107.9224
0.588                   1.004881        107.2236
0.592                   1.003746        106.5428
0.596                   1.001919        105.8992
0.6                    0.9997203        105.3063
0.604                  0.9975374        104.7689
0.608                  0.9957596         104.282
0.612                  0.9947072        103.8321
0.616                   0.994573        103.3985
0.62                   0.9953848        102.9579
0.624                  0.9969998        102.4884
0.628                  0.9991306        101.9736
0.632                   1.001398        101.4056
0.636                   1.003399        100.7861
0.64                    1.004777        100.1262
0.644                   1.005287        99.44422
0.648                   1.004834        98.76229
0.652                   1.003494        98.10303
0.656                   1.001496        97.48544
0.66                   0.9991916        96.92176
0.664                  0.9969887        96.41501
0.668                  0.9952825        95.95824
0.672                  0.9943827        95.53542
0.676                  0.9944564        95.12435
0.68                    0.995495        94.70069
0.684                  0.9973153        94.24247
0.688                   0.999593        93.73433
0.692                   1.001922         93.1701
0.696                   1.003887        92.55388
0.7                     1.005138        91.89895
0.704                   1.005449        91.22555
0.708                    1.00476        90.55723
0.712                   1.003185        89.91702
0.716                   1.000997        89.32356
0.72                   0.9985811        88.78761
0.724                  0.9963663        88.31012
0.728                  0.9947524        87.88157
0.732                  0.9940348         87.4835
0.736                  0.9943488        87.09175
0.74                   0.9956435        86.68098
0.744                  0.9976897        86.22945
0.748                   1.000122        85.72301
0.752                   1.002507        85.15771
0.756                   1.004417        84.54013
0.76                    1.005512        83.88617
0.764                    1.00559        83.21813
0.768                   1.004632        82.56104
0.772                   1.002798        81.93826
0.776                   1.000407        81.36778
0.78                   0.9978804        80.85866
0.784                  0.9956696        80.40934
0.788                  0.9941761        80.00742
0.792                  0.9936756        79.63171
0.796                  0.9942659        79.25597
0.8                    0.9958464        78.85397
0.804                  0.9981368        78.40435
0.808                   1.000727        77.89464
0.812                   1.003154        77.32334
0.816                   1.004983        76.69997
0.82                    1.005884        76.04329
0.824                    1.00569        75.37785
0.828                   1.004425        74.73006
0.832                   1.002304        74.12367
0.836                  0.9996945         73.5756
0.84                   0.9970592        73.09294
0.844                  0.9948711        72.67117
0.848                  0.9935297        72.29464
0.852                  0.9932855        71.93914
0.856                  0.9941912        71.57628
0.86                   0.9960902        71.17902
0.864                  0.9986444        70.72667
0.868                   1.001397        70.20873
0.872                   1.003854        69.62665
0.876                   1.005575        68.99323
0.88                    1.006247        68.33029
0.884                   1.005741        67.66485
0.888                   1.004135        67.02471
0.892                   1.001702        66.43371
0.896                  0.9988665        65.90762
0.9                    0.9961322        65.45099
0.904                  0.9939928          65.056
0.908                  0.9928421        64.70328
0.912                  0.9928986        64.36533
0.916                  0.9941622        64.01161
0.92                   0.9964118        63.61437
0.924                  0.9992461        63.15396
0.928                   1.002157        62.62231
0.932                   1.004623        62.02422
0.936                   1.006198        61.37614
0.94                    1.006594        60.70331
0.944                   1.005727        60.03533
0.948                   1.003736        59.40137
0.952                   1.000961        58.82526
0.956                  0.9978881        58.32113
0.96                   0.9950646        57.89064
0.964                   0.993004        57.52203
0.968                  0.9920895        57.19182
0.972                  0.9924998        56.86889
0.976                  0.9941725        56.52041
0.98                   0.9968136        56.11818
0.984                  0.9999515        55.64389
0.988                   1.003023        55.09245
0.992                   1.005478        54.47245
0.996                   1.006869        53.80452
1                       1.006939        53.11757
1.004                   1.005658          52.444
1.008                   1.003234        51.81438
1.012                   1.000082        51.25228
1.016                  0.9967564        50.76991
1.02                   0.9938515        50.36544
1.024                  0.9918999        50.02262
1.028                  0.9912685        49.71326
1.032                  0.9920875        49.40232
1.036                  0.9942218        49.05461
1.04                   0.9972941        48.64164
1.044                   1.000755        48.14694
1.048                   1.003983        47.56884
1.052                   1.006395        46.92042
1.056                   1.007553        46.22689
1.06                    1.007232        45.52131
1.064                   1.005468        44.83908
1.068                    1.00255         44.2122
1.072                  0.9989784        43.66381
1.076                  0.9953818        43.20371
1.08                   0.9924087        42.82591
1.084                  0.9906083        42.50892
1.088                  0.9903257        42.21913
1.092                  0.9916315        41.91707
1.096                  0.9943049        41.56504
1.1                    0.9978722        41.13448
1.104                   1.001695        40.61123
1.108                   1.005087        39.99775
1.112                   1.007434        39.31224
1.116                   1.008302        38.58526
1.12                    1.007515        37.85453
1.124                   1.005181        37.15886
1.128                   1.001685        36.53188
1.132                   0.997626        35.99615
1.136                  0.9937212        35.55852
1.14                   0.9906784        35.20811
1.144                  0.9890656        34.91717
1.148                  0.9891997        34.64574
1.152                    0.99108        34.34928
1.156                  0.9943839        33.98717
1.16                   0.9985245        33.53108
1.164                   1.002761        32.96956
1.168                    1.00633        32.31001
1.172                   1.008583        31.57664
1.176                   1.009097        30.80624
1.18                    1.007748        30.04203
1.184                   1.004733        29.32683
1.188                    1.00055         28.6961
1.192                  0.9959173        28.17179
1.196                  0.9916569        27.75731
1.2                     0.988548         27.4356
1.204                  0.9871808        27.17149
1.208                  0.9878368        26.91711
1.212                  0.9904279        26.62172
1.216                  0.9945067        26.24147
1.22                   0.9993491        25.74808
1.224                   1.004088        25.13369
1.228                   1.007868        24.41166
1.232                   1.009997        23.61346
1.236                   1.010062        22.78348
1.24                    1.008001        21.97167
1.244                   1.004122        21.22606
1.248                  0.9990597        20.58476
1.252                  0.9936833        20.06905
1.256                  0.9889494        19.67828
1.26                   0.9857318        19.38798
1.264                  0.9846536        19.15306
1.268                  0.9859568        18.91577
1.272                  0.9894447        18.61711
1.276                  0.9945136        18.20879
1.28                    1.000264        17.66249
1.284                   1.005665        16.97458
1.288                    1.00974        16.16568
1.292                   1.011733        15.27652
1.296                   1.011235          14.361
1.3                     1.008258        13.47808
1.304                   1.003244        12.68288
1.308                  0.9970075        12.01769
1.312                  0.9906148        11.50385
1.316                  0.9852091        11.13574
1.32                   0.9818019        10.87923
1.324                  0.9810727        10.67604
1.328                  0.9832207        10.45437
1.332                  0.9879115        10.14354
1.336                  0.9943314        9.688491
1.34                     1.00134        9.060271
1.344                   1.007678        8.260321
1.348                   1.012189        7.318781
1.352                   1.014013        6.288533
1.356                   1.012726        5.236794
1.36                    1.008425        4.235487
1.364                   1.001725        3.350884
1.368                  0.9936892        2.632875
1.372                  0.9856772        2.104738
1.376                  0.9791226        1.755395
1.38                   0.9752702        1.537178
1.384                  0.9749192        1.371834
1.388                  0.9782387        1.165145
1.392                  0.9847096       0.8267604
1.396                  0.9932126       0.2891901
1.4                     1.002238      -0.4796262
1.404                   1.010157       -1.472458
1.408                   1.015506       -2.646424
1.412                   1.017214       -3.931247
1.416                   1.014785       -5.239624
1.42                    1.008385       -6.478536
1.424                  0.9988567       -7.561511
1.428                  0.9876355       -8.422233
1.432                  0.9765641       -9.028883
1.436                  0.9676046       -9.396637
1.44                   0.9624764       -9.593145
1.444                  0.9622851       -9.731562
1.448                  0.9672447       -9.949249
1.452                  0.9765864        -10.3775
1.456                  0.9886866       -11.11297
1.46                    1.001372       -12.20028
1.464                   1.012305       -13.62862
1.468                   1.019366        -15.3388
1.472                   1.020968       -17.23508
1.476                   1.016291       -19.19782
1.48                    1.005431       -21.09567
1.484                  0.9894598       -22.79904
1.488                  0.9703881       -24.19738
1.492                  0.9509863       -25.22261
1.496                  0.9344306       -25.87733
1.5                    0.9237504       -26.25882
1.504                  0.9211479       -26.56281
1.508                  0.9273738        -27.0533
1.512                  0.9414068       -28.00334
1.516                  0.9605755       -29.63374
1.52                   0.9810443       -32.07844
1.524                  0.9984465       -35.38481
1.528                   1.008457       -39.53669
1.532                   1.007211        -44.4835
1.536                  0.9915713       -50.16533
1.54                   0.9592792       -56.53199
1.544                   0.909026        -63.5588
1.548                  0.8404885       -71.26466
1.552                  0.7543485       -79.74271
