! TOUCHSTONE file generated by CST MICROWAVE STUDIO
! Date and time: Thu Jun  9 09:13:19 2022
! Project name: AppElm_antenne_patch_Alumina.cst
! Parameters = {L=30.5; W=41.8; e=0.035; h=1.6; lambda=0.190476; ls=90; w0=1.288; w1=0.373; ws=90; y0=14; y1=10}
! Header version: 2018
! Port assignment regex: !\s*Touchstone port\s*([0-9]+)\s*=\s*(CST MWS port|CST DS port)\s*([0-9]+|Zmin|Zmax)\s*\(\"(.*)\"\)(\s*mode\s*([0-9]+))?.*
! Touchstone port assignment:
! Touchstone port 1 = CST MWS port 1 ("")
# GHz S MA R 50
0                       0.978882              -0
0.004                  0.9800384       -10.36531
0.008                  0.9833561       -20.62014
0.012                   0.988404         -30.661
0.016                  0.9945373       -40.39689
0.02                    1.000991       -49.75243
0.024                   1.006985       -58.66844
0.028                   1.011823       -67.10077
0.032                   1.014974       -75.01817
0.036                   1.016132       -82.40023
0.04                     1.01524       -89.23593
0.044                   1.012497       -95.52316
0.048                   1.008324       -101.2692
0.052                   1.003312       -106.4919
0.056                  0.9981497       -111.2208
0.06                   0.9935267       -115.4979
0.064                  0.9900431       -119.3766
0.068                  0.9881242        -122.919
0.072                    0.98796       -126.1913
0.076                  0.9894833       -129.2577
0.08                   0.9923872       -132.1747
0.084                  0.9961803       -134.9858
0.088                   1.000268       -137.7195
0.092                   1.004044       -140.3883
0.096                   1.006975       -142.9909
0.1                     1.008677       -145.5151
0.104                   1.008956        -147.942
0.108                   1.007834       -150.2503
0.112                   1.005532       -152.4208
0.116                    1.00244       -154.4402
0.12                    0.999058        -156.304
0.124                  0.9959146       -158.0188
0.128                  0.9934922        -159.602
0.132                  0.9921495       -161.0807
0.136                  0.9920657       -162.4876
0.14                    0.993216       -163.8567
0.144                  0.9953792       -165.2181
0.148                  0.9981798       -166.5937
0.152                   1.001153       -167.9951
0.156                   1.003821        -169.422
0.16                     1.00577       -170.8641
0.164                    1.00671       -172.3029
0.168                   1.006516       -173.7158
0.172                   1.005246       -175.0791
0.176                   1.003126       -176.3728
0.18                    1.000514        -177.583
0.184                  0.9978447       -178.7049
0.188                  0.9955561       -179.7442
0.192                  0.9940201        179.2843
0.196                  0.9934797        178.3579
0.2                    0.9940089        177.4504
0.204                  0.9955017        176.5362
0.208                  0.9976929        175.5945
0.212                   1.000206        174.6128
0.216                   1.002619        173.5885
0.22                    1.004534        172.5285
0.224                   1.005641        171.4483
0.228                    1.00577        170.3682
0.232                   1.004912        169.3109
0.236                    1.00322        168.2973
0.24                    1.000984         167.343
0.244                   0.998585        166.4561
0.248                  0.9964288        165.6351
0.252                  0.9948796        164.8694
0.256                  0.9941967        164.1406
0.26                   0.9944901        163.4255
0.264                  0.9957012        162.7005
0.268                  0.9976142        161.9458
0.272                  0.9998962        161.1483
0.276                   1.002155         160.304
0.28                    1.004008        159.4182
0.284                   1.005145        158.5046
0.288                    1.00538        157.5823
0.292                   1.004678         156.673
0.296                   1.003164        155.7974
0.3                     1.001099        154.9715
0.304                  0.9988381        154.2043
0.308                  0.9967698        153.4959
0.312                  0.9952509        152.8372
0.316                  0.9945428        152.2113
0.32                   0.9947661        151.5966
0.324                  0.9958777        150.9703
0.328                  0.9976802        150.3131
0.332                  0.9998572        149.6119
0.336                   1.002031        148.8624
0.34                    1.003826        148.0696
0.344                   1.004938        147.2465
0.348                   1.005176        146.4116
0.352                   1.004504        145.5864
0.356                   1.003039        144.7912
0.36                    1.001033        144.0422
0.364                  0.9988351        143.3482
0.368                  0.9968266        142.7096
0.372                  0.9953586        142.1174
0.376                  0.9946884        141.5552
0.38                   0.9949336        141.0017
0.384                  0.9960495        140.4346
0.388                  0.9978382        139.8349
0.392                  0.9999853        139.1898
0.396                   1.002114        138.4956
0.4                     1.003855        137.7573
0.404                   1.004907        136.9883
0.408                   1.005088        136.2073
0.412                   1.004369        135.4357
0.416                   1.002872        134.6937
0.42                    1.000858        133.9971
0.424                  0.9986766        133.3545
0.428                  0.9967104        132.7655
0.432                  0.9953063        132.2208
0.436                  0.9947132        131.7034
0.44                   0.9950369        131.1918
0.444                  0.9962204        130.6638
0.448                  0.9980536        130.1008
0.452                   1.000213        129.4907
0.456                   1.002317        128.8305
0.46                    1.003999        128.1263
0.464                   1.004964         127.392
0.468                   1.005044         126.647
0.472                   1.004223         125.913
0.476                   1.002642        125.2102
0.48                    1.000577        124.5537
0.484                  0.9983877        123.9513
0.488                  0.9964607        123.4017
0.492                  0.9951384        122.8944
0.496                  0.9946579        122.4116
0.5                    0.9951068        121.9311
0.504                  0.9964066        121.4306
0.508                  0.9983269        120.8919
0.512                   1.000528         120.304
0.516                    1.00262         119.665
0.52                    1.004235        118.9823
0.524                    1.00509         118.271
0.528                   1.005033        117.5515
0.532                   1.004071        116.8458
0.536                    1.00237        116.1738
0.54                    1.000226        115.5503
0.544                  0.9980155        114.9819
0.548                  0.9961299        114.4657
0.552                   0.994907        113.9899
0.556                  0.9945679        113.5351
0.56                   0.9951762        113.0786
0.564                  0.9966254        112.5979
0.568                   0.998658        112.0753
0.572                   1.000913         111.501
0.576                    1.00299        110.8746
0.58                    1.004523        110.2052
0.584                   1.005239        109.5095
0.588                    1.00501        108.8089
0.592                   1.003872        108.1258
0.596                    1.00202        107.4802
0.6                    0.9997779        106.8858
0.604                  0.9975402        106.3479
0.608                  0.9957055        105.8618
0.612                  0.9946045        105.4137
0.616                   0.994438        104.9829
0.62                   0.9952399        104.5455
0.624                   0.996869        104.0789
0.628                  0.9990358        103.5663
0.632                   1.001355        102.9992
0.636                   1.003414        102.3791
0.64                    1.004848        101.7172
0.644                   1.005401        101.0318
0.648                   1.004972        100.3455
0.652                   1.003631         99.6814
0.656                   1.001609        99.05915
0.66                   0.9992599        98.49142
0.664                  0.9970002         97.9817
0.668                  0.9952341        97.52321
0.672                   0.994282        97.09995
0.676                  0.9943201        96.68937
0.68                   0.9953463        96.26664
0.684                  0.9971798        95.80918
0.688                  0.9994941        95.30104
0.692                   1.001877        94.73558
0.696                   1.003903        94.11657
0.7                     1.005213        93.45724
0.704                   1.005571        92.77801
0.708                   1.004907        92.10282
0.712                   1.003333        91.45527
0.716                    1.00112        90.85453
0.72                   0.9986561        90.31201
0.724                  0.9963791        89.82907
0.728                  0.9946991         89.3965
0.732                  0.9939228         88.9958
0.736                  0.9941957        88.60252
0.74                   0.9954745        88.19076
0.744                  0.9975327        87.73812
0.748                   1.000003        87.22983
0.752                   1.002446        86.66134
0.756                   1.004423        86.03893
0.76                    1.005583        85.37841
0.764                   1.005714        84.70224
0.768                   1.004786        84.03581
0.772                   1.002955        83.40315
0.776                   1.000538        82.82281
0.78                   0.9979601        82.30461
0.784                  0.9956817        81.84748
0.788                  0.9941154        81.43932
0.792                  0.9935497        81.05895
0.796                  0.9940942        80.67982
0.8                    0.9956569        80.27509
0.804                  0.9979609         79.8227
0.808                   1.000595        79.30938
0.812                   1.003088        78.73302
0.816                   1.004994        78.10276
0.82                    1.005971         77.4372
0.824                   1.005838        76.76109
0.828                    1.00461        76.10129
0.832                   1.002493        75.48215
0.836                   0.999856        74.92141
0.84                   0.9971627        74.42689
0.844                  0.9948963        73.99476
0.848                  0.9934694        73.60971
0.852                  0.9931475        73.24756
0.856                  0.9939971        72.87958
0.86                   0.9958711        72.47804
0.864                  0.9984366        72.02146
0.868                   1.001234        71.49843
0.872                   1.003764        70.90968
0.876                    1.00557        70.26752
0.88                    1.006328         69.5936
0.884                   1.005892        68.91517
0.888                   1.004328        68.26048
0.892                   1.001901        67.65413
0.896                  0.9990321        67.11276
0.9                     0.996231        66.64187
0.904                  0.9940017        66.23432
0.908                  0.9927532        65.87124
0.912                  0.9927215        65.52514
0.916                  0.9939225        65.16504
0.92                   0.9961469        64.76244
0.924                   0.998999        64.29665
0.928                   1.001968        63.75861
0.932                   1.004523        63.15222
0.936                   1.006204        62.49344
0.94                    1.006704        61.80723
0.944                   1.005923        61.12345
0.948                   1.003984        60.47185
0.952                   1.001217        59.87713
0.956                  0.9981052         59.3545
0.96                   0.9952013        58.90673
0.964                  0.9930321        58.52296
0.968                  0.9919988        58.18023
0.972                  0.9923016        57.84748
0.976                  0.9938966        57.49138
0.98                   0.9965045        57.08275
0.984                  0.9996598        56.60214
0.988                   1.002797        56.04317
0.992                   1.005354        55.41348
0.996                   1.006867        54.73299
1                       1.007057        54.03041
1.004                   1.005873         53.3384
1.008                   1.003506         52.6882
1.012                    1.00036        52.10446
1.016                  0.9969827         51.6007
1.02                    0.993979        51.17637
1.024                  0.9918959        50.81634
1.028                  0.9911235          50.493
1.032                  0.9918168        50.17133
1.036                  0.9938638        49.81546
1.04                    0.996904        49.39572
1.044                   1.000394        48.89419
1.048                   1.003709        48.30772
1.052                   1.006253         47.6482
1.056                   1.007563        46.94009
1.06                    1.007391        46.21615
1.064                   1.005746        45.51218
1.068                   1.002896        44.86103
1.072                  0.9993274        44.28717
1.076                  0.9956662        43.80199
1.08                   0.9925695        43.40112
1.084                  0.9906068        43.06438
1.088                  0.9901513        42.75888
1.092                  0.9913048        42.44509
1.096                   0.993874        42.08443
1.1                    0.9974051        41.64688
1.104                   1.001267        41.11646
1.108                   1.004767        40.49386
1.112                   1.007273        39.79588
1.116                   1.008326        39.05216
1.12                    1.007716        38.30018
1.124                   1.005521        37.57922
1.128                     1.0021        36.92399
1.132                  0.9980357        36.35867
1.136                   0.994043        35.89214
1.14                   0.9908416        35.51549
1.144                  0.9890255        35.20256
1.148                   0.988947        34.91425
1.152                  0.9906435        34.60568
1.156                   0.993826        34.23527
1.16                   0.9979308         33.7726
1.164                   1.002224        33.20411
1.168                   1.005934        32.53499
1.172                   1.008389        31.78785
1.176                   1.009132        30.99839
1.18                    1.007998        30.20953
1.184                   1.005149         29.4648
1.188                    1.00105        28.80109
1.192                   0.996401        28.24241
1.196                  0.9920218        27.79457
1.2                    0.9887088        27.44317
1.204                  0.9870857        27.15483
1.208                  0.9874795        26.88263
1.212                  0.9898498        26.57544
1.216                  0.9937906        26.18784
1.22                   0.9986046        25.68904
1.224                   1.003432        25.06839
1.228                   1.007404        24.33658
1.232                   1.009798        23.52311
1.236                   1.010158        22.67108
1.24                    1.008371        21.83026
1.244                   1.004698        21.04943
1.248                  0.9997358        20.36865
1.252                  0.9943293        19.81186
1.256                  0.9894341        19.38155
1.26                   0.9859469        19.05648
1.264                  0.9845349        18.79402
1.268                  0.9854986        18.53749
1.272                  0.9887029        18.22727
1.276                  0.9935954        17.81292
1.28                   0.9993092        17.26289
1.284                   1.004821        16.56996
1.288                   1.009137        15.75151
1.292                   1.011459        14.84573
1.296                   1.011325        13.90512
1.3                     1.008683        12.98838
1.304                   1.003913        12.15171
1.308                  0.9977824        11.43979
1.312                   0.991329        10.87744
1.316                  0.9856956        10.46329
1.32                   0.9819259        10.16733
1.324                  0.9807589        9.934439
1.328                  0.9824723        9.694051
1.332                   0.986812        9.374419
1.336                  0.9930311        8.917373
1.34                    1.000029        8.289565
1.344                   1.006554        7.487713
1.348                   1.011423        6.537721
1.352                   1.013721        5.489264
1.356                   1.012951        4.407692
1.36                    1.009125        3.364565
1.364                   1.002776        2.427461
1.368                   0.994899        1.649331
1.372                  0.9868121        1.058168
1.376                  0.9799461       0.6487702
1.38                   0.9755864       0.3794578
1.384                  0.9746144       0.1766219
1.388                  0.9773077     -0.05202484
1.392                  0.9832602       -0.398254
1.396                  0.9914472      -0.9339316
1.4                     1.000416       -1.697249
1.404                    1.00855       -2.687465
1.408                    1.01435       -3.867458
1.412                   1.016677       -5.171347
1.416                   1.014932       -6.514557
1.42                    1.009169       -7.804915
1.424                   1.000112       -8.954638
1.428                  0.9890974       -9.893605
1.432                  0.9778988       -10.58353
1.436                  0.9684654       -11.03091
1.44                   0.9625689       -11.29398
1.444                  0.9614334       -11.47824
1.448                  0.9654379       -11.71767
1.452                  0.9739897       -12.14573
1.456                  0.9856149       -12.86603
1.46                   0.9982332       -13.93283
1.464                   1.009534       -15.34525
1.468                   1.017358       -17.05283
1.472                   1.020021       -18.96678
1.476                   1.016563       -20.97248
1.48                    1.006904       -22.94173
1.484                  0.9919259       -24.74568
1.488                  0.9734442       -26.27102
1.492                  0.9540637       -27.44183
1.496                  0.9368612       -28.24652
1.5                    0.9248782       -28.76282
1.504                    0.92047       -29.16623
1.508                  0.9246706       -29.70713
1.512                  0.9368113        -30.6573
1.516                  0.9545546       -32.24838
1.52                   0.9743154       -34.63173
1.524                  0.9918669       -37.87235
1.528                   1.002925       -41.96811
1.532                   1.003592       -46.87811
1.536                  0.9906513       -52.54878
1.54                   0.9617361       -58.93446
1.544                  0.9154197       -66.01436
1.548                  0.8512627       -73.81166
1.552                  0.7698477       -82.42351
