! TOUCHSTONE file generated by CST MICROWAVE STUDIO
! Date and time: Thu Jun  9 09:13:18 2022
! Project name: AppElm_antenne_patch_Alumina.cst
! Parameters = {L=30.5; W=41.8; e=0.035; h=1.6; lambda=0.190476; ls=90; w0=1.232; w1=0.373; ws=90; y0=14; y1=10}
! Header version: 2018
! Port assignment regex: !\s*Touchstone port\s*([0-9]+)\s*=\s*(CST MWS port|CST DS port)\s*([0-9]+|Zmin|Zmax)\s*\(\"(.*)\"\)(\s*mode\s*([0-9]+))?.*
! Touchstone port assignment:
! Touchstone port 1 = CST MWS port 1 ("")
# GHz S MA R 50
0                      0.9788439              -0
0.004                  0.9799945       -10.36439
0.008                  0.9832957       -20.61854
0.012                  0.9883184       -30.65919
0.016                  0.9944212       -40.39552
0.02                    1.000843       -49.75223
0.024                   1.006807       -58.67019
0.028                   1.011622       -67.10525
0.032                   1.014759       -75.02617
0.036                   1.015913       -82.41253
0.04                    1.015031       -89.25334
0.044                   1.012307       -95.54653
0.048                   1.008164       -101.2994
0.052                   1.003189       -106.5299
0.056                  0.9980673       -111.2676
0.06                   0.9934837       -115.5543
0.064                  0.9900345       -119.4435
0.068                  0.9881408       -122.9969
0.072                  0.9879903       -126.2806
0.076                  0.9895152       -129.3586
0.08                   0.9924093       -132.2868
0.084                  0.9961833       -135.1087
0.088                   1.000246       -137.8525
0.092                   1.003996       -140.5309
0.096                   1.006903       -143.1423
0.1                     1.008588       -145.6748
0.104                   1.008858       -148.1097
0.108                   1.007737       -150.4258
0.112                   1.005446       -152.6041
0.116                   1.002374       -154.6316
0.12                   0.9990168       -156.5038
0.124                  0.9959001       -158.2275
0.128                  0.9935021       -159.8203
0.132                  0.9921776       -161.3088
0.136                  0.9921037       -162.7258
0.14                   0.9932538        -164.105
0.144                  0.9954074       -165.4762
0.148                   0.998191       -166.8613
0.152                   1.001143       -168.2715
0.156                   1.003789       -169.7067
0.16                    1.005719       -171.1565
0.164                   1.006646       -172.6025
0.168                   1.006449       -174.0223
0.172                   1.005184       -175.3926
0.176                   1.003078       -176.6933
0.18                    1.000487       -177.9108
0.184                  0.9978407       -179.0406
0.188                  0.9955749        179.9119
0.192                  0.9940575        178.9317
0.196                  0.9935283        177.9963
0.2                    0.9940593        177.0797
0.204                  0.9955445        176.1566
0.208                  0.9977203        175.2063
0.212                   1.000212        174.2166
0.216                   1.002602        173.1848
0.22                    1.004496         172.118
0.224                   1.005589        171.0313
0.228                    1.00571        169.9452
0.232                   1.004854        168.8819
0.236                   1.003172        167.8623
0.24                    1.000953        166.9017
0.244                  0.9985756        166.0081
0.248                  0.9964408          165.18
0.252                  0.9949096        164.4067
0.256                  0.9942383          163.67
0.26                   0.9945346        162.9469
0.264                  0.9957395        162.2141
0.268                  0.9976388        161.4519
0.272                  0.9999013        160.6473
0.276                   1.002139        159.7965
0.28                    1.003973        158.9048
0.284                   1.005095        157.9858
0.288                   1.005323        157.0583
0.292                   1.004624        156.1441
0.296                    1.00312        155.2633
0.3                     1.001073        154.4321
0.304                  0.9988327        153.6593
0.308                  0.9967859        152.9447
0.312                   0.995285        152.2795
0.316                  0.9945886        151.6467
0.32                   0.9948148         151.025
0.324                  0.9959206        150.3919
0.328                  0.9977091        149.7281
0.332                  0.9998672        149.0209
0.336                    1.00202         148.266
0.34                    1.003796        147.4683
0.344                   1.004892        146.6407
0.348                   1.005124        145.8017
0.352                   1.004453        144.9726
0.356                   1.002998        144.1734
0.36                    1.001009          143.42
0.364                  0.9988319        142.7214
0.368                  0.9968441        142.0777
0.372                  0.9953936          141.48
0.376                  0.9947344        140.9121
0.38                   0.9949819        140.3527
0.384                  0.9960912        139.7799
0.388                  0.9978657        139.1747
0.392                  0.9999931        138.5247
0.396                   1.002101        137.8262
0.4                     1.003822        137.0841
0.404                   1.004859        136.3118
0.408                   1.005033        135.5279
0.412                   1.004315        134.7535
0.416                   1.002828        134.0087
0.42                    1.000831         133.309
0.424                  0.9986702        132.6628
0.428                  0.9967252        132.0699
0.432                  0.9953392        131.5209
0.436                  0.9947577        130.9989
0.44                   0.9950849        130.4827
0.444                  0.9962629        129.9501
0.448                  0.9980831        129.3828
0.452                   1.000224        128.7689
0.456                   1.002308        128.1055
0.46                    1.003971        127.3986
0.464                   1.004922        126.6621
0.468                   1.004996        125.9154
0.472                   1.004177        125.1796
0.476                   1.002607         124.475
0.48                    1.000558        123.8164
0.484                  0.9983896        123.2117
0.488                  0.9964834        122.6593
0.492                  0.9951784        122.1488
0.496                  0.9947086        121.6625
0.5                    0.9951599        121.1784
0.504                  0.9964529        120.6744
0.508                  0.9983585        120.1326
0.512                   1.000539        119.5421
0.516                   1.002609        118.9011
0.52                    1.004204        118.2169
0.524                   1.005043        117.5047
0.528                   1.004977        116.7845
0.532                   1.004016        116.0783
0.536                   1.002324        115.4059
0.54                    1.000196        114.7817
0.544                  0.9980064        114.2122
0.548                  0.9961423        113.6946
0.552                   0.994938        113.2168
0.556                  0.9946115        112.7598
0.56                   0.9952242         112.301
0.564                  0.9966686         111.818
0.568                  0.9986884        111.2935
0.572                   1.000925        110.7177
0.576                   1.002981        110.0904
0.58                    1.004494        109.4207
0.584                   1.005195        108.7252
0.588                   1.004958        108.0251
0.592                   1.003821        107.3427
0.596                   1.001979        106.6978
0.6                    0.9997541        106.1039
0.604                  0.9975381         105.566
0.608                  0.9957262        105.0796
0.612                  0.9946449        104.6307
0.616                  0.9944918        104.1987
0.62                    0.995298          103.76
0.624                   0.996922        103.2922
0.628                  0.9990751        102.7787
0.632                   1.001374        102.2111
0.636                   1.003409        101.5913
0.64                     1.00482        100.9302
0.644                   1.005355        100.2461
0.648                   1.004915         99.5616
0.652                   1.003572        98.89954
0.656                   1.001559        98.27927
0.66                   0.9992271        97.71335
0.664                  0.9969897        97.20505
0.668                  0.9952477        96.74747
0.672                  0.9943174        96.32461
0.676                  0.9943711        95.91407
0.68                   0.9954038        95.49116
0.684                  0.9972335         95.0336
0.688                  0.9995345        94.52559
0.692                   1.001896        93.96078
0.696                   1.003898        93.34301
0.7                     1.005184        92.68565
0.704                   1.005521        92.00894
0.708                   1.004846         91.3368
0.712                    1.00327         90.6925
0.716                   1.001065        90.09507
0.72                   0.9986196        89.55562
0.724                  0.9963677        89.07535
0.728                  0.9947152        88.64488
0.732                  0.9939644         88.2457
0.736                  0.9942566        87.85345
0.74                   0.9955445        87.44248
0.744                  0.9976007        86.99061
0.748                   1.000058        86.48335
0.752                   1.002478        85.91641
0.756                   1.004428         85.2962
0.76                     1.00556        84.63862
0.764                   1.005667        83.96611
0.768                   1.004724        83.30386
0.772                   1.002889        82.67572
0.776                    1.00048        82.09998
0.78                   0.9979211         81.5861
0.784                  0.9956697        81.13282
0.788                  0.9941338         80.7279
0.792                  0.9935966        80.35008
0.796                  0.9941623        79.97295
0.8                    0.9957351        79.56988
0.804                  0.9980359        79.11909
0.808                   1.000653        78.60767
0.812                   1.003119        78.03379
0.816                   1.004992        77.40678
0.82                    1.005935        76.74533
0.824                   1.005773        76.07416
0.828                   1.004526        75.41997
0.832                   1.002403        74.80684
0.836                  0.9997739         74.2522
0.84                   0.9971031        73.76351
0.844                  0.9948695        73.33665
0.848                  0.9934806        72.95609
0.852                   0.993195        72.59758
0.856                  0.9940733        72.23254
0.86                   0.9959635        71.83346
0.864                  0.9985294         71.3792
0.868                   1.001312        70.85878
0.872                   1.003813        70.27324
0.876                   1.005584        69.63515
0.88                    1.006303         68.9663
0.884                   1.005835        68.29387
0.888                   1.004249        67.64594
0.892                   1.001814        67.04684
0.896                  0.9989565        66.51277
0.9                    0.9961816        66.04887
0.904                  0.9939902        65.64763
0.908                  0.9927852        65.28991
0.912                  0.9927946        64.94817
0.916                  0.9940266        64.59158
0.92                   0.9962664        64.19193
0.924                  0.9991145        63.72899
0.928                   1.002061        63.19416
0.932                   1.004577        62.59178
0.936                    1.00621        61.93805
0.94                    1.006661        61.25812
0.944                   1.005836         60.5818
0.948                   1.003868        59.93862
0.952                   1.001092        59.35288
0.956                  0.9979916        58.83936
0.96                   0.9951202        58.40026
0.964                  0.9929985        58.02429
0.968                  0.9920207        57.68818
0.972                  0.9923761        57.36078
0.976                  0.9940126        57.00892
0.98                   0.9966429        56.60382
0.984                  0.9997975        56.12655
0.988                   1.002911        55.57133
0.992                   1.005425        54.94626
0.996                   1.006885        54.27165
1                       1.007018        53.57639
1.004                   1.005786        52.89303
1.008                   1.003387        52.25262
1.012                   1.000232        51.67929
1.016                  0.9968729        51.18599
1.02                   0.9939103        50.77158
1.024                   0.991886         50.4203
1.028                  0.9911792        50.10428
1.032                  0.9919339        49.78835
1.036                  0.9940265        49.43694
1.04                   0.9970876        49.02086
1.044                    1.00057        48.52285
1.048                   1.003849        47.94049
1.052                   1.006333        47.28626
1.056                   1.007572        46.58502
1.06                    1.007326        45.86978
1.064                   1.005619        45.17617
1.068                    1.00273        44.53675
1.072                  0.9991512        43.97536
1.076                  0.9955128        43.50268
1.08                   0.9924689        43.11353
1.084                  0.9905806        42.78703
1.088                  0.9902079         42.4899
1.092                  0.9914382        42.18252
1.096                  0.9940639        41.82668
1.1                    0.9976208        41.39297
1.104                   1.001473        40.86626
1.108                   1.004928        40.24811
1.112                   1.007363        39.55606
1.116                    1.00833        38.82022
1.12                    1.007633        38.07831
1.124                   1.005366        37.36945
1.128                   1.001901        36.72791
1.132                   0.997831        36.17709
1.136                  0.9938726        35.72502
1.14                   0.9907417        35.36173
1.144                  0.9890211        35.06022
1.148                  0.9890464        34.78089
1.152                  0.9908369        34.47895
1.156                  0.9940864        34.11315
1.16                   0.9982188        33.65405
1.164                   1.002494        33.08911
1.168                   1.006145        32.42456
1.172                   1.008508        31.68387
1.176                   1.009142        30.90335
1.18                    1.007901        30.12612
1.184                   1.004966        29.39551
1.188                   1.000817        28.74779
1.192                   0.996166        28.20599
1.196                  0.9918351        27.77479
1.2                    0.9886142        27.43847
1.204                  0.9871119        27.16267
1.208                   0.987634        26.89995
1.212                  0.9901165         26.5992
1.216                  0.9941322        26.21573
1.22                   0.9989692        25.71986
1.224                   1.003762         25.1023
1.228                   1.007647        24.37505
1.232                   1.009914        23.56876
1.236                   1.010128        22.72711
1.24                    1.008201        21.90014
1.244                   1.004416        21.13642
1.248                  0.9993916        20.47504
1.252                   0.993986         19.9388
1.256                  0.9891576         19.5286
1.26                   0.9857945        19.22158
1.264                  0.9845438        18.97379
1.268                  0.9856779        18.72788
1.272                  0.9890314        18.42438
1.276                  0.9940253        18.01374
1.28                    0.999774        17.46595
1.284                   1.005249        16.77551
1.288                   1.009461        15.96146
1.292                   1.011633         15.0633
1.296                   1.011325        14.13434
1.3                     1.008517        13.23354
1.304                   1.003621        12.41668
1.308                   0.997427        11.72739
1.312                  0.9909908        11.18884
1.316                  0.9854574        10.79761
1.32                   0.9818566        10.52161
1.324                  0.9809002        10.30404
1.328                  0.9828281        10.07361
1.332                  0.9873459        9.758905
1.336                  0.9936724        9.303181
1.34                    1.000685        8.675194
1.344                   1.007126        7.873993
1.348                   1.011822        6.927645
1.352                   1.013883        5.887519
1.356                   1.012849        4.820028
1.36                    1.008772        3.797069
1.364                   1.002228        2.885737
1.368                  0.9942484        2.137612
1.372                  0.9861745        1.578449
1.376                  0.9794427        1.200153
1.38                    0.975322       0.9579797
1.384                  0.9746561       0.7758094
1.388                  0.9776698       0.5601096
1.392                  0.9839005       0.2195209
1.396                  0.9922736      -0.3158798
1.4                     1.001304        -1.08136
1.404                   1.009367       -2.072968
1.408                   1.014974       -3.250643
1.412                   1.017018       -4.546191
1.416                   1.014949        -5.87352
1.42                    1.008875       -7.139857
1.424                  0.9995801       -8.257886
1.428                  0.9884506        -9.15919
1.432                  0.9772979       -9.808541
1.436                  0.9680816       -10.21664
1.44                   0.9625515       -10.44645
1.444                   0.961876        -10.6074
1.448                  0.9663544       -10.83543
1.452                  0.9753055       -11.26321
1.456                  0.9871785       -11.99111
1.46                   0.9998427        -13.0687
1.464                    1.01097       -14.49014
1.468                   1.018416       -16.20054
1.472                   1.020541       -18.10747
1.476                   1.016453        -20.0936
1.48                    1.006159       -22.02893
1.484                  0.9906349        -23.7839
1.488                  0.9717979       -25.24621
1.492                  0.9523408       -26.34342
1.496                  0.9353985       -27.07067
1.5                    0.9240175       -27.51539
1.504                  0.9204872       -27.86358
1.508                  0.9257072       -28.37327
1.512                  0.9388341       -29.31792
1.516                  0.9573587        -30.9246
1.52                   0.9775621       -33.33637
1.524                  0.9951376        -36.6094
1.528                   1.005771       -40.73429
1.532                   1.005575       -45.66504
1.536                  0.9913667       -51.34473
1.54                   0.9608294       -57.72535
1.544                  0.9125939       -64.78427
1.548                   0.846278       -72.54283
1.552                   0.762515       -81.09681
