! TOUCHSTONE file generated by CST MICROWAVE STUDIO
! Date and time: Thu Jun  9 09:13:15 2022
! Project name: AppElm_antenne_patch_Alumina.cst
! Parameters = {L=30.5; W=41.8; e=0.035; h=1.6; lambda=0.190476; ls=90; w0=1.064; w1=0.373; ws=90; y0=14; y1=10}
! Header version: 2018
! Port assignment regex: !\s*Touchstone port\s*([0-9]+)\s*=\s*(CST MWS port|CST DS port)\s*([0-9]+|Zmin|Zmax)\s*\(\"(.*)\"\)(\s*mode\s*([0-9]+))?.*
! Touchstone port assignment:
! Touchstone port 1 = CST MWS port 1 ("")
# GHz S MA R 50
0                      0.9794262              -0
0.004                  0.9805509       -10.36388
0.008                  0.9837768       -20.61824
0.012                  0.9886829        -30.6604
0.016                  0.9946392       -40.39994
0.02                    1.000899       -49.76176
0.024                   1.006701       -58.68679
0.028                   1.011369        -67.1308
0.032                   1.014388       -75.06248
0.036                   1.015465       -82.46146
0.04                    1.014552       -89.31681
0.044                    1.01185       -95.62676
0.048                   1.007776        -101.399
0.052                   1.002913        -106.652
0.056                   0.997931       -111.4155
0.06                   0.9934995       -115.7318
0.064                   0.990195       -119.6542
0.068                  0.9884197       -123.2439
0.072                  0.9883455       -126.5662
0.076                  0.9898942       -129.6837
0.08                   0.9927568       -132.6513
0.084                  0.9964502        -135.511
0.088                   1.000395       -138.2903
0.092                   1.004008       -141.0009
0.096                   1.006779       -143.6414
0.1                     1.008347          -146.2
0.104                    1.00854       -148.6586
0.108                   1.007389        -150.997
0.112                   1.005121       -153.1974
0.116                   1.002124       -155.2476
0.12                   0.9988788       -157.1446
0.124                  0.9958965       -158.8956
0.128                  0.9936331       -160.5186
0.132                  0.9924217       -162.0401
0.136                  0.9924209        -163.492
0.14                   0.9935924        -164.907
0.144                  0.9957123       -166.3135
0.148                  0.9984129       -167.7323
0.152                   1.001247       -169.1736
0.156                   1.003759       -170.6366
0.16                    1.005561       -172.1109
0.164                   1.006388       -173.5786
0.168                   1.006132       -175.0181
0.172                   1.004862       -176.4069
0.176                   1.002802       -177.7265
0.18                    1.000304       -178.9644
0.184                  0.9977804        179.8832
0.188                  0.9956469        178.8102
0.192                  0.9942484        177.8015
0.196                  0.9938045        176.8355
0.2                    0.9943724        175.8869
0.204                  0.9958398        174.9318
0.208                  0.9979463        173.9509
0.212                    1.00033         172.933
0.216                   1.002592        171.8761
0.22                    1.004359        170.7875
0.224                   1.005347        169.6819
0.228                   1.005406        168.5792
0.232                   1.004538        167.5005
0.236                   1.002898        166.4652
0.24                    1.000769        165.4877
0.244                  0.9985116        164.5749
0.248                  0.9965091        163.7247
0.252                  0.9950983        162.9265
0.256                   0.994515        162.1624
0.26                   0.9948511        161.4106
0.264                  0.9960408        160.6491
0.268                  0.9978724        159.8594
0.272                   1.000027        159.0298
0.276                   1.002136        158.1571
0.28                    1.003841        157.2468
0.284                   1.004859        156.3122
0.288                   1.005023        155.3715
0.292                   1.004311        154.4451
0.296                   1.002849        153.5521
0.3                      1.00089        152.7074
0.304                  0.9987701        151.9186
0.308                  0.9968549        151.1854
0.312                  0.9954734        150.4985
0.316                  0.9948634        149.8418
0.32                   0.9951274        149.1949
0.324                  0.9962152        148.5366
0.328                   0.997934         147.849
0.332                  0.9999825        147.1203
0.336                   1.002005        146.3472
0.34                    1.003654        145.5346
0.344                   1.004647        144.6952
0.348                   1.004818        143.8467
0.352                   1.004139         143.009
0.356                    1.00273        142.2011
0.36                    1.000834        141.4377
0.364                    0.99878        140.7266
0.368                  0.9969255        140.0676
0.372                  0.9955941        139.4517
0.376                  0.9950191        138.8633
0.38                   0.9953008        138.2822
0.384                  0.9963886        137.6877
0.388                  0.9980895        137.0624
0.392                   1.000104        136.3948
0.396                   1.002081        135.6819
0.4                     1.003675         134.929
0.404                   1.004611        134.1487
0.408                   1.004729         133.359
0.412                   1.004007        132.5799
0.416                   1.002572        131.8299
0.42                    1.000671        131.1237
0.424                  0.9986363        130.4685
0.428                  0.9968244        129.8637
0.432                  0.9955552        129.2998
0.436                  0.9950531        128.7608
0.44                   0.9954081        128.2263
0.444                   0.996557        127.6759
0.448                  0.9982967        127.0923
0.452                   1.000319        126.4649
0.456                   1.002269        125.7914
0.46                    1.003803        125.0777
0.464                   1.004655        124.3375
0.468                   1.004674         123.589
0.472                   1.003857        122.8526
0.476                   1.002343        122.1467
0.48                    1.000397        121.4854
0.484                   0.998358        120.8753
0.488                  0.9965872        120.3145
0.492                  0.9953992        119.7927
0.496                  0.9950071         119.293
0.5                    0.9954828        118.7944
0.504                   0.996743        118.2765
0.508                  0.9985644        117.7223
0.512                   1.000625        117.1223
0.516                   1.002559        116.4752
0.52                    1.004028        115.7884
0.524                   1.004771        115.0764
0.528                   1.004658        114.3586
0.532                   1.003705        113.6555
0.536                   1.002077        112.9856
0.54                    1.000057        112.3621
0.544                  0.9980012        111.7906
0.548                  0.9962744        111.2679
0.552                  0.9951859        110.7822
0.556                  0.9949331        110.3152
0.56                    0.995564        109.8454
0.564                  0.9969679         109.352
0.568                  0.9988956        108.8189
0.572                   1.001004        108.2376
0.576                    1.00292        107.6082
0.58                    1.004303          106.94
0.584                   1.004907        106.2489
0.588                   1.004624        105.5552
0.592                   1.003499        104.8799
0.596                   1.001725        104.2414
0.6                    0.9996131         103.652
0.604                  0.9975358        103.1158
0.608                  0.9958642        102.6278
0.612                  0.9948996        102.1745
0.616                   0.994819        101.7359
0.62                   0.9956406        101.2897
0.624                  0.9972199        100.8151
0.628                  0.9992761        100.2967
0.632                   1.001443        99.72749
0.636                   1.003335        99.10952
0.64                    1.004615        98.45385
0.644                   1.005055        97.77821
0.648                   1.004573        97.10404
0.652                   1.003249        96.45291
0.656                   1.001311        95.84275
0.66                   0.9990997        95.28486
0.664                  0.9970077        94.78157
0.668                  0.9954108        94.32569
0.672                  0.9945995        93.90148
0.676                  0.9947249         93.4874
0.68                   0.9957688        93.06018
0.684                  0.9975474        92.59902
0.688                  0.9997434        92.08959
0.692                   1.001965        91.52662
0.696                   1.003816        90.91444
0.7                     1.004965        90.26637
0.704                   1.005205          89.602
0.708                   1.004487         88.9441
0.712                   1.002932        88.31463
0.716                   1.000808        87.73106
0.72                   0.9984903        87.20323
0.724                   0.996391         86.7314
0.728                  0.9948893        86.30583
0.732                  0.9942608        85.90835
0.736                  0.9946245        85.51559
0.74                   0.9959205        85.10329
0.744                  0.9979189        84.65094
0.748                   1.000263        84.14556
0.752                   1.002534        83.58393
0.756                   1.004324        82.97301
0.76                    1.005314        82.32854
0.764                   1.005321        81.67231
0.768                   1.004337        81.02835
0.772                   1.002528        80.41896
0.776                   1.000209        79.86088
0.78                   0.9977896        79.36219
0.784                  0.9957035        78.92065
0.788                  0.9943302        78.52363
0.792                  0.9939242        78.15027
0.796                  0.9945663        77.77524
0.8                    0.9961472        77.37344
0.804                  0.9983859        76.92484
0.808                   1.000882        76.41811
0.812                   1.003189        75.85259
0.816                   1.004893        75.23816
0.82                    1.005685        74.59336
0.824                   1.005418        73.94219
0.828                    1.00413        73.31001
0.832                   1.002038        72.71938
0.836                  0.9995087        72.18597
0.84                   0.9969893        71.71578
0.844                  0.9949338        71.30358
0.848                  0.9937183        70.93354
0.852                  0.9935706        70.58183
0.856                   0.994526        70.22106
0.86                   0.9964181        69.82546
0.864                  0.9989099        69.37574
0.868                   1.001555        68.86266
0.872                   1.003877        68.28851
0.876                    1.00546        67.66642
0.88                    1.006013        67.01802
0.884                   1.005429        66.36965
0.888                   1.003798        65.74801
0.892                     1.0014        65.17561
0.896                  0.9986541        64.66685
0.9                    0.9960486         64.2251
0.904                  0.9940557        63.84176
0.908                  0.9930437         63.4973
0.912                  0.9932064        63.16467
0.916                  0.9945246        62.81436
0.92                   0.9967672        62.42012
0.924                  0.9995342        61.96379
0.928                    1.00233        61.43865
0.932                   1.004651        60.85038
0.936                   1.006078        60.21583
0.94                    1.006349        59.55994
0.944                   1.005402        58.91158
0.948                   1.003391        58.29871
0.952                   1.000659        57.74367
0.956                  0.9976881        57.25912
0.96                   0.9950084        56.84542
0.964                  0.9931092        56.48996
0.968                  0.9923449        56.16912
0.972                  0.9928669        55.85236
0.976                  0.9945921        55.50808
0.98                   0.9972163        55.10969
0.984                    1.00027         54.6406
0.988                   1.003205        54.09717
0.992                   1.005491        53.48898
0.996                   1.006714        52.83701
1                       1.006642        52.16986
1.004                    1.00527        51.51907
1.008                   1.002824        50.91382
1.012                  0.9997237        50.37604
1.016                  0.9965152        49.91622
1.02                   0.9937754        49.53105
1.024                  0.9920078        49.20338
1.028                  0.9915474        48.90485
1.032                  0.9924932        48.60109
1.036                  0.9946869        48.25839
1.04                   0.9977404        47.85007
1.044                   1.001107        47.36158
1.048                   1.004182        46.79289
1.052                   1.006409        46.15812
1.056                   1.007381         45.4829
1.06                    1.006906        44.79989
1.064                   1.005048        44.14349
1.068                   1.002113        43.54414
1.072                  0.9986079        43.02307
1.076                  0.9951525        42.58811
1.08                   0.9923723        42.23162
1.084                  0.9907839        41.93107
1.088                  0.9906947        41.65276
1.092                  0.9921406        41.35808
1.096                  0.9948742        41.01103
1.1                    0.9984109        40.58524
1.104                   1.002116        40.06873
1.108                   1.005324        39.46577
1.112                   1.007451        38.79579
1.116                   1.008101        38.08971
1.12                    1.007135        37.38482
1.124                   1.004693        36.71873
1.128                    1.00118        36.12322
1.132                  0.9972024        35.61855
1.136                  0.9934654        35.20942
1.14                   0.9906498        34.88285
1.144                  0.9892847        34.60998
1.148                  0.9896425        34.35084
1.152                  0.9916816        34.06184
1.156                  0.9950494        33.70457
1.16                   0.9991469        33.25312
1.164                   1.003239        32.69873
1.168                   1.006587        32.05087
1.172                   1.008579        31.33515
1.176                   1.008837        30.58869
1.18                    1.007279        29.85415
1.184                   1.004141        29.17301
1.188                  0.9999455        28.57851
1.192                  0.9954167         28.0899
1.196                  0.9913628        27.70777
1.2                    0.9885303        27.41287
1.204                  0.9874617        27.16849
1.208                  0.9883856        26.92689
1.212                  0.9911648         26.6386
1.216                  0.9953173        26.26239
1.22                    1.000105        25.77305
1.224                   1.004669        25.16577
1.228                   1.008184        24.45636
1.232                   1.010003        23.67788
1.236                   1.009765        22.87517
1.24                     1.00746        22.09745
1.244                   1.003443        21.39102
1.248                  0.9983761        20.79141
1.252                  0.9931362        20.31663
1.256                   0.988662        19.96251
1.26                   0.9857865        19.70178
1.264                  0.9850732        19.48771
1.268                   0.986698        19.26263
1.272                  0.9904046        18.96939
1.276                   0.995547        18.56296
1.28                     1.00121         18.0189
1.284                   1.006375         17.3373
1.288                   1.010103        16.54179
1.292                   1.011694        15.67495
1.296                   1.010805        14.79126
1.3                     1.007514         13.9489
1.304                   1.002318        13.20087
1.308                  0.9960709        12.58619
1.312                  0.9898496        12.12204
1.316                  0.9847763        11.79838
1.32                   0.9818107        11.57728
1.324                  0.9815568        11.39825
1.328                  0.9841291        11.18954
1.332                  0.9891156        10.88287
1.336                   0.995649        10.42735
1.34                    1.002568        9.798976
1.344                   1.008628        9.003922
1.348                   1.012718         8.07607
1.352                   1.014049        7.070674
1.356                   1.012282        6.055749
1.36                    1.007595        5.102378
1.364                   1.000679        4.274312
1.368                  0.9926474        3.617299
1.372                  0.9848763        3.149169
1.376                  0.9787741        2.852863
1.38                   0.9755177        2.675434
1.384                  0.9758045        2.535511
1.388                  0.9796879        2.338968
1.392                  0.9865422        1.998881
1.396                  0.9951739        1.453614
1.4                     1.004044       0.6779262
1.404                   1.011543      -0.3145445
1.408                   1.016266       -1.475822
1.412                   1.017237       -2.732267
1.416                   1.014073       -3.995085
1.42                    1.007058       -5.171764
1.424                  0.9971452       -6.178562
1.428                   0.985855        -6.95433
1.432                  0.9750714       -7.474828
1.436                  0.9667386       -7.764392
1.44                   0.9624911       -7.899599
1.444                  0.9632907       -7.999686
1.448                  0.9691763       -8.203087
1.452                  0.9792104        -8.63661
1.456                  0.9916438       -9.388304
1.46                    1.004242       -10.49254
1.464                   1.014677       -11.92886
1.468                   1.020901       -13.63023
1.472                   1.021447       -15.49529
1.476                   1.015654       -17.40079
1.48                    1.003794       -19.21402
1.484                  0.9871266       -20.80673
1.488                  0.9678317        -22.0736
1.492                  0.9488056       -22.95702
1.496                  0.9332653       -23.47574
1.5                    0.9241591       -23.74656
1.504                  0.9234714       -23.98237
1.508                  0.9316314        -24.4549
1.512                  0.9472681        -25.4319
1.516                  0.9674153       -27.11862
1.52                   0.9880484       -29.62991
1.524                   1.004724       -32.99616
1.528                    1.01313       -37.18891
1.532                   1.009475       -42.14946
1.536                  0.9907302       -47.81242
1.54                   0.9547601       -54.12286
1.544                  0.9003815       -61.05057
1.548                  0.8273846       -68.60669
1.552                  0.7365373       -76.87331
