! TOUCHSTONE file generated by CST MICROWAVE STUDIO
! Date and time: Thu Jun  9 09:13:12 2022
! Project name: AppElm_antenne_patch_Alumina.cst
! Parameters = {L=30.5; W=41.8; e=0.035; h=1.6; lambda=0.190476; ls=90; w0=0.896; w1=0.373; ws=90; y0=14; y1=10}
! Header version: 2018
! Port assignment regex: !\s*Touchstone port\s*([0-9]+)\s*=\s*(CST MWS port|CST DS port)\s*([0-9]+|Zmin|Zmax)\s*\(\"(.*)\"\)(\s*mode\s*([0-9]+))?.*
! Touchstone port assignment:
! Touchstone port 1 = CST MWS port 1 ("")
# GHz S MA R 50
0                      0.9803193              -0
0.004                  0.9814112        -10.3657
0.008                  0.9845422       -20.62256
0.012                  0.9892999       -30.66847
0.016                  0.9950681       -40.41338
0.02                    1.001117       -49.78233
0.024                   1.006705       -58.71621
0.028                   1.011174        -67.1707
0.032                   1.014028       -75.11441
0.036                   1.014987       -82.52696
0.04                    1.014017       -89.39768
0.044                   1.011324       -95.72519
0.048                   1.007325       -101.5178
0.052                   1.002594       -106.7946
0.056                  0.9977869       -111.5862
0.06                   0.9935519       -115.9353
0.064                  0.9904397       -119.8952
0.068                  0.9888262       -123.5267
0.072                  0.9888605        -126.894
0.076                  0.9904484       -130.0582
0.08                   0.9932757       -133.0723
0.084                  0.9968638        -135.977
0.088                   1.000649       -138.7978
0.092                    1.00407        -141.546
0.096                   1.006647       -144.2196
0.1                     1.008044       -146.8071
0.104                   1.008115       -149.2912
0.108                   1.006908       -151.6529
0.112                   1.004661       -153.8758
0.116                   1.001755       -155.9496
0.12                   0.9986602       -157.8725
0.124                  0.9958632       -159.6531
0.128                  0.9937908       -161.3099
0.132                  0.9927449       -162.8691
0.136                   0.992857       -164.3619
0.14                   0.9940704       -165.8192
0.144                  0.9961542       -167.2678
0.148                  0.9987479       -168.7266
0.152                   1.001422       -170.2043
0.156                   1.003748       -171.6994
0.16                    1.005369       -173.2011
0.164                   1.006048       -174.6922
0.168                   1.005704       -176.1519
0.172                   1.004418       -177.5595
0.176                   1.002421       -178.8981
0.18                     1.00005        179.8432
0.184                     0.9977        178.6665
0.188                  0.9957568        177.5652
0.192                  0.9945332         176.524
0.196                  0.9942182         175.522
0.2                    0.9948471        174.5354
0.204                  0.9962968         173.542
0.208                  0.9983102        172.5244
0.212                   1.000542        171.4731
0.216                   1.002618        170.3872
0.22                    1.004199        169.2743
0.224                    1.00503        168.1488
0.228                   1.004989        167.0294
0.232                   1.004093        165.9359
0.236                   1.002503        164.8857
0.24                    1.000493        163.8916
0.244                  0.9984048         162.959
0.248                  0.9965905        162.0849
0.252                  0.9953552        161.2585
0.256                  0.9949031        160.4628
0.26                   0.9953029        159.6771
0.264                  0.9964777        158.8814
0.268                  0.9982182        158.0591
0.272                   1.000222        157.2002
0.276                   1.002146        156.3025
0.28                    1.003665        155.3721
0.284                   1.004527        154.4218
0.288                   1.004592        153.4686
0.292                   1.003855        152.5315
0.296                   1.002448        151.6278
0.3                     1.000612        150.7705
0.304                  0.9986648         149.966
0.308                  0.9969403        149.2127
0.312                   0.995735        148.5016
0.316                  0.9952549        147.8172
0.32                   0.9955799        147.1404
0.324                  0.9966488         146.452
0.328                  0.9982724         145.736
0.332                   1.000166        144.9824
0.336                   1.002003        144.1888
0.34                    1.003466        143.3607
0.344                   1.004306          142.51
0.348                   1.004384        141.6535
0.352                   1.003687        140.8095
0.356                   1.002339        139.9951
0.36                    1.000574        139.2231
0.364                  0.9986959        138.5001
0.368                  0.9970333        137.8248
0.372                  0.9958758        137.1886
0.376                  0.9954252        136.5762
0.38                   0.9957597        135.9693
0.384                  0.9968193        135.3491
0.388                  0.9984158        134.6999
0.392                   1.000269        134.0121
0.396                   1.002055        133.2836
0.4                     1.003464          132.52
0.404                   1.004251        131.7333
0.408                   1.004283        130.9404
0.412                   1.003553        130.1595
0.416                   1.002189        129.4074
0.42                    1.000427        128.6967
0.424                   0.998575        128.0335
0.428                  0.9969578        127.4163
0.432                  0.9958604        126.8358
0.436                  0.9954772        126.2768
0.44                   0.9958766        125.7207
0.444                  0.9969879        125.1488
0.448                  0.9986144         124.546
0.452                   1.000469        123.9031
0.456                   1.002226        123.2188
0.46                    1.003577        122.4994
0.464                   1.004286        121.7576
0.468                   1.004229        121.0106
0.472                   1.003414        120.2768
0.476                   1.001983        119.5729
0.48                    1.000185         118.911
0.484                  0.9983343        118.2965
0.488                  0.9967581        117.7269
0.492                  0.9957371        117.1921
0.496                  0.9954536        116.6761
0.5                    0.9959605        116.1598
0.504                  0.9971682        115.6247
0.508                  0.9988628        115.0559
0.512                   1.000744        114.4453
0.516                   1.002479        113.7925
0.52                    1.003763        113.1049
0.524                   1.004367        112.3964
0.528                   1.004185        111.6849
0.532                   1.003246        110.9889
0.536                   1.001711        110.3252
0.54                   0.9998495        109.7052
0.544                  0.9979881        109.1332
0.548                  0.9964581        108.6054
0.552                   0.995534        108.1103
0.556                  0.9953834        107.6308
0.56                   0.9960359        107.1473
0.564                   0.997377         106.641
0.568                  0.9991689        106.0978
0.572                   1.001093        105.5105
0.576                   1.002808        104.8804
0.58                     1.00401        104.2162
0.584                   1.004485        103.5333
0.588                   1.004146        102.8503
0.592                   1.003049        102.1863
0.596                   1.001383        101.5578
0.6                    0.9994411        100.9754
0.604                  0.9975661         100.442
0.608                  0.9960936        99.95201
0.612                  0.9952898        99.49242
0.616                  0.9953025        99.04469
0.62                    0.996133        98.58833
0.624                  0.9976353        98.10467
0.628                  0.9995422        97.58035
0.632                   1.001514        97.00965
0.636                     1.0032        96.39543
0.64                    1.004299        95.74844
0.644                   1.004614        95.08548
0.648                   1.004085        94.42636
0.652                   1.002799        93.79064
0.656                   1.000982        93.19431
0.66                   0.9989506        92.64685
0.664                  0.9970675        92.14948
0.668                  0.9956717        91.69467
0.672                  0.9950174        91.26729
0.676                  0.9952275        90.84726
0.68                   0.9962684        90.41327
0.684                  0.9979568         89.9468
0.688                  0.9999914        89.43546
0.692                   1.002009         88.8753
0.696                    1.00365         88.2713
0.7                     1.004619        87.63634
0.704                    1.00474        86.98897
0.708                   1.003985        86.35024
0.712                   1.002483        85.74003
0.716                   1.000494        85.17375
0.72                   0.9983688        84.65955
0.724                  0.9964872        84.19649
0.728                    0.99519        83.77471
0.732                  0.9947159        83.37673
0.736                  0.9951561        82.98078
0.74                   0.9964367        82.56478
0.744                  0.9983305        82.11047
0.748                   1.000499        81.60684
0.752                   1.002555        81.05195
0.756                   1.004129         80.4533
0.76                    1.004937        79.82615
0.764                    1.00483        79.19103
0.768                   1.003819        78.57015
0.772                   1.002076        77.98367
0.776                  0.9999056        77.44619
0.78                   0.9976915        76.96406
0.784                  0.9958319        76.53393
0.788                  0.9946659        76.14312
0.792                  0.9944109        75.77168
0.796                    0.99512        75.39598
0.8                     0.996671        74.99326
0.804                  0.9987883        74.54584
0.808                   1.001093        74.04437
0.812                   1.003171        73.48946
0.816                   1.004649        72.89135
0.82                    1.005257        72.26805
0.824                   1.004881        71.64216
0.828                   1.003576        71.03709
0.832                   1.001566        70.47305
0.836                   0.999202         69.9636
0.84                   0.9969053        69.51289
0.844                  0.9950908        69.11469
0.848                  0.9940921        68.75313
0.852                  0.9940982        68.40547
0.856                  0.9951166        68.04625
0.86                   0.9969696        67.65213
0.864                  0.9993275        67.20631
0.868                   1.001767         66.7016
0.872                    1.00385        66.14147
0.876                     1.0052        65.53939
0.88                    1.005569        64.91626
0.884                   1.004881        64.29692
0.888                   1.003248        63.70592
0.892                   1.000948        63.16341
0.896                  0.9983873        62.68139
0.9                    0.9960227        62.26147
0.904                  0.9942847        61.89401
0.908                  0.9934961         61.5596
0.912                  0.9938104        61.23248
0.916                  0.9951801         60.8853
0.92                   0.9973646        60.49445
0.924                  0.9999737        60.04438
0.928                   1.002538        59.53047
0.932                   1.004596        58.95962
0.936                   1.005774        58.34887
0.94                     1.00585        57.72234
0.944                   1.004798        57.10719
0.948                   1.002791        56.52907
0.952                   1.000174        56.00771
0.956                   0.997409        55.55326
0.96                    0.994993        55.16415
0.964                  0.9933687        54.82683
0.968                  0.9928416        54.51785
0.972                  0.9935205        54.20817
0.976                  0.9952934         53.8686
0.98                   0.9978474        53.47542
0.984                   1.000725        53.01485
0.988                   1.003409        52.48539
0.992                   1.005414        51.89786
0.996                   1.006373        51.27335
1                       1.006101         50.6395
1.004                   1.004629        50.02593
1.008                   1.002202        49.45929
1.012                  0.9992396        48.95866
1.016                  0.9962655        48.53183
1.02                   0.9938177        48.17347
1.024                  0.9923488        47.86541
1.028                    0.99214        47.57973
1.032                  0.9932446        47.28379
1.036                  0.9954748        46.94659
1.04                   0.9984349        46.54466
1.044                   1.001594        46.06649
1.048                   1.004382        45.51432
1.052                   1.006293        44.90354
1.056                   1.006973        44.25977
1.06                    1.006281        43.61455
1.064                   1.004319        43.00013
1.068                   1.001414        42.44411
1.072                  0.9980699        41.96452
1.076                  0.9948816        41.56624
1.08                     0.99243        41.23936
1.084                  0.9911741        40.96037
1.088                  0.9913616        40.69609
1.092                  0.9929779        40.40996
1.096                  0.9957443        40.06913
1.1                    0.9991692        39.65078
1.104                   1.002638        39.14625
1.108                   1.005524        38.56232
1.112                   1.007301        37.91968
1.116                   1.007633         37.2492
1.12                    1.006435        36.58685
1.124                    1.00389         35.9678
1.128                   1.000426        35.42058
1.132                  0.9966437        34.96198
1.136                  0.9932194        34.59312
1.14                    0.990782        34.29868
1.144                  0.9897944        34.04873
1.148                  0.9904617        33.80396
1.152                  0.9926856        33.52335
1.156                  0.9960795        33.17206
1.16                    1.000039        32.72831
1.164                   1.003852        32.18701
1.168                   1.006828        31.56041
1.172                   1.008419         30.8754
1.176                   1.008315         30.1691
1.18                    1.006498        29.48255
1.184                   1.003252         28.8544
1.188                  0.9991212        28.31421
1.192                  0.9948268        27.87702
1.196                   0.991141        27.53956
1.2                    0.9887488        27.27966
1.204                  0.9881158        27.05945
1.208                  0.9893912         26.8322
1.212                   0.992373        26.55142
1.216                   0.996541        26.18024
1.22                    1.001152        25.69819
1.224                   1.005376        25.10476
1.228                   1.008445         24.4189
1.232                   1.009786        23.67515
1.236                   1.009118        22.91814
1.24                    1.006507        22.19545
1.244                   1.002362        21.55005
1.248                  0.9973754        21.01304
1.252                  0.9924183        20.59746
1.256                  0.9883875        20.29445
1.26                   0.9860428        20.07317
1.264                  0.9858548        19.88551
1.268                  0.9879047        19.67501
1.272                   0.991858        19.38819
1.276                  0.9970233        18.98524
1.28                    1.002479        18.44747
1.284                   1.007244        17.78001
1.288                   1.010444        17.01017
1.292                   1.011468        16.18234
1.296                    1.01007        15.35089
1.3                     1.006418        14.57195
1.304                   1.001079        13.89468
1.308                   0.994941        13.35281
1.312                   0.989078        12.95732
1.316                  0.9845608        12.69223
1.32                   0.9822589        12.51507
1.324                  0.9826596        12.36352
1.328                  0.9857582        12.16744
1.332                  0.9910434        11.86323
1.336                  0.9975904         11.4067
1.34                     1.00423        10.78107
1.344                   1.009761        9.998825
1.348                   1.013156        9.098466
1.352                   1.013735        8.137692
1.356                   1.011282        7.184664
1.36                    1.006092        6.308281
1.364                  0.9989494        5.567799
1.368                  0.9910247        5.002364
1.372                  0.9836968        4.621723
1.376                  0.9783177        4.400513
1.38                   0.9759499        4.279132
1.384                  0.9771383        4.173119
1.388                  0.9817738         3.98997
1.392                  0.9890935        3.648805
1.396                  0.9978187        3.096864
1.4                     1.006391        2.318489
1.404                   1.013249        1.335806
1.408                    1.01709       0.2031186
1.412                   1.017078       -1.002196
1.416                    1.01299       -2.190341
1.42                    1.005274       -3.270683
1.424                   0.995023       -4.164519
1.428                  0.9838548       -4.819095
1.432                  0.9736817       -5.221545
1.436                  0.9663895        -5.40901
1.44                   0.9634624       -5.469358
1.444                  0.9656418       -5.528042
1.448                  0.9727178       -5.722175
1.452                  0.9835318       -6.169856
1.456                  0.9961862       -6.945707
1.46                    1.008394       -8.069527
1.464                   1.017872       -9.507872
1.468                   1.022696       -11.18363
1.472                   1.021591       -12.98833
1.476                   1.014127       -14.79453
1.48                    1.000837        -16.4683
1.484                   0.983242       -17.88424
1.488                  0.9637564       -18.94574
1.492                  0.9454377       -19.61174
1.496                  0.9315328       -19.92542
1.5                    0.9248377       -20.03173
1.504                  0.9269928        -20.1663
1.508                  0.9379519       -20.60841
1.512                  0.9558531       -21.61475
1.516                   0.977335       -23.36653
1.52                   0.9981342       -25.95113
1.524                   1.013722       -29.37555
1.528                   1.019818       -33.59421
1.532                   1.012743       -38.53652
1.536                   0.989621       -44.12762
1.54                   0.9484881       -50.30264
1.544                  0.8883339       -57.01767
1.548                  0.8091023       -64.26262
1.552                  0.7116694       -72.08484
