! TOUCHSTONE file generated by CST MICROWAVE STUDIO
! Date and time: Thu Jun  9 09:13:11 2022
! Project name: AppElm_antenne_patch_Alumina.cst
! Parameters = {L=30.5; W=41.8; e=0.035; h=1.6; lambda=0.190476; ls=90; w0=0.84; w1=0.373; ws=90; y0=14; y1=10}
! Header version: 2018
! Port assignment regex: !\s*Touchstone port\s*([0-9]+)\s*=\s*(CST MWS port|CST DS port)\s*([0-9]+|Zmin|Zmax)\s*\(\"(.*)\"\)(\s*mode\s*([0-9]+))?.*
! Touchstone port assignment:
! Touchstone port 1 = CST MWS port 1 ("")
# GHz S MA R 50
0                      0.9805467              -0
0.004                  0.9816284       -10.36607
0.008                  0.9847294       -20.62357
0.012                  0.9894408       -30.67063
0.016                  0.9951508       -40.41733
0.02                    1.001135       -49.78883
0.024                   1.006659         -58.726
0.028                    1.01107       -67.18451
0.032                   1.013877       -75.13296
0.036                   1.014805       -82.55096
0.04                    1.013824       -89.42789
0.044                   1.011139       -95.76251
0.048                   1.007168       -101.5633
0.052                   1.002483       -106.8495
0.056                  0.9977318       -111.6519
0.06                   0.9935578       -116.0133
0.064                  0.9905036       -119.9868
0.068                  0.9889376       -123.6333
0.072                   0.989002       -127.0164
0.076                  0.9905992       -130.1969
0.08                   0.9934135       -133.2271
0.084                  0.9969689       -136.1473
0.088                   1.000707       -138.9827
0.092                   1.004073       -141.7442
0.096                   1.006594       -144.4298
0.1                     1.007945       -147.0281
0.104                   1.007984        -149.522
0.108                   1.006765       -151.8929
0.112                   1.004527       -154.1249
0.116                   1.001651       -156.2082
0.12                   0.9986014       -158.1413
0.124                  0.9958582       -159.9331
0.128                  0.9938398       -161.6022
0.132                  0.9928392       -163.1749
0.136                  0.9929805       -164.6819
0.14                   0.9942022       -166.1538
0.144                  0.9962726       -167.6168
0.148                   0.998833       -169.0893
0.152                   1.001459       -170.5796
0.156                   1.003733        -172.086
0.16                    1.005303       -173.5977
0.164                   1.005942       -175.0976
0.168                   1.005576       -176.5653
0.172                   1.004289       -177.9806
0.176                   1.002311       -179.3269
0.18                   0.9999782        179.4061
0.184                   0.997679        178.2202
0.188                  0.9957896        177.1085
0.192                  0.9946141        176.0558
0.196                  0.9943335        175.0413
0.2                     0.994977        174.0418
0.204                   0.996419        173.0354
0.208                  0.9984042        172.0056
0.212                   1.000592        170.9429
0.216                   1.002616        169.8469
0.22                    1.004144        168.7253
0.224                   1.004934        167.5923
0.228                   1.004867        166.4663
0.232                   1.003967        165.3666
0.236                   1.002394        164.3103
0.24                     1.00042        163.3095
0.244                  0.9983807        162.3692
0.248                  0.9966198        161.4863
0.252                  0.9954328          160.65
0.256                  0.9950156        159.8434
0.26                    0.995431        159.0464
0.264                  0.9965986        158.2393
0.268                  0.9983113        157.4062
0.272                   1.000271        156.5374
0.276                   1.002143        155.6313
0.28                    1.003611        154.6937
0.284                   1.004431        153.7373
0.288                    1.00447        152.7792
0.292                    1.00373        151.8375
0.296                   1.002339        150.9292
0.3                     1.000541        150.0667
0.304                  0.9986428        149.2561
0.308                  0.9969718        148.4956
0.312                  0.9958147        147.7761
0.316                  0.9953688        147.0823
0.32                   0.9957079        146.3956
0.324                  0.9967687        145.6974
0.328                   0.998363        144.9722
0.332                   1.000212        144.2105
0.336                   1.001995          143.41
0.34                    1.003406        142.5764
0.344                   1.004205        141.7215
0.348                   1.004258        140.8616
0.352                    1.00356        140.0147
0.356                   1.002232        139.1972
0.36                    1.000504        138.4217
0.364                  0.9986772        137.6941
0.368                  0.9970686        137.0131
0.372                  0.9959586        136.3699
0.376                  0.9955409        135.7497
0.38                   0.9958876        135.1346
0.384                  0.9969366        134.5062
0.388                  0.9985019        133.8495
0.392                   1.000308        133.1553
0.396                   1.002041        132.4216
0.4                     1.003398        131.6543
0.404                   1.004146        130.8652
0.408                   1.004156        130.0706
0.412                   1.003426        129.2884
0.416                   1.002085        128.5349
0.42                    1.000364        127.8221
0.424                  0.9985647        127.1558
0.428                  0.9970019        126.5343
0.432                  0.9959513        125.9483
0.436                  0.9955991         125.383
0.44                   0.9960081        124.8202
0.444                  0.9971054        124.2417
0.448                  0.9986976         123.633
0.452                   1.000504        122.9855
0.456                   1.002205        122.2979
0.46                    1.003505        121.5765
0.464                   1.004176         120.834
0.468                     1.0041        120.0871
0.472                   1.003289        119.3536
0.476                   1.001884        118.6498
0.48                    1.000129        117.9873
0.484                  0.9983324        117.3712
0.488                  0.9968109        116.7987
0.492                  0.9958356        116.2598
0.496                  0.9955812        115.7389
0.5                    0.9960945        115.2174
0.504                  0.9972852        114.6772
0.508                  0.9989424        114.1043
0.512                   1.000773        113.4907
0.516                   1.002452        112.8362
0.52                    1.003685        112.1485
0.524                   1.004253         111.441
0.528                   1.004054        110.7311
0.532                   1.003122        110.0371
0.536                   1.001616         109.375
0.54                   0.9998008        108.7558
0.544                   0.997995        108.1834
0.548                  0.9965199         107.654
0.552                  0.9956402        107.1561
0.556                  0.9955154        106.6731
0.56                   0.9961707        106.1858
0.564                   0.997491         105.676
0.568                  0.9992419        105.1301
0.572                   1.001112        104.5416
0.576                    1.00277        103.9115
0.58                    1.003922        103.2488
0.584                   1.004362        102.5685
0.588                   1.004009        101.8888
0.592                   1.002922        101.2283
0.596                   1.001289        100.6029
0.6                    0.9993969        100.0226
0.604                  0.9975796        99.49002
0.608                  0.9961628        98.99967
0.612                  0.9954025        98.53852
0.616                  0.9954391        98.08849
0.62                   0.9962694        97.62961
0.624                  0.9977472        97.14384
0.628                  0.9996102        96.61836
0.632                   1.001526        96.04782
0.636                   1.003154        95.43524
0.64                    1.004202        94.79131
0.644                   1.004484        94.13249
0.648                   1.003944        93.47814
0.652                   1.002673        92.84728
0.656                   1.000892        92.25525
0.66                   0.9989137        91.71112
0.664                  0.9970906        91.21581
0.668                   0.995751        90.76168
0.672                  0.9951394        90.33382
0.676                  0.9953709        89.91261
0.68                   0.9964083        89.47729
0.684                  0.9980684        89.00997
0.688                   1.000055        88.49883
0.692                   1.002015        87.94025
0.696                   1.003596        87.33936
0.7                     1.004515        86.70891
0.704                   1.004604        86.06714
0.708                   1.003843        85.43456
0.712                   1.002359        84.83047
0.716                   1.000411        84.26972
0.72                   0.9983422        83.75992
0.724                  0.9965232         83.2999
0.728                  0.9952834        82.87974
0.732                  0.9948513        82.48222
0.736                  0.9953106        82.08604
0.74                   0.9965839        81.66971
0.744                  0.9984452        81.21567
0.748                   1.000562        80.71342
0.752                   1.002555        80.16143
0.756                   1.004068        79.56723
0.76                    1.004825        78.94597
0.764                   1.004688        78.31779
0.768                   1.003673        77.70437
0.772                   1.001952        77.12522
0.776                  0.9998257        76.59438
0.78                   0.9976718        76.11769
0.784                  0.9958774        75.69151
0.788                    0.99477         75.3032
0.792                  0.9945565        74.93303
0.796                  0.9952821        74.55797
0.8                    0.9968219        74.15586
0.804                  0.9989022        73.70972
0.808                    1.00115        73.21079
0.812                   1.003162        72.65999
0.816                   1.004576        72.06763
0.82                    1.005134        71.45155
0.824                   1.004728        70.83391
0.828                   1.003422        70.23755
0.832                   1.001438        69.68202
0.836                  0.9991249        69.18024
0.84                   0.9968935        68.73586
0.844                  0.9951481         68.3424
0.848                    0.99421        67.98403
0.852                  0.9942572        67.63835
0.856                  0.9952896        67.28046
0.86                   0.9971273        66.88774
0.864                  0.9994424        66.44412
0.868                    1.00182        65.94296
0.872                   1.003832        65.38809
0.876                   1.005115        64.79297
0.88                    1.005431        64.17834
0.884                   1.004716        63.56855
0.888                   1.003084        62.98751
0.892                   1.000816        62.45463
0.896                  0.9983116        61.98131
0.9                    0.9960184        61.56859
0.904                  0.9943546        61.20659
0.908                  0.9936297          60.876
0.912                  0.9939856        60.55141
0.916                  0.9953676        60.20616
0.92                   0.9975325        59.81738
0.924                   1.000093         59.3703
0.928                    1.00259        58.86088
0.932                   1.004572        58.29635
0.936                   1.005678        57.69376
0.94                      1.0057        57.07698
0.944                   1.004622        56.47263
0.948                   1.002621        55.90568
0.952                   1.000042        55.39507
0.956                  0.9973404        54.95026
0.96                   0.9950031        54.56912
0.964                   0.993459        54.23784
0.968                  0.9929993        53.93313
0.972                  0.9937206        53.62638
0.976                  0.9955029        53.28914
0.98                   0.9980315        52.89856
0.984                   1.000854        52.44167
0.988                   1.003461        51.91756
0.992                   1.005382        51.33741
0.996                   1.006264        50.72226
1                       1.005936        50.09947
1.004                   1.004439        49.49805
1.008                   1.002022        48.94389
1.012                  0.9991035        48.45518
1.016                  0.9962021        48.03897
1.02                   0.9938424        47.68932
1.024                  0.9924616        47.38786
1.028                  0.9923255        47.10679
1.032                  0.9934737        46.81405
1.036                  0.9957106        46.47947
1.04                   0.9986388        46.08055
1.044                   1.001733        45.60664
1.048                   1.004434        45.06065
1.052                   1.006252        44.45827
1.056                   1.006848        43.82512
1.06                    1.006096        43.19235
1.064                   1.004108        42.59151
1.068                   1.001218        42.04936
1.072                  0.9979267        41.58297
1.076                  0.9948217        41.19632
1.08                   0.9924694        40.87892
1.084                  0.9913115        40.60697
1.088                  0.9915779        40.34756
1.092                  0.9932392        40.06478
1.096                  0.9960086        39.72675
1.1                    0.9993933        39.31172
1.104                   1.002786        38.81201
1.108                   1.005572        38.23511
1.112                   1.007243        37.60203
1.116                   1.007481        36.94359
1.12                    1.006218        36.29528
1.124                   1.003649        35.69153
1.128                   1.000205        35.15986
1.132                  0.9964879        34.71584
1.136                  0.9931619         34.3598
1.14                     0.99084        34.07566
1.144                  0.9899646        33.83314
1.148                  0.9907204        33.59335
1.152                  0.9929929        33.31601
1.156                  0.9963864        32.96748
1.16                    1.000296        32.52715
1.164                   1.004018        31.99112
1.168                   1.006878        31.37236
1.172                   1.008347        30.69811
1.176                   1.008136        30.00539
1.18                    1.006246        29.33478
1.184                   1.002974        28.72389
1.188                  0.9988726        28.20118
1.192                  0.9946575        27.78039
1.196                  0.9910893         27.4571
1.2                    0.9888337        27.20832
1.204                  0.9883317        26.99593
1.208                  0.9897091        26.77359
1.212                   0.992745        26.49585
1.216                  0.9969085        26.12713
1.22                    1.001457        25.64852
1.224                   1.005572        25.06072
1.228                   1.008502        24.38352
1.232                   1.009699        23.65195
1.236                   1.008906        22.91044
1.24                    1.006212        22.20594
1.244                    1.00204         21.5803
1.248                  0.9970925        21.06325
1.252                  0.9922345        20.66631
1.256                  0.9883487        20.37918
1.26                   0.9861703        20.17003
1.264                   0.986141        19.99047
1.268                  0.9883128        19.78458
1.272                  0.9923287        19.50013
1.276                  0.9974852        19.09901
1.28                    1.002862        18.56427
1.284                   1.007489        17.90259
1.288                   1.010518        17.14231
1.292                   1.011365        16.32829
1.296                   1.009813        15.51473
1.3                     1.006058        14.75701
1.304                   1.000687          14.103
1.308                  0.9945986        13.58467
1.312                  0.9888609        13.21109
1.316                  0.9845269        12.96443
1.32                   0.9824355        12.80095
1.324                  0.9830372        12.65797
1.328                  0.9862901        12.46601
1.332                  0.9916545        12.16311
1.336                    0.99819        11.70724
1.34                    1.004728        11.08385
1.344                   1.010085        10.30733
1.348                   1.013259        9.417505
1.352                   1.013609        8.472685
1.356                   1.010955        7.540915
1.36                    1.005629        6.690227
1.364                  0.9984424        5.978301
1.368                  0.9905796        5.442073
1.372                  0.9834164        5.088692
1.376                  0.9782817        4.890255
1.38                   0.9761989        4.785286
1.384                  0.9776627        4.688689
1.388                  0.9825132        4.508836
1.392                  0.9899474         4.16705
1.396                  0.9986643        3.613522
1.4                     1.007105        2.835631
1.404                   1.013727        1.858082
1.408                   1.017264       0.7370142
1.412                    1.01693      -0.4492101
1.416                   1.012552       -1.610697
1.42                    1.004628       -2.657657
1.424                  0.9942969       -3.513252
1.428                  0.9832009       -4.127653
1.432                  0.9732562       -4.491795
1.436                  0.9663225       -4.646902
1.44                   0.9638306       -4.684198
1.444                  0.9664471       -4.730647
1.448                   0.973883       -4.922381
1.452                  0.9849127       -5.374265
1.456                  0.9975975       -6.156402
1.46                    1.009641       -7.283926
1.464                   1.018782       -8.719388
1.468                   1.023144       -10.38266
1.472                   1.021515       -12.16325
1.476                   1.013546       -13.93263
1.48                   0.9998516       -15.55689
1.484                   0.982037       -16.91205
1.488                  0.9625867       -17.90498
1.492                  0.9445988       -18.50068
1.496                  0.9313141       -18.75068
1.5                    0.9254603       -18.80885
1.504                  0.9285509       -18.91699
1.508                  0.9403787       -19.35501
1.512                  0.9589269       -20.37435
1.516                  0.9807191       -22.14742
1.52                    1.001431       -24.75259
1.524                   1.016521       -28.18948
1.528                   1.021732       -32.40726
1.532                   1.013431       -37.33149
1.536                  0.9887972       -42.88387
1.54                   0.9459295       -48.99533
1.544                  0.8838776       -55.61561
1.548                  0.8026391        -62.7242
1.552                  0.7031279       -70.35033
