! TOUCHSTONE file generated by CST MICROWAVE STUDIO
! Date and time: Thu Jun  9 09:13:20 2022
! Project name: AppElm_antenne_patch_Alumina.cst
! Parameters = {L=30.5; W=41.8; e=0.035; h=1.6; lambda=0.190476; ls=90; w0=1.344; w1=0.373; ws=90; y0=14; y1=10}
! Header version: 2018
! Port assignment regex: !\s*Touchstone port\s*([0-9]+)\s*=\s*(CST MWS port|CST DS port)\s*([0-9]+|Zmin|Zmax)\s*\(\"(.*)\"\)(\s*mode\s*([0-9]+))?.*
! Touchstone port assignment:
! Touchstone port 1 = CST MWS port 1 ("")
# GHz S MA R 50
0                      0.9786174              -0
0.004                  0.9797812       -10.36632
0.008                  0.9831203       -20.62188
0.012                  0.9882011       -30.66298
0.016                  0.9943755       -40.39847
0.02                    1.000875       -49.75286
0.024                   1.006914       -58.66695
0.028                   1.011792       -67.09659
0.032                   1.014977       -75.01055
0.036                   1.016158       -82.38847
0.04                    1.015278        -89.2193
0.044                   1.012533       -95.50092
0.048                   1.008348       -101.2406
0.052                   1.003315        -106.456
0.056                  0.9981256       -111.1768
0.06                   0.9934733       -115.4449
0.064                  0.9899633       -119.3137
0.068                  0.9880239       -122.8456
0.072                  0.9878488       -126.1069
0.076                  0.9893724       -129.1623
0.08                   0.9922877       -132.0682
0.084                  0.9961016       -134.8688
0.088                   1.000217       -137.5924
0.092                   1.004022       -140.2519
0.096                   1.006982       -142.8458
0.1                     1.008707       -145.3619
0.104                   1.009001       -147.7812
0.108                   1.007883       -150.0822
0.112                   1.005574       -152.2453
0.116                   1.002467       -154.2571
0.12                   0.9990614       -156.1129
0.124                  0.9958918       -157.8191
0.128                  0.9934444       -159.3933
0.132                  0.9920815       -160.8625
0.136                  0.9919863       -162.2595
0.14                   0.9931358       -163.6186
0.144                  0.9953089       -164.9702
0.148                  0.9981285       -166.3365
0.152                   1.001126        -167.729
0.156                   1.003822       -169.1478
0.16                    1.005796       -170.5824
0.164                   1.006755       -172.0143
0.168                   1.006572       -173.4205
0.172                   1.005302       -174.7775
0.176                   1.003172       -176.0647
0.18                    1.000542       -177.2681
0.184                  0.9978487       -178.3828
0.188                  0.9955354       -179.4143
0.192                  0.9939779        179.6224
0.196                  0.9934228        178.7046
0.2                    0.9939467         177.806
0.204                  0.9954444        176.9005
0.208                    0.99765        175.9672
0.212                   1.000184        174.9935
0.216                   1.002621        173.9765
0.22                    1.004559        172.9233
0.224                   1.005685        171.8491
0.228                   1.005824        170.7749
0.232                   1.004966        169.7232
0.236                   1.003264        168.7151
0.24                    1.001011        167.7667
0.244                  0.9985883        166.8861
0.248                  0.9964071        166.0719
0.252                  0.9948358        165.3136
0.256                  0.9941376        164.5924
0.26                    0.994425        163.8853
0.264                  0.9956404        163.1683
0.268                  0.9975673        162.4211
0.272                  0.9998703        161.6307
0.276                   1.002154        160.7929
0.28                    1.004031         159.913
0.284                   1.005187        159.0046
0.288                   1.005433        158.0872
0.292                   1.004733        157.1825
0.296                   1.003211        156.3115
0.3                     1.001129        155.4905
0.304                  0.9988454        154.7287
0.308                  0.9967528        154.0261
0.312                  0.9952122        153.3737
0.316                  0.9944889        152.7545
0.32                    0.994706        152.1467
0.324                  0.9958217        151.5273
0.328                  0.9976377        150.8767
0.332                  0.9998357        150.1816
0.336                   1.002034        149.4377
0.34                    1.003853        148.6497
0.344                   1.004983        147.8308
0.348                   1.005233        146.9998
0.352                   1.004562        146.1782
0.356                   1.003087        145.3867
0.36                    1.001065        144.6414
0.364                  0.9988436        143.9518
0.368                    0.99681        143.3179
0.372                    0.99532        142.7311
0.376                  0.9946343        142.1746
0.38                   0.9948726         141.627
0.384                  0.9959924        141.0658
0.388                  0.9977946        140.4716
0.392                  0.9999619        139.8316
0.396                   1.002115        139.1418
0.4                     1.003879        138.4073
0.404                   1.004949        137.6415
0.408                   1.005142        136.8634
0.412                   1.004422        136.0943
0.416                   1.002917         135.355
0.42                    1.000885        134.6612
0.424                  0.9986805        134.0219
0.428                  0.9966897        133.4367
0.432                  0.9952641        132.8962
0.436                   0.994656        132.3835
0.44                   0.9949741        131.8768
0.444                  0.9961626        131.3536
0.448                  0.9980108         130.795
0.452                   1.000192        130.1889
0.456                   1.002322         129.532
0.46                    1.004028        128.8304
0.464                   1.005013        128.0982
0.468                   1.005105        127.3549
0.472                   1.004285        126.6223
0.476                   1.002696        125.9208
0.48                    1.000613        125.2659
0.484                  0.9983999        124.6656
0.488                  0.9964472        124.1186
0.492                   0.995102        123.6144
0.496                   0.994605         123.135
0.5                    0.9950469        122.6582
0.504                  0.9963501        122.1614
0.508                  0.9982837        121.6261
0.512                   1.000505        121.0411
0.516                   1.002622        120.4043
0.52                    1.004261        119.7231
0.524                   1.005135        119.0128
0.528                   1.005088        118.2938
0.532                   1.004127        117.5883
0.536                   1.002417        116.9166
0.54                    1.000254        116.2937
0.544                  0.9980182        115.7262
0.548                  0.9961063        115.2116
0.552                    0.99486        114.7378
0.556                  0.9945047        114.2855
0.56                   0.9951067        113.8317
0.564                  0.9965608        113.3537
0.568                  0.9986089        112.8334
0.572                   1.000887        112.2609
0.576                   1.002992        111.6356
0.58                    1.004551        110.9666
0.584                   1.005289        110.2706
0.588                   1.005073        109.5692
0.592                   1.003937        108.8851
0.596                   1.002077        108.2385
0.6                     0.999816        107.6433
0.604                   0.997553        107.1051
0.608                  0.9956907        106.6193
0.612                  0.9945644         106.172
0.616                  0.9943794        105.7425
0.62                   0.9951731        105.3066
0.624                  0.9968056        104.8416
0.628                  0.9989869        104.3302
0.632                   1.001329        103.7638
0.636                   1.003415        103.1437
0.64                    1.004876         102.481
0.644                   1.005452        101.7942
0.648                   1.005036         101.106
0.652                   1.003697        100.4396
0.656                   1.001666        99.81514
0.66                   0.9992964        99.24545
0.664                   0.997009        98.73425
0.668                  0.9952125         98.2749
0.672                  0.9942326         97.8514
0.676                  0.9942503        97.44113
0.68                   0.9952672        97.01899
0.684                   0.997104        96.56215
0.688                   0.999434         96.0543
0.692                   1.001842        95.48857
0.696                   1.003899         94.8685
0.7                      1.00524        94.20735
0.704                   1.005624        93.52552
0.708                   1.004977        92.84714
0.712                   1.003407        92.19606
0.716                   1.001184        91.59178
0.72                   0.9986993        91.04599
0.724                  0.9963927        90.56031
0.728                  0.9946797        90.12569
0.732                  0.9938726        89.72367
0.736                   0.994123        89.32965
0.74                   0.9953911        88.91752
0.744                  0.9974528        88.46454
0.748                   0.999941        87.95559
0.752                   1.002411        87.38582
0.756                   1.004423        86.76129
0.76                    1.005618        86.09774
0.764                   1.005779        85.41771
0.768                    1.00487        84.74676
0.772                   1.003044        84.10917
0.776                   1.000616        83.52388
0.78                   0.9980139        83.00101
0.784                   0.995701        82.53983
0.788                  0.9940956        82.12844
0.792                  0.9934932        81.74568
0.796                  0.9940095         81.3649
0.8                    0.9955575        80.95898
0.804                  0.9978628        80.50545
0.808                   1.000514        79.99068
0.812                   1.003037        79.41223
0.816                   1.004981        78.77895
0.82                    1.005997        78.10937
0.824                   1.005898        77.42829
0.828                   1.004691        76.76276
0.832                   1.002581        76.13744
0.836                  0.9999314        75.57048
0.84                    0.997211        75.07011
0.844                   0.994906        74.63283
0.848                  0.9934359        74.24358
0.852                  0.9930735         73.8782
0.856                  0.9938928        73.50784
0.86                    0.995753        73.10447
0.864                  0.9983234        72.64606
0.868                   1.001145        72.12086
0.872                   1.003713        71.52912
0.876                   1.005567        70.88289
0.88                    1.006373        70.20371
0.884                   1.005979        69.51888
0.888                   1.004442        68.85686
0.892                   1.002022        68.24265
0.896                  0.9991407        67.69339
0.9                    0.9963068          67.215
0.904                  0.9940305        66.80084
0.908                  0.9927285        66.43231
0.912                  0.9926461        66.08198
0.916                   0.993808        65.71868
0.92                   0.9960123        65.31353
0.924                  0.9988664        64.84533
0.928                    1.00186        64.30449
0.932                   1.004456        63.69439
0.936                    1.00619        63.03067
0.94                    1.006744        62.33816
0.944                   1.006008        61.64678
0.948                   1.004098        60.98655
0.952                   1.001338        60.38262
0.956                  0.9982075        59.85078
0.96                   0.9952637        59.39435
0.964                  0.9930386        59.00301
0.968                  0.9919435        58.65409
0.972                  0.9921889         58.3166
0.976                  0.9937424        57.95695
0.98                   0.9963319        57.54551
0.984                  0.9994963        57.06214
0.988                   1.002669        56.49986
0.992                   1.005282        55.86571
0.996                   1.006864        55.17922
1                       1.007122        54.46896
1.004                   1.005996        53.76767
1.008                   1.003665        53.10697
1.012                   1.000526        52.51204
1.016                   0.997127        51.99712
1.02                   0.9940734        51.56236
1.024                  0.9919209        51.19324
1.028                  0.9910713        50.86258
1.032                  0.9916933        50.53536
1.036                   0.993688        50.17542
1.04                   0.9967039         49.7525
1.044                   1.000203        49.24788
1.048                   1.003558        48.65764
1.052                   1.006167        47.99298
1.056                   1.007555        47.27791
1.06                    1.007462        46.54504
1.064                   1.005881        45.83028
1.068                   1.003069        45.16695
1.072                  0.9995043        44.58019
1.076                  0.9958111        44.08222
1.08                   0.9926502        43.66957
1.084                  0.9906016        43.32278
1.088                  0.9900532        43.00938
1.092                  0.9911234        42.68984
1.096                  0.9936343        42.32519
1.1                    0.9971431        41.88457
1.104                   1.001023        41.35108
1.108                   1.004579        40.72445
1.112                   1.007171        40.02067
1.116                   1.008324        39.26887
1.12                    1.007812        38.50638
1.124                   1.005696        37.77267
1.128                   1.002319        37.10302
1.132                  0.9982578        36.52249
1.136                  0.9942225        36.04104
1.14                   0.9909397        35.65081
1.144                  0.9890164        35.32652
1.148                  0.9888239        35.02951
1.152                  0.9904205        34.71497
1.156                  0.9935355        34.34065
1.16                   0.9976184        33.87513
1.164                    1.00194        33.30361
1.168                   1.005724        32.63026
1.172                   1.008288        31.87656
1.176                   1.009156         31.0777
1.18                    1.008142        30.27647
1.184                   1.005387         29.5166
1.188                   1.001339        28.83582
1.192                  0.9966867        28.25911
1.196                   0.992248        27.79378
1.2                    0.9888276        27.42664
1.204                  0.9870665        27.12543
1.208                  0.9873157        26.84386
1.212                  0.9895608        26.53063
1.216                  0.9934185        26.13951
1.22                   0.9982067        25.63836
1.224                    1.00307        25.01512
1.228                   1.007135        24.27899
1.232                   1.009662        23.45838
1.236                   1.010172        22.59568
1.24                    1.008528        21.74051
1.244                   1.004963        20.94214
1.248                   1.000053        20.24145
1.252                  0.9946311        19.66389
1.256                  0.9896515        19.21364
1.26                   0.9860229        18.87114
1.264                   0.984436        18.59508
1.268                  0.9852221        18.32939
1.272                  0.9882792        18.01414
1.276                  0.9930837        17.59772
1.28                   0.9987855        17.04685
1.284                   1.004367        16.35236
1.288                   1.008823        15.52983
1.292                   1.011336        14.61609
1.296                   1.011411        13.66281
1.3                     1.008965        12.72855
1.304                   1.004343        11.87003
1.308                  0.9982841        11.13318
1.312                  0.9918108        10.54469
1.316                  0.9860645        10.10545
1.32                   0.9821036        9.787757
1.324                  0.9806989        9.538252
1.328                  0.9821688        9.287201
1.332                  0.9863033        8.962419
1.336                  0.9923922        8.504179
1.34                   0.9993583        7.876832
1.344                   1.005954        7.074577
1.348                   1.010985        6.121039
1.352                   1.013507        5.064162
1.356                   1.012987        3.968277
1.36                    1.009391        2.904754
1.364                   1.003208        1.941861
1.368                  0.9954004        1.134159
1.372                  0.9872637       0.5121122
1.376                  0.9802277      0.07358098
1.38                   0.9756005      -0.2200091
1.384                  0.9743067      -0.4398765
1.388                  0.9766817      -0.6773548
1.392                  0.9823797       -1.025042
1.396                  0.9904259       -1.557204
1.4                    0.9993968       -2.315364
1.404                   1.007682       -3.302293
1.408                   1.013764       -4.483972
1.412                   1.016462       -5.796879
1.416                   1.015126       -7.157895
1.42                    1.009746       -8.475311
1.424                   1.000982       -9.660693
1.428                  0.9901159       -10.64195
1.432                  0.9788832       -11.37743
1.436                  0.9692229       -11.86903
1.44                   0.9629312       -12.16993
1.444                  0.9612927       -12.38132
1.448                  0.9647724       -12.63501
1.452                  0.9728717       -13.06524
1.456                  0.9841971       -13.77911
1.46                    0.996721       -14.83585
1.464                   1.008149       -16.23989
1.468                     1.0163       -17.94543
1.472                   1.019444        -19.8673
1.476                   1.016544       -21.89342
1.48                    1.007433       -23.89702
1.484                  0.9928944       -25.74936
1.488                   0.974648       -27.33539
1.492                  0.9552186       -28.57491
1.496                  0.9376385       -29.44902
1.5                    0.9249625       -30.02563
1.504                  0.9196299       -30.47026
1.508                  0.9228237       -31.02682
1.512                  0.9340566        -31.9669
1.516                  0.9511618       -33.52815
1.52                   0.9706782       -35.87124
1.524                  0.9884444        -39.0704
1.528                   1.000189       -43.13062
1.532                   1.001988        -48.0157
1.536                  0.9905769       -53.67489
1.54                    0.963524       -60.06414
1.544                  0.9193355       -67.16383
1.548                  0.8575059       -74.99786
1.552                  0.7785598       -83.66338
