! TOUCHSTONE file generated by CST MICROWAVE STUDIO
! Date and time: Thu Jun  9 09:13:21 2022
! Project name: AppElm_antenne_patch_Alumina.cst
! Parameters = {L=30.5; W=41.8; e=0.035; h=1.6; lambda=0.190476; ls=90; w0=1.4; w1=0.373; ws=90; y0=14; y1=10}
! Header version: 2018
! Port assignment regex: !\s*Touchstone port\s*([0-9]+)\s*=\s*(CST MWS port|CST DS port)\s*([0-9]+|Zmin|Zmax)\s*\(\"(.*)\"\)(\s*mode\s*([0-9]+))?.*
! Touchstone port assignment:
! Touchstone port 1 = CST MWS port 1 ("")
# GHz S MA R 50
0                      0.9785097              -0
0.004                  0.9796787       -10.36799
0.008                  0.9830326       -20.62494
0.012                  0.9881361       -30.66687
0.016                  0.9943378       -40.40246
0.02                    1.000865       -49.75608
0.024                   1.006931       -58.66848
0.028                   1.011831        -67.0955
0.032                    1.01503       -75.00592
0.036                   1.016217       -82.37941
0.04                    1.015334       -89.20493
0.044                    1.01258        -95.4804
0.048                   1.008378        -101.213
0.052                   1.003326       -106.4207
0.056                  0.9981162        -111.133
0.06                   0.9934462       -115.3919
0.064                  0.9899226       -119.2511
0.068                  0.9879763       -122.7731
0.072                  0.9878011       -126.0244
0.076                   0.989331       -129.0698
0.08                   0.9922576       -131.9661
0.084                  0.9960863       -134.7573
0.088                   1.000217        -137.472
0.092                   1.004036       -140.1229
0.096                   1.007005       -142.7086
0.1                     1.008735       -145.2167
0.104                   1.009029       -147.6279
0.108                   1.007906       -149.9209
0.112                   1.005588        -152.076
0.116                    1.00247       -154.0795
0.12                   0.9990527       -155.9268
0.124                   0.995873       -157.6244
0.128                  0.9934185       -159.1897
0.132                   0.992053         -160.65
0.136                  0.9919596       -162.0382
0.14                   0.9931149       -163.3887
0.144                  0.9952967       -164.7319
0.148                  0.9981266       -166.0901
0.152                   1.001135       -167.4748
0.156                   1.003838       -168.8861
0.16                    1.005817       -170.3133
0.164                   1.006778        -171.738
0.168                   1.006592       -173.1371
0.172                   1.005317       -174.4869
0.176                   1.003178       -175.7667
0.18                     1.00054       -176.9627
0.184                  0.9978386       -178.0698
0.188                  0.9955193       -179.0936
0.192                  0.9939588        179.9509
0.196                  0.9934041        179.0409
0.2                    0.9939318        178.1499
0.204                  0.9954358        177.2518
0.208                  0.9976491        176.3258
0.212                   1.000191         175.359
0.216                   1.002635        174.3488
0.22                    1.004577        173.3021
0.224                   1.005704        172.2344
0.228                   1.005842        171.1665
0.232                   1.004979        170.1212
0.236                   1.003271        169.1197
0.24                     1.00101        168.1778
0.244                  0.9985808        167.3039
0.248                  0.9963941        166.4966
0.252                  0.9948196         165.745
0.256                  0.9941213        165.0307
0.26                   0.9944112        164.3302
0.264                  0.9956313        163.6198
0.268                  0.9975647         162.879
0.272                  0.9998742        162.0947
0.276                   1.002164        161.2628
0.28                    1.004045        160.3887
0.284                   1.005202         159.486
0.288                   1.005447        158.5741
0.292                   1.004744         157.675
0.296                   1.003216        156.8096
0.3                     1.001128        155.9943
0.304                  0.9988379        155.2383
0.308                  0.9967403        154.5415
0.312                  0.9951966         153.895
0.316                  0.9944729        153.2817
0.32                    0.994692        152.6796
0.324                  0.9958117        152.0659
0.328                  0.9976331        151.4207
0.332                  0.9998369        150.7309
0.336                    1.00204         149.992
0.34                    1.003863        149.2089
0.344                   1.004995        148.3947
0.348                   1.005245        147.5684
0.352                   1.004572        146.7515
0.356                   1.003093        145.9646
0.36                    1.001065        145.2241
0.364                  0.9988391        144.5392
0.368                  0.9968013        143.9101
0.372                   0.995308        143.3281
0.376                  0.9946212        142.7765
0.38                   0.9948606        142.2336
0.384                  0.9959833         141.677
0.388                  0.9977897        141.0872
0.392                  0.9999621        140.4516
0.396                    1.00212        139.7659
0.4                     1.003888        139.0354
0.404                   1.004961        138.2734
0.408                   1.005153        137.4989
0.412                   1.004433        136.7335
0.416                   1.002925        135.9978
0.42                    1.000889        135.3077
0.424                  0.9986797         134.672
0.428                  0.9966846        134.0905
0.432                  0.9952551        133.5538
0.436                  0.9946449        133.0447
0.44                   0.9949627        132.5417
0.444                  0.9961527        132.0221
0.448                  0.9980038         131.467
0.452                   1.000189        130.8642
0.456                   1.002324        130.2105
0.46                    1.004035        129.5119
0.464                   1.005023        128.7824
0.468                   1.005116        128.0418
0.472                   1.004297        127.3117
0.476                   1.002706        126.6128
0.48                     1.00062        125.9604
0.484                  0.9984026        125.3625
0.488                  0.9964452        124.8181
0.492                  0.9950951        124.3164
0.496                  0.9945945        123.8397
0.5                    0.9950339        123.3654
0.504                  0.9963367        122.8712
0.508                  0.9982718        122.3383
0.512                   1.000497        121.7556
0.516                   1.002618         121.121
0.52                    1.004262        120.4418
0.524                   1.005141        119.7333
0.528                   1.005099        119.0159
0.532                    1.00414        118.3119
0.536                   1.002429        117.6415
0.54                    1.000264        117.0199
0.544                  0.9980248        116.4537
0.548                  0.9961071        115.9404
0.552                  0.9948547         115.468
0.556                  0.9944934        115.0171
0.56                   0.9950908        114.5648
0.564                  0.9965424        114.0883
0.568                  0.9985908        113.5695
0.572                   1.000872        112.9983
0.576                   1.002982        112.3742
0.58                    1.004548        111.7062
0.584                   1.005294         111.011
0.588                   1.005085        110.3101
0.592                   1.003954        109.6262
0.596                   1.002096        108.9797
0.6                    0.9998336        108.3846
0.604                  0.9975662        107.8463
0.608                  0.9956966        107.3605
0.612                  0.9945615        106.9134
0.616                  0.9943677        106.4842
0.62                   0.9951536        106.0488
0.624                  0.9967814        105.5842
0.628                  0.9989616        105.0733
0.632                   1.001307        104.5073
0.636                     1.0034        103.8875
0.64                    1.004871        103.2248
0.644                   1.005457        102.5377
0.648                   1.005052        101.8488
0.652                   1.003721        101.1815
0.656                   1.001693        100.5558
0.66                   0.9993235        99.98477
0.664                  0.9970305        99.47221
0.668                  0.9952243        99.01161
0.672                  0.9942321        98.58706
0.676                  0.9942367        98.17595
0.68                   0.9952423        97.75321
0.684                  0.9970717        97.29592
0.688                  0.9993994         96.7877
0.692                   1.001811         96.2215
0.696                   1.003878        95.60076
0.7                     1.005231         94.9386
0.704                    1.00563        94.25535
0.708                   1.004997        93.57513
0.712                   1.003438        92.92181
0.716                   1.001222        92.31497
0.72                   0.9987357        91.76647
0.724                  0.9964215        91.27808
0.728                  0.9946948        90.84092
0.732                  0.9938704        90.43665
0.736                  0.9941026        90.04075
0.74                   0.9953551        89.62709
0.744                  0.9974065        89.17283
0.748                  0.9998915        88.66271
0.752                   1.002367        88.09166
0.756                   1.004392        87.46561
0.76                    1.005605        86.80007
0.764                   1.005786        86.11752
0.768                   1.004896        85.44349
0.772                   1.003085        84.80233
0.776                   1.000665        84.21307
0.78                   0.9980607        83.68607
0.784                  0.9957367         83.2208
0.788                  0.9941126        82.80559
0.792                  0.9934864        82.41946
0.796                  0.9939786        82.03583
0.8                    0.9955064        81.62753
0.804                  0.9977989          81.172
0.808                   1.000447        80.65534
0.812                   1.002979        80.07488
0.816                   1.004941        79.43922
0.82                    1.005981        78.76668
0.824                   1.005909        78.08194
0.828                   1.004728        77.41203
0.832                   1.002636         76.7817
0.836                  0.9999956        76.20929
0.84                   0.9972712        75.70331
0.844                  0.9949502        75.26055
0.848                  0.9934544        74.86622
0.852                  0.9930608        74.49642
0.856                  0.9938492        74.12233
0.86                    0.995684        73.71586
0.864                  0.9982399        73.25483
0.868                    1.00106        72.72712
0.872                   1.003641        72.13268
0.876                   1.005521        71.48324
0.88                     1.00636        70.80008
0.884                   1.006001        70.11034
0.888                   1.004496        69.44254
0.892                   1.002099        68.82179
0.896                  0.9992262        68.26546
0.9                    0.9963844        67.77991
0.904                  0.9940848        67.35884
0.908                  0.9927478          66.984
0.912                  0.9926244        66.62825
0.916                  0.9937471        66.26048
0.92                   0.9959206        65.85165
0.924                  0.9987586        65.38033
0.928                   1.001754        64.83647
0.932                    1.00437        64.22305
0.936                   1.006137        63.55528
0.94                    1.006735        62.85772
0.944                   1.006044        62.16017
0.948                   1.004173        61.49264
0.952                   1.001438        60.88049
0.956                  0.9983147        60.33992
0.96                   0.9953566         59.8747
0.964                  0.9930983        59.47501
0.968                  0.9919561        59.11866
0.972                  0.9921489        58.77488
0.976                  0.9936534        58.41017
0.98                   0.9962068        57.99468
0.984                  0.9993547        57.50785
0.988                   1.002534        56.94217
0.992                   1.005176        56.30413
0.996                   1.006804        55.61279
1                       1.007119        54.89635
1.004                   1.006049        54.18745
1.008                   1.003764        53.51779
1.012                   1.000653        52.91285
1.016                  0.9972568        52.38736
1.02                   0.9941799        51.94213
1.024                   0.991981        51.56327
1.028                  0.9910693        51.22409
1.032                  0.9916245         50.8899
1.036                  0.9935598        50.52453
1.04                   0.9965347        50.09737
1.044                   1.000019        49.58914
1.048                   1.003389        48.99525
1.052                   1.006039        48.32619
1.056                    1.00749         47.6054
1.06                    1.007468        46.86514
1.064                   1.005957        46.14118
1.068                     1.0032        45.46702
1.072                  0.9996651         44.8682
1.076                  0.9959692        44.35769
1.08                   0.9927729        43.93277
1.084                  0.9906611        43.57478
1.088                  0.9900324        43.25188
1.092                  0.9910195        42.92484
1.096                  0.9934598        42.55456
1.1                    0.9969234        42.10973
1.104                   1.000793        41.57266
1.108                   1.004375        40.94221
1.112                   1.007026        40.23351
1.116                   1.008262        39.47505
1.12                    1.007841        38.70373
1.124                    1.00581        37.95895
1.128                   1.002498        37.27626
1.132                  0.9984655        36.68136
1.136                  0.9944186         36.1851
1.14                   0.9910831        35.78059
1.144                  0.9890744        35.44361
1.148                  0.9887781         35.1362
1.152                   0.990271        34.81379
1.156                  0.9933019        34.43389
1.16                   0.9973356        33.96444
1.164                   1.001652        33.38964
1.168                   1.005479        32.71242
1.172                   1.008124        31.95331
1.176                     1.0091        31.14669
1.18                    1.008203        30.33499
1.184                   1.005552        29.56187
1.188                   1.001576        28.86541
1.192                  0.9969513        28.27159
1.196                   0.992487        27.78875
1.2                      0.98899        27.40519
1.204                  0.9871133         27.0897
1.208                  0.9872279        26.79693
1.212                  0.9893433        26.47574
1.216                  0.9931003        26.07951
1.22                   0.9978357        25.57514
1.224                   1.002704        24.94914
1.228                   1.006832        24.20932
1.232                   1.009471        23.38287
1.236                   1.010122        22.51126
1.24                    1.008624        21.64366
1.244                   1.005187        20.82931
1.248                    1.00036        20.10984
1.252                  0.9949613        19.51178
1.256                  0.9899361        19.04088
1.26                   0.9861982        18.67931
1.264                   0.984455        18.38729
1.268                  0.9850652        18.10972
1.272                  0.9879587        17.78684
1.276                  0.9926416         17.3663
1.28                   0.9982871        16.81342
1.284                   1.003888        16.11725
1.288                   1.008438        15.29156
1.292                   1.011104        14.37164
1.296                   1.011367        13.40806
1.3                      1.00911         12.4589
1.304                   1.004648        11.58103
1.308                  0.9986889        10.82127
1.312                  0.9922333        10.20786
1.316                  0.9864141        9.743769
1.32                   0.9822984        9.403594
1.324                  0.9806806        9.135979
1.328                  0.9819169        8.872377
1.332                  0.9858391        8.540653
1.336                  0.9917772        8.079947
1.34                   0.9986821        7.452619
1.344                   1.005319        6.650456
1.348                   1.010488        5.694735
1.352                   1.013223        4.631443
1.356                   1.012958        3.523568
1.36                    1.009616        2.441875
1.364                   1.003644        1.454877
1.368                  0.9959618       0.6183151
1.372                   0.987837     -0.03522053
1.376                  0.9806888      -0.5049739
1.38                    0.975837      -0.8263066
1.384                  0.9742409       -1.067631
1.388                  0.9762887       -1.318664
1.392                  0.9816945       -1.672079
1.396                  0.9895375       -2.203889
1.4                     0.998433        -2.95854
1.404                   1.006787       -3.942182
1.408                   1.013071       -5.124002
1.412                   1.016078       -6.443108
1.416                   1.015109       -7.818218
1.42                    1.010093       -9.158534
1.424                   1.001633       -10.37544
1.428                  0.9909475       -11.39541
1.432                  0.9797296       -12.17389
1.436                  0.9698978       -12.70853
1.44                   0.9632625       -13.04752
1.444                  0.9611576       -13.28745
1.448                  0.9641275       -13.55737
1.452                  0.9717658       -13.99156
1.456                  0.9827648       -14.69985
1.46                   0.9951574       -15.74611
1.464                   1.006676       -17.13992
1.468                   1.015133       -18.84029
1.472                   1.018756       -20.76603
1.476                   1.016444       -22.80805
1.48                    1.007945       -24.84159
1.484                  0.9939432       -26.73869
1.488                  0.9760577       -28.38348
1.492                  0.9567219       -29.69245
1.496                  0.9389055        -30.6402
1.5                    0.9256528        -31.2852
1.504                  0.9194626       -31.78233
1.508                  0.9216486       -32.36729
1.512                  0.9318987       -33.30925
1.516                  0.9482245       -34.84986
1.52                   0.9673064       -37.15805
1.524                  0.9850699       -40.31714
1.528                  0.9972763       -44.33971
1.532                  0.9999935       -49.19484
1.536                   0.989917       -54.83502
1.54                   0.9645618       -61.21809
1.544                  0.9223701       -68.32542
1.548                  0.8627712       -76.18126
1.552                  0.7862284       -84.88176
