! TOUCHSTONE file generated by CST MICROWAVE STUDIO
! Date and time: Tue Jun 14 13:15:09 2022
! Project name: AppElm_antenne_patch_FR4.cst
! Parameters = {L=45; W=58.5; e=0.035; h=1.6; lambda=0.190476; ls=120; w0=2.54; w1=0.847; ws=120; y0=13.5; y1=23.8}
! Header version: 2018
! Port assignment regex: !\s*Touchstone port\s*([0-9]+)\s*=\s*(CST MWS port|CST DS port)\s*([0-9]+|Zmin|Zmax)\s*\(\"(.*)\"\)(\s*mode\s*([0-9]+))?.*
! Touchstone port assignment:
! Touchstone port 1 = CST MWS port 1 ("")
# GHz S MA R 50
0                      0.9861676              -0
0.004                  0.9869635       -9.962603
0.008                  0.9892449        -19.8312
0.012                  0.9927074        -29.5168
0.016                  0.9968961       -38.93946
0.02                    1.001271       -48.03096
0.024                   1.005283       -56.73586
0.028                   1.008446       -65.01131
0.032                     1.0104       -72.82611
0.036                    1.01095       -80.15966
0.04                    1.010087       -87.00118
0.044                   1.007982       -93.34942
0.048                   1.004966       -99.21266
0.052                   1.001478       -104.6092
0.056                  0.9980056       -109.5672
0.06                   0.9950221       -114.1246
0.064                  0.9929145        -118.327
0.068                  0.9919326       -122.2251
0.072                  0.9921548       -125.8709
0.076                   0.993483       -129.3134
0.08                   0.9956634       -132.5948
0.084                  0.9983313       -135.7476
0.088                   1.001071       -138.7929
0.092                   1.003478        -141.741
0.096                   1.005219       -144.5927
0.1                     1.006073       -147.3419
0.104                   1.005959       -149.9785
0.108                   1.004944       -152.4913
0.112                   1.003223       -154.8718
0.116                    1.00109        -157.116
0.12                   0.9988898       -159.2265
0.124                  0.9969659       -161.2129
0.128                  0.9956067       -163.0917
0.132                   0.995003       -164.8841
0.136                  0.9952198       -166.6138
0.14                   0.9961906       -168.3036
0.144                   0.997732       -169.9726
0.148                  0.9995777       -171.6339
0.152                   1.001424       -173.2933
0.156                   1.002977       -174.9494
0.16                    1.004004       -176.5947
0.164                   1.004358       -178.2173
0.168                   1.004006       -179.8034
0.172                   1.003026        178.6603
0.176                   1.001593        177.1841
0.18                   0.9999508        175.7737
0.184                  0.9983696        174.4286
0.188                  0.9971045        173.1427
0.192                   0.996353        171.9042
0.196                  0.9962244         170.698
0.2                    0.9967233         169.508
0.204                   0.997751        168.3192
0.208                  0.9991247        167.1206
0.212                    1.00061        165.9062
0.216                   1.001959        164.6759
0.22                    1.002954        163.4352
0.224                    1.00344        162.1938
0.228                   1.003348         160.964
0.232                   1.002704        159.7584
0.236                   1.001624         158.588
0.24                    1.000294          157.46
0.244                  0.9989393         156.377
0.248                  0.9977843        155.3363
0.252                  0.9970187        154.3301
0.256                  0.9967635        153.3469
0.26                   0.9970531        152.3735
0.264                  0.9978292        151.3971
0.268                  0.9989539        150.4074
0.272                   1.000232        149.3982
0.276                   1.001447        148.3685
0.28                    1.002397        147.3221
0.284                   1.002926        146.2671
0.288                   1.002953        145.2144
0.292                   1.002478        144.1757
0.296                   1.001588        143.1616
0.3                     1.000437        142.1798
0.304                  0.9992213        141.2341
0.308                  0.9981475         140.323
0.312                  0.9973958        139.4408
0.316                  0.9970909        138.5779
0.32                   0.9972799        137.7225
0.324                  0.9979256        136.8629
0.328                  0.9989133        135.9894
0.332                   1.000071        135.0958
0.336                   1.001201        134.1803
0.34                    1.002111         133.246
0.344                    1.00265        132.3001
0.348                   1.002729        131.3524
0.352                   1.002338         130.414
0.356                   1.001548        129.4952
0.36                    1.000495        128.6038
0.364                  0.9993616        127.7437
0.368                  0.9983409        126.9145
0.372                  0.9976076        126.1113
0.376                  0.9972863        125.3253
0.38                   0.9974296        124.5457
0.384                  0.9980098        123.7614
0.388                  0.9989248         122.963
0.392                   1.000015        122.1442
0.396                   1.001091        121.3031
0.4                     1.001969        120.4425
0.404                     1.0025        119.5688
0.408                   1.002595        118.6915
0.412                   1.002238        117.8213
0.416                   1.001493        116.9682
0.42                     1.00049          116.14
0.424                  0.9994003        115.3408
0.428                  0.9984136        114.5703
0.432                  0.9976997         113.824
0.436                  0.9973814        113.0936
0.44                   0.9975131        112.3687
0.444                    0.99807        111.6384
0.448                  0.9989541        110.8936
0.452                   1.000011        110.1281
0.456                   1.001056        109.3401
0.46                    1.001909        108.5319
0.464                   1.002423        107.7102
0.468                   1.002509        106.8842
0.472                   1.002154        106.0643
0.476                   1.001418        105.2605
0.48                     1.00043        104.4804
0.484                  0.9993608        103.7282
0.488                  0.9983954        103.0035
0.492                  0.9977022        102.3018
0.496                  0.9974019        101.6149
0.5                    0.9975463        100.9323
0.504                  0.9981097        100.2436
0.508                   0.998993         99.5395
0.512                   1.000041        98.81412
0.516                    1.00107        98.06572
0.52                    1.001902        97.29698
0.524                   1.002391        96.51446
0.528                   1.002451        95.72754
0.532                   1.002073        94.94671
0.536                   1.001321        94.18182
0.54                    1.000324        93.44041
0.544                  0.9992574        92.72638
0.548                  0.9983059        92.03923
0.552                   0.997636        91.37412
0.556                  0.9973659        90.72267
0.56                   0.9975429        90.07441
0.564                  0.9981361        89.41863
0.568                   0.999041        88.74639
0.572                   1.000099        88.05195
0.576                   1.001123        87.33387
0.58                    1.001934        86.59518
0.584                    1.00239        85.84284
0.588                    1.00241        85.08643
0.592                   1.001989        84.33662
0.596                   1.001199        83.60326
0.6                     1.000177        82.89374
0.604                  0.9991006        82.21164
0.608                  0.9981583        81.55606
0.612                  0.9975164        80.92173
0.616                  0.9972884        80.29982
0.62                   0.9975154         79.6796
0.624                   0.998158        79.05027
0.628                  0.9991028        78.40293
0.632                   1.000184        77.73218
0.636                    1.00121        77.03703
0.64                       1.002        76.32106
0.644                   1.002415        75.59171
0.648                    1.00238        74.85903
0.652                   1.001899        74.13393
0.656                   1.001054        73.42629
0.66                   0.9999914        72.74333
0.664                  0.9988964        72.08816
0.668                  0.9979619        71.45936
0.672                  0.9973534        70.85098
0.676                  0.9971794        70.25365
0.68                   0.9974721        69.65619
0.684                  0.9981806        69.04765
0.688                  0.9991802        68.41924
0.692                   1.000294        67.76595
0.696                   1.001326        67.08738
0.7                     1.002092        66.38778
0.704                   1.002456        65.67534
0.708                   1.002351         64.9606
0.712                   1.001793        64.25482
0.716                   1.000876        63.56799
0.72                   0.9997602        62.90701
0.724                    0.99864        62.27449
0.728                   0.997713        61.66827
0.732                  0.9971442        61.08161
0.736                  0.9970359        60.50439
0.74                   0.9974089        59.92493
0.744                  0.9981984        59.33203
0.748                  0.9992651        58.71706
0.752                    1.00042        58.07549
0.756                   1.001457        57.40769
0.76                    1.002193        56.71873
0.764                   1.002495        56.01763
0.768                   1.002305        55.31563
0.772                   1.001653        54.62442
0.776                    1.00065        53.95396
0.78                     0.99947        53.31087
0.784                  0.9983194        52.69713
0.788                  0.9974018        52.10967
0.792                   0.996881        51.54076
0.796                  0.9968515        50.97944
0.8                    0.9973206        50.41337
0.804                  0.9982063        49.83114
0.808                  0.9993518        49.22433
0.812                   1.000554        48.58899
0.816                   1.001598        47.92634
0.82                    1.002297         47.2425
0.824                   1.002524        46.54746
0.828                   1.002234        45.85327
0.832                   1.001472        45.17201
0.836                   1.000369        44.51376
0.84                   0.9991155        43.88467
0.844                  0.9979317        43.28598
0.848                  0.9970276        42.71352
0.852                  0.9965654        42.15847
0.856                  0.9966298        41.60882
0.86                   0.9972119        41.05153
0.864                  0.9982097        40.47496
0.868                  0.9994465        39.87092
0.872                   1.000702        39.23618
0.876                   1.001752        38.57301
0.88                    1.002407        37.88871
0.884                   1.002545         37.1944
0.888                   1.002138        36.50302
0.892                    1.00125        35.82717
0.896                   1.000032        35.17691
0.9                     0.998695        34.55795
0.904                  0.9974754        33.97055
0.908                  0.9965896        33.40933
0.912                  0.9961977        32.86415
0.916                  0.9963723        32.32181
0.92                   0.9970855        31.76853
0.924                  0.9982122        31.19236
0.928                  0.9995526        30.58546
0.932                   1.000867        29.94547
0.936                   1.001921        29.27583
0.94                    1.002521        28.58524
0.944                   1.002557        27.88609
0.948                   1.002013        27.19234
0.952                   1.000978        26.51715
0.956                  0.9996278        25.87057
0.96                   0.9981974        25.25772
0.964                  0.9969388        24.67777
0.968                  0.9960766        24.12391
0.972                  0.9957675        23.58445
0.976                  0.9960706        23.04489
0.98                   0.9969354        22.49053
0.984                    0.99821        21.90917
0.988                  0.9996682        21.29339
0.992                   1.001049        20.64177
0.996                   1.002104         19.9592
1                        1.00264        19.25594
1.004                   1.002553        18.54586
1.008                    1.00185        17.84408
1.012                   1.000645        17.16438
1.016                  0.9991426        16.51679
1.02                   0.9976043        15.90575
1.024                  0.9963015        15.32914
1.028                  0.9954678        14.77849
1.032                  0.9952559        14.24032
1.036                  0.9957084         13.6986
1.04                    0.996749         13.1376
1.044                  0.9981944        12.54484
1.048                  0.9997879        11.91335
1.052                   1.001243        11.24291
1.056                   1.002298           10.54
1.06                    1.002755        9.816715
1.064                   1.002524        9.088651
1.068                   1.001633        8.372267
1.072                   1.000227         7.68209
1.076                  0.9985443        7.028138
1.08                   0.9968773        6.414047
1.084                  0.9955206          5.8362
1.088                  0.9947181        5.284155
1.092                  0.9946181        4.742368
1.096                  0.9952441        4.192962
1.1                    0.9964892        3.619015
1.104                  0.9981342        3.007678
1.108                  0.9998852        2.352524
1.112                   1.001427        1.654661
1.116                   1.002479       0.9224972
1.12                    1.002842       0.1702641
1.124                   1.002438      -0.5844083
1.128                    1.00132       -1.323418
1.132                  0.9996694       -2.031348
1.136                  0.9977659        -2.69813
1.14                   0.9959384       -3.321042
1.144                  0.9945099       -3.905455
1.148                  0.9937377       -4.464158
1.152                  0.9937657       -5.015216
1.156                  0.9945955        -5.57874
1.16                   0.9960843       -6.173165
1.164                  0.9979685       -6.811843
1.168                  0.9999109       -7.500617
1.172                    1.00156       -8.236813
1.176                   1.002611       -9.009765
1.18                    1.002861       -9.802659
1.184                   1.002244       -10.59535
1.188                   1.000846       -11.36773
1.192                  0.9988904       -12.10314
1.196                  0.9967062       -12.79135
1.2                    0.9946694       -13.43065
1.204                  0.9931392       -14.02852
1.208                  0.9923915       -14.60061
1.212                  0.9925673       -15.16817
1.216                  0.9936428       -15.75417
1.22                   0.9954316       -16.37906
1.224                   0.997616       -17.05697
1.228                  0.9998029       -17.79317
1.232                   1.001593       -18.58315
1.236                   1.002651       -19.41352
1.24                    1.002765       -20.26424
1.244                   1.001881       -21.11195
1.248                   1.000123       -21.93384
1.252                  0.9977669        -22.7115
1.256                  0.9952047       -23.43428
1.26                   0.9928742       -24.10154
1.264                  0.9911847        -24.7233
1.268                  0.9904408       -25.31891
1.272                  0.9907836        -25.9138
1.276                  0.9921608       -26.53486
1.28                   0.9943315       -27.20545
1.284                  0.9969078       -27.94104
1.288                  0.9994221       -28.74642
1.292                   1.001409       -29.61498
1.296                   1.002487       -30.52987
1.3                     1.002424       -31.46685
1.304                   1.001181       -32.39822
1.308                  0.9989222       -33.29733
1.312                  0.9959943       -34.14302
1.316                  0.9928725       -34.92363
1.32                   0.9900824       -35.63958
1.324                   0.988108       -36.30409
1.328                  0.9873017       -36.94147
1.332                  0.9878138       -37.58315
1.336                    0.98956       -38.26185
1.34                   0.9922292       -39.00553
1.344                  0.9953362       -39.83219
1.348                  0.9983066       -40.74662
1.352                   1.000575       -41.73978
1.356                   1.001684       -42.79038
1.36                    1.001361       -43.86839
1.364                  0.9995734       -44.93977
1.368                  0.9965348       -45.97193
1.372                  0.9926845       -46.93908
1.376                  0.9886205        -47.8272
1.38                   0.9850026       -48.63743
1.384                  0.9824379       -49.38719
1.388                  0.9813674       -50.10812
1.392                  0.9819751       -50.84109
1.396                   0.984144       -51.62875
1.4                    0.9874675       -52.50745
1.404                   0.991315       -53.50066
1.408                  0.9949406       -54.61483
1.412                  0.9976095       -55.83858
1.416                   0.998722       -57.14489
1.42                   0.9979153       -58.49541
1.424                  0.9951306       -59.84629
1.428                  0.9906348       -61.15482
1.432                  0.9849937       -62.38652
1.436                  0.9789962       -63.52175
1.44                    0.973532       -64.56098
1.444                  0.9694403       -65.52739
1.448                  0.9673512       -66.46511
1.452                  0.9675522       -67.43291
1.456                  0.9699131       -68.49398
1.46                   0.9738894        -69.7043
1.464                  0.9786044       -71.10266
1.468                  0.9829915       -72.70459
1.472                   0.985968       -74.50082
1.476                  0.9866065       -76.45999
1.48                   0.9842804       -78.53396
1.484                  0.9787687       -80.66494
1.488                   0.970308       -82.79392
1.492                  0.9595839       -84.86992
1.496                  0.9476579       -86.86034
1.5                    0.9358224        -88.7613
1.504                  0.9253915       -90.60591
1.508                  0.9174497       -92.46774
1.512                  0.9126034       -94.45595
1.516                  0.9107952       -96.70187
1.52                   0.9112341          -99.34
1.524                  0.9124649       -102.4899
1.528                  0.9125512       -106.2445
1.532                  0.9093265        -110.668
1.536                  0.9006531       -115.8013
1.54                   0.8846541       -121.6734
1.544                  0.8599024       -128.3149
1.548                  0.8255695       -135.7733
1.552                  0.7815501       -144.1302
