! TOUCHSTONE file generated by CST MICROWAVE STUDIO
! Date and time: Tue Jun 14 13:15:11 2022
! Project name: AppElm_antenne_patch_FR4.cst
! Parameters = {L=45; W=58.5; e=0.035; h=1.6; lambda=0.190476; ls=120; w0=2.54; w1=0.847; ws=120; y0=15.3; y1=23.8}
! Header version: 2018
! Port assignment regex: !\s*Touchstone port\s*([0-9]+)\s*=\s*(CST MWS port|CST DS port)\s*([0-9]+|Zmin|Zmax)\s*\(\"(.*)\"\)(\s*mode\s*([0-9]+))?.*
! Touchstone port assignment:
! Touchstone port 1 = CST MWS port 1 ("")
# GHz S MA R 50
0                      0.9861668              -0
0.004                  0.9869586       -9.960473
0.008                  0.9892281       -19.82788
0.012                  0.9926751       -29.51404
0.016                  0.9968491       -38.93975
0.02                    1.001215        -48.0373
0.024                   1.005228       -56.75162
0.028                   1.008406       -65.04002
0.032                   1.010385       -72.87134
0.036                    1.01097        -80.2249
0.04                    1.010144        -87.0897
0.044                   1.008075       -93.46413
0.048                   1.005084       -99.35601
0.052                   1.001605        -104.783
0.056                  0.9981237       -109.7727
0.06                   0.9951109       -114.3621
0.064                  0.9929574       -118.5962
0.068                  0.9919198       -122.5253
0.072                  0.9920859        -126.201
0.076                  0.9933669       -129.6723
0.08                   0.9955175       -132.9815
0.084                  0.9981794       -136.1616
0.088                   1.000939       -139.2343
0.092                   1.003389       -142.2104
0.096                   1.005189       -145.0913
0.1                      1.00611        -147.871
0.104                    1.00606       -150.5393
0.108                   1.005095       -153.0852
0.112                     1.0034       -155.4996
0.116                   1.001265       -157.7779
0.12                   0.9990347       -159.9219
0.124                  0.9970559       -161.9408
0.128                  0.9956262       -163.8504
0.132                  0.9949479       -165.6718
0.136                  0.9950987       -167.4285
0.14                   0.9960236       -169.1439
0.144                  0.9975471       -170.8374
0.148                  0.9994064       -172.5231
0.152                   1.001295       -174.2074
0.156                   1.002914       -175.8896
0.16                    1.004016       -177.5625
0.164                   1.004443       -179.2144
0.168                   1.004151        179.1688
0.172                   1.003205        177.6008
0.176                   1.001775        176.0925
0.18                    1.000103        174.6504
0.184                  0.9984649        173.2748
0.188                  0.9971245        171.9601
0.192                  0.9962927        170.6948
0.196                  0.9960928        169.4639
0.2                    0.9965419        168.2508
0.204                  0.9975502        167.0399
0.208                  0.9989387        165.8193
0.212                    1.00047        164.5824
0.216                   1.001889        163.3283
0.22                    1.002967        162.0621
0.224                   1.003532        160.7933
0.228                   1.003503        159.5345
0.232                   1.002895        158.2989
0.236                   1.001818         157.098
0.24                    1.000457          155.94
0.244                  0.9990416        154.8283
0.248                  0.9978074        153.7607
0.252                  0.9969578        152.7297
0.256                  0.9966289        151.7238
0.26                   0.9968684        150.7294
0.264                  0.9976273         149.733
0.268                  0.9987703        148.7233
0.272                     1.0001        147.6935
0.276                   1.001391        146.6416
0.28                    1.002427        145.5712
0.284                   1.003038        144.4903
0.288                   1.003128          143.41
0.292                   1.002688        142.3426
0.296                   1.001796        141.2996
0.3                     1.000606        140.2894
0.304                  0.9993235        139.3166
0.308                  0.9981645        138.3805
0.312                  0.9973246        137.4755
0.316                  0.9969445        136.5919
0.32                   0.9970847        135.7175
0.324                  0.9977172        134.8399
0.328                  0.9987293        133.9483
0.332                  0.9999456        133.0356
0.336                   1.001157        132.0994
0.34                    1.002158        131.1425
0.344                    1.00278        130.1718
0.348                   1.002921        129.1977
0.352                   1.002559        128.2318
0.356                    1.00176        127.2853
0.36                     1.00066         126.367
0.364                  0.9994509        125.4816
0.368                  0.9983381        124.6293
0.372                  0.9975128        123.8052
0.376                   0.997116        123.0006
0.38                   0.9972138         122.204
0.384                  0.9977871        121.4035
0.388                  0.9987347        120.5885
0.392                  0.9998914        119.7521
0.396                   1.001057        118.8915
0.4                     1.002031        118.0092
0.404                   1.002647        117.1117
0.408                     1.0028        116.2089
0.412                   1.002466        115.3122
0.416                   1.001703        114.4326
0.42                    1.000643        113.5789
0.424                  0.9994682        112.7559
0.428                  0.9983827        111.9641
0.432                  0.9975737        111.1989
0.436                  0.9971816        110.4518
0.44                   0.9972737        109.7118
0.444                  0.9978331        108.9669
0.448                  0.9987612        108.2069
0.452                  0.9998959        107.4249
0.456                    1.00104        106.6182
0.46                    1.001994         105.789
0.464                   1.002594         104.944
0.468                   1.002736         104.093
0.472                   1.002396        103.2473
0.476                   1.001632        102.4179
0.48                    1.000576        101.6135
0.484                   0.999412         100.839
0.488                  0.9983415        100.0945
0.492                  0.9975515        99.37564
0.496                  0.9971805        98.67372
0.5                    0.9972938        97.97758
0.504                  0.9978716        97.27552
0.508                  0.9988123         96.5573
0.512                  0.9999513        95.81605
0.516                    1.00109        95.04936
0.52                    1.002028        94.25972
0.524                   1.002603          93.454
0.528                   1.002714        92.64224
0.532                    1.00234        91.83592
0.536                   1.001546        91.04599
0.54                    1.000469        90.28109
0.544                  0.9992954        89.54591
0.548                  0.9982309        88.84039
0.552                  0.9974621         88.1596
0.556                  0.9971251        87.49462
0.56                   0.9972801        86.83401
0.564                  0.9979004        86.16592
0.568                  0.9988771        85.48017
0.572                   1.000039        84.77006
0.576                   1.001181        84.03363
0.58                    1.002103        83.27378
0.584                   1.002643        82.49788
0.588                   1.002704        81.71639
0.592                   1.002274        80.94106
0.596                   1.001426        80.18299
0.6                     1.000306        79.45065
0.604                  0.9991094        78.74843
0.608                  0.9980457        78.07574
0.612                  0.9973028        77.42709
0.616                  0.9970131        76.79295
0.62                    0.997229        76.16145
0.624                  0.9979137         75.5205
0.628                  0.9989466        74.85992
0.632                   1.000146        74.17338
0.636                     1.0013         73.4594
0.64                    1.002205        72.72161
0.644                   1.002699        71.96801
0.648                   1.002695        71.20966
0.652                    1.00219        70.45877
0.656                   1.001269        69.72653
0.66                    1.000091        69.02124
0.664                  0.9988622        68.34684
0.668                  0.9977992        67.70203
0.672                  0.9970904        67.08055
0.676                  0.9968635        66.47207
0.68                   0.9971602        65.86412
0.684                  0.9979301        65.24428
0.688                  0.9990379        64.60249
0.692                   1.000288        63.93279
0.696                   1.001459        63.23439
0.7                     1.002343        62.51178
0.704                   1.002783        61.77388
0.708                   1.002697        61.03247
0.712                   1.002098        60.30025
0.716                   1.001086        59.58857
0.72                   0.9998372        58.90551
0.724                  0.9985703        58.25438
0.728                  0.9975094        57.63303
0.732                   0.996844        57.03418
0.736                  0.9966947        56.44655
0.74                   0.9970909        55.85694
0.744                  0.9979645        55.25261
0.748                   0.999162        54.62354
0.752                   1.000472        53.96433
0.756                   1.001661        53.27508
0.76                    1.002517        52.56132
0.764                   1.002888          51.833
0.768                   1.002702        51.10284
0.772                   1.001988        50.38407
0.776                   1.000867        49.68821
0.78                   0.9995336        49.02301
0.784                  0.9982219        48.39102
0.788                  0.9971642        47.78909
0.792                   0.996551        47.20866
0.796                  0.9964942        46.63735
0.8                    0.9970073        46.06113
0.804                  0.9980016        45.46687
0.808                  0.9993017        44.84473
0.812                   1.000677        44.18997
0.816                   1.001882        43.50372
0.82                    1.002702        42.79276
0.824                   1.002986         42.0683
0.828                   1.002679        41.34406
0.832                    1.00183        40.63391
0.836                   1.000581        39.94949
0.84                     0.99915        39.29815
0.844                  0.9977881        38.68155
0.848                  0.9967378        38.09523
0.852                  0.9961884        37.52925
0.856                  0.9962416        36.96992
0.86                   0.9968917        36.40225
0.864                  0.9980254        35.81274
0.868                  0.9994426        35.19177
0.872                   1.000891        34.53541
0.876                   1.002111        33.84605
0.88                    1.002884         33.1319
0.884                   1.003066        32.40561
0.888                   1.002618        31.68205
0.892                   1.001612        30.97576
0.896                   1.000218        30.29853
0.9                     0.998678        29.65717
0.904                  0.9972638        29.05226
0.908                  0.9962279        28.47783
0.912                  0.9957583         27.9223
0.916                  0.9959436         27.3705
0.92                   0.9967551         26.8064
0.924                  0.9980516        26.21605
0.928                  0.9996034         25.5902
0.932                   1.001134        24.92588
0.936                    1.00237        24.22692
0.94                    1.003086        23.50323
0.944                   1.003148        22.76908
0.948                   1.002537        22.04064
0.952                   1.001352        21.33324
0.956                   0.999793        20.65872
0.96                   0.9981325        20.02328
0.964                  0.9966638        19.42619
0.968                  0.9956507        18.85975
0.972                  0.9952787        18.31048
0.976                  0.9956206        17.76148
0.98                   0.9966212        17.19555
0.984                  0.9981059        16.59833
0.988                   0.999812        15.96098
0.992                   1.001435        15.28169
0.996                   1.002684          14.566
1                       1.003331        13.82576
1.004                   1.003251         13.0771
1.008                   1.002449        12.33768
1.012                   1.001054         11.6237
1.016                  0.9993041        10.94708
1.02                   0.9975044        10.31324
1.024                  0.9959737        9.719959
1.028                  0.9949884         9.15747
1.032                   0.994731        8.610074
1.036                  0.9952552        8.058909
1.04                   0.9964744        7.485416
1.044                  0.9981754        6.874784
1.048                   1.000057        6.218671
1.052                   1.001783        5.516653
1.056                   1.003042        4.776258
1.06                    1.003601          4.0116
1.064                   1.003349         3.24097
1.068                   1.002317        2.483765
1.072                   1.000672        1.757198
1.076                  0.9986937        1.073284
1.08                   0.9967264       0.4365622
1.084                  0.9951195      -0.1569961
1.088                  0.9941641      -0.7195634
1.092                   0.994039       -1.269467
1.096                  0.9947758       -1.827911
1.1                    0.9962504       -2.415056
1.104                  0.9982046       -3.046255
1.108                   1.000291       -3.729246
1.112                   1.002135       -4.462863
1.116                   1.003403       -5.237215
1.12                    1.003855       -6.035555
1.124                   1.003395       -6.836955
1.128                   1.002085       -7.619942
1.132                   1.000136       -8.366082
1.136                  0.9978793       -9.063182
1.14                   0.9957059       -9.707721
1.144                  0.9940024       -10.30585
1.148                  0.9930786       -10.87266
1.152                    0.99311       -11.42965
1.156                   0.994102       -12.00093
1.16                   0.9958861       -12.60862
1.164                  0.9981492       -13.26882
1.168                   1.000488       -13.98861
1.172                   1.002482        -14.7649
1.176                   1.003764       -15.58501
1.18                    1.004091       -16.42893
1.184                   1.003379       -17.27262
1.188                   1.001727       -18.09197
1.192                  0.9994017       -18.86686
1.196                  0.9967945       -19.58478
1.2                    0.9943576       -20.24336
1.204                  0.9925245        -20.8513
1.208                   0.991631       -21.42727
1.212                  0.9918504       -21.99683
1.216                  0.9931578       -22.58776
1.22                   0.9953307       -23.22482
1.224                   0.997987       -23.92517
1.228                   1.000653       -24.69521
1.232                   1.002846       -25.52959
1.236                    1.00416       -26.41222
1.24                    1.004336       -27.31902
1.244                   1.003307       -28.22185
1.248                   1.001217       -29.09314
1.252                  0.9983982       -29.91043
1.256                  0.9953218       -30.66051
1.26                   0.9925194       -31.34221
1.264                  0.9904901       -31.96737
1.268                  0.9896077       -32.55928
1.272                  0.9900484       -33.14885
1.276                  0.9917517       -33.76892
1.28                   0.9944268         -34.448
1.284                  0.9976024       -35.20496
1.288                   1.000709       -36.04565
1.292                    1.00318         -36.962
1.296                   1.004549       -37.93356
1.3                     1.004531       -38.93091
1.304                   1.003074       -39.92041
1.308                   1.000375       -40.86947
1.312                  0.9968532       -41.75207
1.316                  0.9930872       -42.55348
1.32                   0.9897211       -43.27371
1.324                  0.9873514       -43.92851
1.328                  0.9864148       -44.54751
1.332                  0.9871016       -45.16925
1.336                  0.9893108       -45.83408
1.34                   0.9926615       -46.57641
1.344                  0.9965581       -47.41823
1.348                   1.000294       -48.36527
1.352                   1.003174       -49.40622
1.356                   1.004634       -50.51486
1.36                     1.00434       -51.65434
1.364                   1.002245       -52.78289
1.368                  0.9986108       -53.86026
1.372                  0.9939738       -54.85429
1.376                  0.9890708       -55.74701
1.38                   0.9847198       -56.53905
1.384                  0.9816781       -57.25134
1.388                  0.9804979       -57.92288
1.392                  0.9814131       -58.60431
1.396                  0.9842799       -59.34867
1.4                    0.9885919       -60.20093
1.404                  0.9935643       -61.18962
1.408                  0.9982693       -62.32199
1.412                   1.001795       -63.58314
1.416                   1.003399       -64.93896
1.42                    1.002633       -66.34161
1.424                  0.9994231       -67.73639
1.428                  0.9941011       -69.06985
1.432                   0.987372       -70.29816
1.436                  0.9802231       -71.39548
1.44                   0.9737752       -72.36099
1.444                  0.9690908       -73.22251
1.448                  0.9669712       -74.03481
1.452                  0.9677827       -74.87152
1.456                  0.9713577       -75.81159
1.46                   0.9770015       -76.92407
1.464                  0.9836005       -78.25514
1.468                  0.9898098        -79.8208
1.472                  0.9942737       -81.60577
1.476                  0.9958393       -83.56737
1.48                   0.9937385       -85.64241
1.484                  0.9877134        -87.7557
1.488                  0.9780856       -89.82984
1.492                  0.9657495        -91.7963
1.496                   0.952089       -93.60829
1.5                    0.9387997       -95.25451
1.504                   0.927622       -96.77128
1.508                  0.9200064       -98.24777
1.512                  0.9167731       -99.81986
1.516                  0.9178581       -101.6503
1.52                   0.9222244       -103.9011
1.524                  0.9279681       -106.7082
1.528                  0.9325792       -110.1668
1.532                  0.9332732       -114.3302
1.536                  0.9273146       -119.2203
1.54                   0.9122864       -124.8414
1.544                  0.8862905       -131.1979
1.548                  0.8480914       -138.3107
1.552                  0.7972215       -146.2376
